Labgrid Console Logfile for main
Logfile started at 2024-12-19 14:40:37.769006
=== Log starts here ===

root@arm:~# run() { echo -n "$MARKER"; sh -c "$@"; echo "$MARKER $?"; }
root@arm:~# echo 'CGFW''WLAUXW'
CGFWWLAUXW
root@arm:~# MARKER='TYJO''KEOXJK' run 'grep -r -l rohm,bd71837 /proc/device-tree  | sed '"'"'s![^/]*$!!'"'"''
TYJOKEOXJK/proc/device-tree/ocp/interconnect@48000000/segment@100000/target-module@9c000/i2c@0/pmic@4b/
TYJOKEOXJK 0
root@arm:~# echo 'XQJM''ANCNQL'
XQJMANCNQL
root@arm:~# MARKER='UHGN''QWNUZM' run 'test -f /proc/device-tree/ocp/interconnectt\@48000000/segment\@100000/target-module\@9c000/i2c\@0/pmic\@4b/regulators/BUCK11/rohm,no-regulator-enable-control ;echo $?'
UHGNQWNUZM1
UHGNQWNUZM 0
root@arm:~# echo 'WUES''CYWWKP'
WUESCYWWKP
root@arm:~# MARKER='YNXW''GMLFFE' run 'echo 1 > /sys/kernel/mva_test/regulators/bbuck1_en'
YNXWGMLFFEYNXWGMLFFE 0
root@arm:~# echo 'QOUK''JNPGOH'
QOUKJNPGOH
root@arm:~# MARKER='GAEG''LPQNQB' run 'i2cget -y -f 2 0x4b 0x5'
GAEGLPQNQB0x03
GAEGLPQNQB 0
root@arm:~# echo 'UOMK''QSJFPC'
UOMKQSJFPC
root@arm:~# MARKER='ACAM''PWWATN' run 'grep -r -l rohm,bd71837 /proc/device-tree  | sed '"'"'s![^/]*$!!'"'"''
ACAMPWWATN/proc/device-tree/ocp/interconnect@48000000/segment@100000/target-module@9c000/i2c@0/pmic@4b/
ACAMPWWATN 0
root@arm:~# echo 'JNYA''JPTBTX'
JNYAJPTBTX
root@arm:~# MARKER='NFAT''KQBOXF' run 'test -f /proc/device-tree/ocp/interconnectt\@48000000/segment\@100000/target-module\@9c000/i2c\@0/pmic\@4b/regulators/BUCK11/rohm,no-regulator-enable-control ;echo $?'
NFATKQBOXF1
NFATKQBOXF 0
root@arm:~# echo 'QJKW''GCUFBA'
QJKWGCUFBA
root@arm:~# MARKER='AKCJ''YTWLFA' run 'grep -r -l rohm,bd71837 /proc/device-tree  | sed '"'"'s![^/]*$!!'"'"''
AKCJYTWLFA/proc/device-tree/ocp/interconnect@48000000/segment@100000/target-module@9c000/i2c@0/pmic@4b/
AKCJYTWLFA 0
root@arm:~# echo 'CZAO''ZMJYLT'
CZAOZMJYLT
root@arm:~# MARKER='ATEE''FLEHMO' run 'test -f /proc/device-tree/ocp/interconnectt\@48000000/segment\@100000/target-module\@9c000/i2c\@0/pmic\@4b/regulators/BUCK11/regulator-always-on ;echo $?'
ATEEFLEHMO1
ATEEFLEHMO 0
root@arm:~# echo 'UBVL''MNLFGP'
UBVLMNLFGP
root@arm:~# MARKER='WBSJ''ACEHES' run 'echo 0 > /sys/kernel/mva_test/regulators/bbuck1_en'
WBSJACEHESWBSJACEHES 0
root@arm:~# echo 'YHSH''BNQFXV'
YHSHBNQFXV
root@arm:~# MARKER='PQME''FYBQVE' run 'i2cget -y -f 2 0x4b 0x5'
PQMEFYBQVE0x02
PQMEFYBQVE 0
root@arm:~# echo 'LTAH''YXWYAX'
LTAHYXWYAX
root@arm:~# MARKER='MJZW''SXYNHA' run 'grep -r -l rohm,bd71837 /proc/device-tree  | sed '"'"'s![^/]*$!!'"'"''
MJZWSXYNHA/proc/device-tree/ocp/interconnect@48000000/segment@100000/target-module@9c000/i2c@0/pmic@4b/
MJZWSXYNHA 0
root@arm:~# echo 'SWJX''GZAOON'
SWJXGZAOON
root@arm:~# MARKER='QZXK''MYOEXK' run 'test -f /proc/device-tree/ocp/interconnectt\@48000000/segment\@100000/target-module\@9c000/i2c\@0/pmic\@4b/regulators/BUCK22/rohm,no-regulator-enable-control ;echo $?'
QZXKMYOEXK1
QZXKMYOEXK 0
root@arm:~# echo 'YUSP''JXEZEP'
YUSPJXEZEP
root@arm:~# MARKER='CAXY''HSZNCL' run 'echo 1 > /sys/kernel/mva_test/regulators/bbuck2_en'
CAXYHSZNCLCAXYHSZNCL 0
root@arm:~# echo 'PKOY''KMWXZC'
PKOYKMWXZC
root@arm:~# MARKER='MGFU''BYYTHQ' run 'i2cget -y -f 2 0x4b 0x6'
MGFUBYYTHQ0x43
MGFUBYYTHQ 0
root@arm:~# echo 'XVXM''SQHZUN'
XVXMSQHZUN
root@arm:~# MARKER='ZJFF''BOWVYB' run 'grep -r -l rohm,bd71837 /proc/device-tree  | sed '"'"'s![^/]*$!!'"'"''
ZJFFBOWVYB/proc/device-tree/ocp/interconnect@48000000/segment@100000/target-module@9c000/i2c@0/pmic@4b/
ZJFFBOWVYB 0
root@arm:~# echo 'EYKE''FBXWVY'
EYKEFBXWVY
root@arm:~# MARKER='HKYH''BOUAWA' run 'test -f /proc/device-tree/ocp/interconnectt\@48000000/segment\@100000/target-module\@9c000/i2c\@0/pmic\@4b/regulators/BUCK22/rohm,no-regulator-enable-control ;echo $?'
HKYHBOUAWA1
HKYHBOUAWA 0
root@arm:~# echo 'XBLG''ZXFMSH'
XBLGZXFMSH
root@arm:~# MARKER='XFNL''FLXETP' run 'grep -r -l rohm,bd71837 /proc/device-tree  | sed '"'"'s![^/]*$!!'"'"''
XFNLFLXETP/proc/device-tree/ocp/interconnect@48000000/segment@100000/target-module@9c000/i2c@0/pmic@4b/
XFNLFLXETP 0
root@arm:~# echo 'YUSW''SNXXJA'
YUSWSNXXJA
root@arm:~# MARKER='CWKN''PMJJLG' run 'test -f /proc/device-tree/ocp/interconnectt\@48000000/segment\@100000/target-module\@9c000/i2c\@0/pmic\@4b/regulators/BUCK22/regulator-always-on ;echo $?'
CWKNPMJJLG0
CWKNPMJJLG 0
root@arm:~# echo 'PPMF''CFAWPM'
PPMFCFAWPM
root@arm:~# MARKER='AXFM''QZMAZG' run 'grep -r -l rohm,bd71837 /proc/device-tree  | sed '"'"'s![^/]*$!!'"'"''
AXFMQZMAZG/proc/device-tree/ocp/interconnect@48000000/segment@100000/target-module@9c000/i2c@0/pmic@4b/
AXFMQZMAZG 0
root@arm:~# echo 'NZPO''GTBVTK'
NZPOGTBVTK
root@arm:~# MARKER='BLHA''FLWMXV' run 'test -f /proc/device-tree/ocp/interconnectt\@48000000/segment\@100000/target-module\@9c000/i2c\@0/pmic\@4b/regulators/BUCK33/rohm,no-regulator-enable-control ;echo $?'
BLHAFLWMXV0
BLHAFLWMXV 0
root@arm:~# echo 'NOMB''QFMXZA'
NOMBQFMXZA
root@arm:~# MARKER='NNHK''JYOBAF' run 'grep -r -l rohm,bd71837 /proc/device-tree  | sed '"'"'s![^/]*$!!'"'"''
NNHKJYOBAF/proc/device-tree/ocp/interconnect@48000000/segment@100000/target-module@9c000/i2c@0/pmic@4b/
NNHKJYOBAF 0
root@arm:~# echo 'FUPF''JSMXXT'
FUPFJSMXXT
root@arm:~# MARKER='WSOW''NJNGPJ' run 'test -f /proc/device-tree/ocp/interconnectt\@48000000/segment\@100000/target-module\@9c000/i2c\@0/pmic\@4b/regulators/BUCK33/rohm,no-regulator-enable-control ;echo $?'
WSOWNJNGPJ0
WSOWNJNGPJ 0
root@arm:~# echo 'VUGM''NZWPYM'
VUGMNZWPYM
root@arm:~# MARKER='SNMB''AQQOPP' run 'grep -r -l rohm,bd71837 /proc/device-tree  | sed '"'"'s![^/]*$!!'"'"''
SNMBAQQOPP/proc/device-tree/ocp/interconnect@48000000/segment@100000/target-module@9c000/i2c@0/pmic@4b/
SNMBAQQOPP 0
root@arm:~# echo 'ASCN''VYVJBX'
ASCNVYVJBX
root@arm:~# MARKER='XTSB''ZUGCNW' run 'test -f /proc/device-tree/ocp/interconnectt\@48000000/segment\@100000/target-module\@9c000/i2c\@0/pmic\@4b/regulators/BUCK44/rohm,no-regulator-enable-control ;echo $?'
XTSBZUGCNW1
XTSBZUGCNW 0
root@arm:~# echo 'BBON''KELWKZ'
BBONKELWKZ
root@arm:~# MARKER='SPHJ''NZGWEO' run 'echo 1 > /sys/kernel/mva_test/regulators/bbuck4_en'
SPHJNZGWEOSPHJNZGWEO 0
root@arm:~# echo 'CFTO''LLQVVM'
CFTOLLQVVM
root@arm:~# MARKER='LGXN''YPWYEW' run 'i2cget -y -f 2 0x4b 0x8'
LGXNYPWYEW0xc7
LGXNYPWYEW 0
root@arm:~# echo 'FXOG''LOQKUM'
FXOGLOQKUM
root@arm:~# MARKER='OFKM''YPMSJC' run 'grep -r -l rohm,bd71837 /proc/device-tree  | sed '"'"'s![^/]*$!!'"'"''
OFKMYPMSJC/proc/device-tree/ocp/interconnect@48000000/segment@100000/target-module@9c000/i2c@0/pmic@4b/
OFKMYPMSJC 0
root@arm:~# echo 'AAWH''YWCHTB'
AAWHYWCHTB
root@arm:~# MARKER='UYYG''QTAXVX' run 'test -f /proc/device-tree/ocp/interconnectt\@48000000/segment\@100000/target-module\@9c000/i2c\@0/pmic\@4b/regulators/BUCK44/rohm,no-regulator-enable-control ;echo $?'
UYYGQTAXVX1
UYYGQTAXVX 0
root@arm:~# echo 'MEJE''CWPFWV'
MEJECWPFWV
root@arm:~# MARKER='WYGX''LVFLCE' run 'grep -r -l rohm,bd71837 /proc/device-tree  | sed '"'"'s![^/]*$!!'"'"''
WYGXLVFLCE/proc/device-tree/ocp/interconnect@48000000/segment@100000/target-module@9c000/i2c@0/pmic@4b/
WYGXLVFLCE 0
root@arm:~# echo 'PJGX''GJKXWE'
PJGXGJKXWE
root@arm:~# MARKER='YHON''CHCAPA' run 'test -f /proc/device-tree/ocp/interconnectt\@48000000/segment\@100000/target-module\@9c000/i2c\@0/pmic\@4b/regulators/BUCK44/regulator-always-on ;echo $?'
YHONCHCAPA1
YHONCHCAPA 0
root@arm:~# echo 'QMJC''GQFXFS'
QMJCGQFXFS
root@arm:~# MARKER='HEPX''TEVSNB' run 'echo 0 > /sys/kernel/mva_test/regulators/bbuck4_en'
HEPXTEVSNBHEPXTEVSNB 0
root@arm:~# echo 'XYAF''KNCKQE'
XYAFKNCKQE
root@arm:~# MARKER='WTEG''KMHKBJ' run 'i2cget -y -f 2 0x4b 0x8'
WTEGKMHKBJ0xc6
WTEGKMHKBJ 0
root@arm:~# echo 'JZVF''QCAFVL'
JZVFQCAFVL
root@arm:~# MARKER='OGGZ''MUHPVA' run 'grep -r -l rohm,bd71837 /proc/device-tree  | sed '"'"'s![^/]*$!!'"'"''
OGGZMUHPVA/proc/device-tree/ocp/interconnect@48000000/segment@100000/target-module@9c000/i2c@0/pmic@4b/
OGGZMUHPVA 0
root@arm:~# echo 'TYBQ''LNCMZP'
TYBQLNCMZP
root@arm:~# MARKER='VWPE''UBOWMC' run 'test -f /proc/device-tree/ocp/interconnectt\@48000000/segment\@100000/target-module\@9c000/i2c\@0/pmic\@4b/regulators/BUCK55/rohm,no-regulator-enable-control ;echo $?'
VWPEUBOWMC1
VWPEUBOWMC 0
root@arm:~# echo 'GPKF''YGWWXY'
GPKFYGWWXY
root@arm:~# MARKER='YCST''KKOGKB' run 'echo 1 > /sys/kernel/mva_test/regulators/bbuck5_en'
YCSTKKOGKBYCSTKKOGKB 0
root@arm:~# echo 'VWQC''MLVGHH'
VWQCMLVGHH
root@arm:~# MARKER='NCEP''QHCCPV' run 'i2cget -y -f 2 0x4b 0x9'
NCEPQHCCPV0x03
NCEPQHCCPV 0
root@arm:~# echo 'XGJY''LKYOGO'
XGJYLKYOGO
root@arm:~# MARKER='MPYQ''AJWVHL' run 'grep -r -l rohm,bd71837 /proc/device-tree  | sed '"'"'s![^/]*$!!'"'"''
MPYQAJWVHL/proc/device-tree/ocp/interconnect@48000000/segment@100000/target-module@9c000/i2c@0/pmic@4b/
MPYQAJWVHL 0
root@arm:~# echo 'WKOP''TQBCCF'
WKOPTQBCCF
root@arm:~# MARKER='ZVLB''SPELMK' run 'test -f /proc/device-tree/ocp/interconnectt\@48000000/segment\@100000/target-module\@9c000/i2c\@0/pmic\@4b/regulators/BUCK55/rohm,no-regulator-enable-control ;echo $?'
ZVLBSPELMK1
ZVLBSPELMK 0
root@arm:~# echo 'CCGX''ALZBNS'
CCGXALZBNS
root@arm:~# MARKER='TZNH''USMQPA' run 'grep -r -l rohm,bd71837 /proc/device-tree  | sed '"'"'s![^/]*$!!'"'"''
TZNHUSMQPA/proc/device-tree/ocp/interconnect@48000000/segment@100000/target-module@9c000/i2c@0/pmic@4b/
TZNHUSMQPA 0
root@arm:~# echo 'MWNL''NNWKVY'
MWNLNNWKVY
root@arm:~# MARKER='HPUU''CZEGBW' run 'test -f /proc/device-tree/ocp/interconnectt\@48000000/segment\@100000/target-module\@9c000/i2c\@0/pmic\@4b/regulators/BUCK55/regulator-always-on ;echo $?'
HPUUCZEGBW1
HPUUCZEGBW 0
root@arm:~# echo 'UKJK''VATSQZ'
UKJKVATSQZ
root@arm:~# MARKER='BTZW''ANAVXE' run 'echo 0 > /sys/kernel/mva_test/regulators/bbuck5_en'
BTZWANAVXEBTZWANAVXE 0
root@arm:~# echo 'VZWK''GSNCHZ'
VZWKGSNCHZ
root@arm:~# MARKER='GXKE''GKNMKC' run 'i2cget -y -f 2 0x4b 0x9'
GXKEGKNMKC0x02
GXKEGKNMKC 0
root@arm:~# echo 'EKNS''JYPYWS'
EKNSJYPYWS
root@arm:~# MARKER='HUZM''PKHQFO' run 'grep -r -l rohm,bd71837 /proc/device-tree  | sed '"'"'s![^/]*$!!'"'"''
HUZMPKHQFO/proc/device-tree/ocp/interconnect@48000000/segment@100000/target-module@9c000/i2c@0/pmic@4b/
HUZMPKHQFO 0
root@arm:~# echo 'XMHA''MCKNXM'
XMHAMCKNXM
root@arm:~# MARKER='CGVK''SEHUOT' run 'test -f /proc/device-tree/ocp/interconnectt\@48000000/segment\@100000/target-module\@9c000/i2c\@0/pmic\@4b/regulators/BUCK66/rohm,no-regulator-enable-control ;echo $?'
CGVKSEHUOT1
CGVKSEHUOT 0
root@arm:~# echo 'CLSO''JWNANL'
CLSOJWNANL
root@arm:~# MARKER='BKZZ''QAUZBE' run 'echo 1 > /sys/kernel/mva_test/regulators/bbuck6_en'
BKZZQAUZBEBKZZQAUZBE 0
root@arm:~# echo 'UXBK''ZMZWMP'
UXBKZMZWMP
root@arm:~# MARKER='FEVY''NWOQST' run 'i2cget -y -f 2 0x4b 0xa'
FEVYNWOQST0x03
FEVYNWOQST 0
root@arm:~# echo 'ESTC''TQZKQP'
ESTCTQZKQP
root@arm:~# MARKER='EJST''TYYZTW' run 'grep -r -l rohm,bd71837 /proc/device-tree  | sed '"'"'s![^/]*$!!'"'"''
EJSTTYYZTW/proc/device-tree/ocp/interconnect@48000000/segment@100000/target-module@9c000/i2c@0/pmic@4b/
EJSTTYYZTW 0
root@arm:~# echo 'ELYQ''HKNGAX'
ELYQHKNGAX
root@arm:~# MARKER='GBJB''YTGSGB' run 'test -f /proc/device-tree/ocp/interconnectt\@48000000/segment\@100000/target-module\@9c000/i2c\@0/pmic\@4b/regulators/BUCK66/rohm,no-regulator-enable-control ;echo $?'
GBJBYTGSGB1
GBJBYTGSGB 0
root@arm:~# echo 'FJOJ''XYAGPL'
FJOJXYAGPL
root@arm:~# MARKER='KKZY''XWNBZB' run 'grep -r -l rohm,bd71837 /proc/device-tree  | sed '"'"'s![^/]*$!!'"'"''
KKZYXWNBZB/proc/device-tree/ocp/interconnect@48000000/segment@100000/target-module@9c000/i2c@0/pmic@4b/
KKZYXWNBZB 0
root@arm:~# echo 'UWGP''PPKLQT'
UWGPPPKLQT
root@arm:~# MARKER='ULTX''XXONQB' run 'test -f /proc/device-tree/ocp/interconnectt\@48000000/segment\@100000/target-module\@9c000/i2c\@0/pmic\@4b/regulators/BUCK66/regulator-always-on ;echo $?'
ULTXXXONQB1
ULTXXXONQB 0
root@arm:~# echo 'HKQL''OZUXJF'
HKQLOZUXJF
root@arm:~# MARKER='NBBM''UKWMEF' run 'echo 0 > /sys/kernel/mva_test/regulators/bbuck6_en'
NBBMUKWMEFNBBMUKWMEF 0
root@arm:~# echo 'GNXN''EXZPJW'
GNXNEXZPJW
root@arm:~# MARKER='ZZZB''XGMAXV' run 'i2cget -y -f 2 0x4b 0xa'
ZZZBXGMAXV0x02
ZZZBXGMAXV 0
root@arm:~# echo 'NQTZ''GXKZPY'
NQTZGXKZPY
root@arm:~# MARKER='FTLE''WBVJLC' run 'grep -r -l rohm,bd71837 /proc/device-tree  | sed '"'"'s![^/]*$!!'"'"''
FTLEWBVJLC/proc/device-tree/ocp/interconnect@48000000/segment@100000/target-module@9c000/i2c@0/pmic@4b/
FTLEWBVJLC 0
root@arm:~# echo 'CPCP''OLQKQQ'
CPCPOLQKQQ
root@arm:~# MARKER='FTCZ''VYUBOX' run 'test -f /proc/device-tree/ocp/interconnectt\@48000000/segment\@100000/target-module\@9c000/i2c\@0/pmic\@4b/regulators/BUCK77/rohm,no-regulator-enable-control ;echo $?'
FTCZVYUBOX1
FTCZVYUBOX 0
root@arm:~# echo 'NLFL''OHCZXW'
NLFLOHCZXW
root@arm:~# MARKER='TJUS''OZYXAO' run 'echo 1 > /sys/kernel/mva_test/regulators/bbuck7_en'
TJUSOZYXAOTJUSOZYXAO 0
root@arm:~# echo 'CVVO''NCAVNM'
CVVONCAVNM
root@arm:~# MARKER='OHGA''FYKBHG' run 'i2cget -y -f 2 0x4b 0xb'
OHGAFYKBHG0x03
OHGAFYKBHG 0
root@arm:~# echo 'SWFF''YGLMYL'
SWFFYGLMYL
root@arm:~# MARKER='OZEF''PJEMSS' run 'grep -r -l rohm,bd71837 /proc/device-tree  | sed '"'"'s![^/]*$!!'"'"''
OZEFPJEMSS/proc/device-tree/ocp/interconnect@48000000/segment@100000/target-module@9c000/i2c@0/pmic@4b/
OZEFPJEMSS 0
root@arm:~# echo 'COLE''GTQZJZ'
COLEGTQZJZ
root@arm:~# MARKER='HMBK''OSZCNK' run 'test -f /proc/device-tree/ocp/interconnectt\@48000000/segment\@100000/target-module\@9c000/i2c\@0/pmic\@4b/regulators/BUCK77/rohm,no-regulator-enable-control ;echo $?'
HMBKOSZCNK1
HMBKOSZCNK 0
root@arm:~# echo 'UVHZ''TMMFXV'
UVHZTMMFXV
root@arm:~# MARKER='KVWV''MPXOJT' run 'grep -r -l rohm,bd71837 /proc/device-tree  | sed '"'"'s![^/]*$!!'"'"''
KVWVMPXOJT/proc/device-tree/ocp/interconnect@48000000/segment@100000/target-module@9c000/i2c@0/pmic@4b/
KVWVMPXOJT 0
root@arm:~# echo 'GAES''UJAOKN'
GAESUJAOKN
root@arm:~# MARKER='VFQS''SNWKFF' run 'test -f /proc/device-tree/ocp/interconnectt\@48000000/segment\@100000/target-module\@9c000/i2c\@0/pmic\@4b/regulators/BUCK77/regulator-always-on ;echo $?'
VFQSSNWKFF1
VFQSSNWKFF 0
root@arm:~# echo 'OXGJ''JVJOMB'
OXGJJVJOMB
root@arm:~# MARKER='LWSM''GTHCBV' run 'echo 0 > /sys/kernel/mva_test/regulators/bbuck7_en'
LWSMGTHCBVLWSMGTHCBV 0
root@arm:~# echo 'BWQK''XGQXYK'
BWQKXGQXYK
root@arm:~# MARKER='QCJC''BSEZCN' run 'i2cget -y -f 2 0x4b 0xb'
QCJCBSEZCN0x02
QCJCBSEZCN 0
root@arm:~# echo 'OVPF''KJNJHN'
OVPFKJNJHN
root@arm:~# MARKER='HKPJ''QAWLOW' run 'grep -r -l rohm,bd71837 /proc/device-tree  | sed '"'"'s![^/]*$!!'"'"''
HKPJQAWLOW/proc/device-tree/ocp/interconnect@48000000/segment@100000/target-module@9c000/i2c@0/pmic@4b/
HKPJQAWLOW 0
root@arm:~# echo 'KQYJ''YEOJKN'
KQYJYEOJKN
root@arm:~# MARKER='FKXG''YYMVYP' run 'test -f /proc/device-tree/ocp/interconnectt\@48000000/segment\@100000/target-module\@9c000/i2c\@0/pmic\@4b/regulators/BUCK88/rohm,no-regulator-enable-control ;echo $?'
FKXGYYMVYP1
FKXGYYMVYP 0
root@arm:~# echo 'HEEA''KYACTC'
HEEAKYACTC
root@arm:~# MARKER='MLOB''PTOSAJ' run 'echo 1 > /sys/kernel/mva_test/regulators/bbuck8_en'
MLOBPTOSAJMLOBPTOSAJ 0
root@arm:~# echo 'PUHP''OTOKST'
PUHPOTOKST
root@arm:~# MARKER='CYYK''VWVVWC' run 'i2cget -y -f 2 0x4b 0xc'
CYYKVWVVWC0x03
CYYKVWVVWC 0
root@arm:~# echo 'GTHM''NKHCYF'
GTHMNKHCYF
root@arm:~# MARKER='YLMA''WLVHNP' run 'grep -r -l rohm,bd71837 /proc/device-tree  | sed '"'"'s![^/]*$!!'"'"''
YLMAWLVHNP/proc/device-tree/ocp/interconnect@48000000/segment@100000/target-module@9c000/i2c@0/pmic@4b/
YLMAWLVHNP 0
root@arm:~# echo 'JNSF''ABNCMS'
JNSFABNCMS
root@arm:~# MARKER='ZNEY''ETJMFV' run 'test -f /proc/device-tree/ocp/interconnectt\@48000000/segment\@100000/target-module\@9c000/i2c\@0/pmic\@4b/regulators/BUCK 8/rohm,no-regulator-enable-control ;echo $?'
ZNEYETJMFV1
ZNEYETJMFV 0
root@arm:~# echo 'YYGF''ULYHCJ'
YYGFULYHCJ
root@arm:~# MARKER='LHKC''ZAFZJV' run 'grep -r -l rohm,bd71837 /proc/device-tree  | sed '"'"'s![^/]*$!!'"'"''
LHKCZAFZJV/proc/device-tree/ocp/interconnect@48000000/segment@100000/target-module@9c000/i2c@0/pmic@4b/
LHKCZAFZJV 0
root@arm:~# echo 'ZNVN''XFAEUZ'
ZNVNXFAEUZ
root@arm:~# MARKER='GOZO''KPGHGW' run 'test -f /proc/device-tree/ocp/interconnectt\@48000000/segment\@100000/target-module\@9c000/i2c\@0/pmic\@4b/regulators/BUCK88/regulator-always-on ;echo $?'
GOZOKPGHGW1
GOZOKPGHGW 0
root@arm:~# echo 'HEVX''XPNYBH'
HEVXXPNYBH
root@arm:~# MARKER='JUZT''PLSHYH' run 'echo 0 > /sys/kernel/mva_test/regulators/bbuck8_en'
JUZTPLSHYHJUZTPLSHYH 0
root@arm:~# echo 'CHQY''YHLYAM'
CHQYYHLYAM
root@arm:~# MARKER='WXCL''GQPTOG' run 'i2cget -y -f 2 0x4b 0xc'
WXCLGQPTOG0x02
WXCLGQPTOG 0
root@arm:~# echo 'TPYZ''QEPTEA'
TPYZQEPTEA
root@arm:~# MARKER='YMJF''XJWUEH' run 'grep -r -l rohm,bd71837 /proc/device-tree  | sed '"'"'s![^/]*$!!'"'"''
YMJFXJWUEH/proc/device-tree/ocp/interconnect@48000000/segment@100000/target-module@9c000/i2c@0/pmic@4b/
YMJFXJWUEH 0
root@arm:~# echo 'KQAG''OBZEGX'
KQAGOBZEGX
root@arm:~# MARKER='XOAT''FGHCYZ' run 'test -f /proc/device-tree/ocp/interconnectt\@48000000/segment\@100000/target-module\@9c000/i2c\@0/pmic\@4b/regulators/LDO1//rohm,no-regulator-enable-control ;echo $?'
XOATFGHCYZ1
XOATFGHCYZ 0
root@arm:~# echo 'CTUX''WQWHJH'
CTUXWQWHJH
root@arm:~# MARKER='ENLL''AZGMBB' run 'echo 1 > /sys/kernel/mva_test/regulators/bbuck9_en'
ENLLAZGMBBENLLAZGMBB 0
root@arm:~# echo 'KPYB''XBJQBB'
KPYBXBJQBB
root@arm:~# MARKER='MSAK''MUVXVO' run 'i2cget -y -f 2 0x4b 0x18'
MSAKMUVXVO0xc3
MSAKMUVXVO 0
root@arm:~# echo 'OOQX''TMNVQO'
OOQXTMNVQO
root@arm:~# MARKER='EJZY''ZXFKGN' run 'grep -r -l rohm,bd71837 /proc/device-tree  | sed '"'"'s![^/]*$!!'"'"''
EJZYZXFKGN/proc/device-tree/ocp/interconnect@48000000/segment@100000/target-module@9c000/i2c@0/pmic@4b/
EJZYZXFKGN 0
root@arm:~# echo 'ABGV''QZWHMZ'
ABGVQZWHMZ
root@arm:~# MARKER='ZYQK''EYNZTU' run 'test -f /proc/device-tree/ocp/interconnectt\@48000000/segment\@100000/target-module\@9c000/i2c\@0/pmic\@4b/regulators/LDO1//rohm,no-regulator-enable-control ;echo $?'
ZYQKEYNZTU1
ZYQKEYNZTU 0
root@arm:~# echo 'WOJO''TNWFXA'
WOJOTNWFXA
root@arm:~# MARKER='MKUQ''HPFUUS' run 'grep -r -l rohm,bd71837 /proc/device-tree  | sed '"'"'s![^/]*$!!'"'"''
MKUQHPFUUS/proc/device-tree/ocp/interconnect@48000000/segment@100000/target-module@9c000/i2c@0/pmic@4b/
MKUQHPFUUS 0
root@arm:~# echo 'YVEL''QZACKJ'
YVELQZACKJ
root@arm:~# MARKER='JVHB''SCCLMM' run 'test -f /proc/device-tree/ocp/interconnectt\@48000000/segment\@100000/target-module\@9c000/i2c\@0/pmic\@4b/regulators/LDO1//regulator-always-on ;echo $?'
JVHBSCCLMM1
JVHBSCCLMM 0
root@arm:~# echo 'LNBW''KTOKFT'
LNBWKTOKFT
root@arm:~# MARKER='XQZS''OCPTWL' run 'echo 0 > /sys/kernel/mva_test/regulators/bbuck9_en'
XQZSOCPTWLXQZSOCPTWL 0
root@arm:~# echo 'QZCN''HXSGQU'
QZCNHXSGQU
root@arm:~# MARKER='YBQT''CKVCZG' run 'i2cget -y -f 2 0x4b 0x18'
YBQTCKVCZG0x83
YBQTCKVCZG 0
root@arm:~# echo 'EQQH''LXKOXE'
EQQHLXKOXE
root@arm:~# MARKER='UUCX''WOWVUN' run 'grep -r -l rohm,bd71837 /proc/device-tree  | sed '"'"'s![^/]*$!!'"'"''
UUCXWOWVUN/proc/device-tree/ocp/interconnect@48000000/segment@100000/target-module@9c000/i2c@0/pmic@4b/
UUCXWOWVUN 0
root@arm:~# echo 'OLSN''JHMWKJ'
OLSNJHMWKJ
root@arm:~# MARKER='ZMPQ''KYJAHK' run 'test -f /proc/device-tree/ocp/interconnectt\@48000000/segment\@100000/target-module\@9c000/i2c\@0/pmic\@4b/regulators/LDO2//rohm,no-regulator-enable-control ;echo $?'
ZMPQKYJAHK1
ZMPQKYJAHK 0
root@arm:~# echo 'TAKS''WVCLMA'
TAKSWVCLMA
root@arm:~# MARKER='FSQM''TXEWHX' run 'echo 1 > /sys/kernel/mva_test/regulators/bbuck10_en'
FSQMTXEWHXFSQMTXEWHX 0
root@arm:~# echo 'QKGO''VCZCPL'
QKGOVCZCPL
root@arm:~# MARKER='SVMW''TAMBPW' run 'i2cget -y -f 2 0x4b 0x19'
SVMWTAMBPW0xc0
SVMWTAMBPW 0
root@arm:~# echo 'QFZB''XKVWVA'
QFZBXKVWVA
root@arm:~# MARKER='UEJE''PZYPWH' run 'grep -r -l rohm,bd71837 /proc/device-tree  | sed '"'"'s![^/]*$!!'"'"''
UEJEPZYPWH/proc/device-tree/ocp/interconnect@48000000/segment@100000/target-module@9c000/i2c@0/pmic@4b/
UEJEPZYPWH 0
root@arm:~# echo 'NLLV''LETMXB'
NLLVLETMXB
root@arm:~# MARKER='CZUT''UVBVQT' run 'test -f /proc/device-tree/ocp/interconnectt\@48000000/segment\@100000/target-module\@9c000/i2c\@0/pmic\@4b/regulators/LDO2//rohm,no-regulator-enable-control ;echo $?'
CZUTUVBVQT1
CZUTUVBVQT 0
root@arm:~# echo 'HBFK''UEOMJV'
HBFKUEOMJV
root@arm:~# MARKER='ULFV''APYWOA' run 'grep -r -l rohm,bd71837 /proc/device-tree  | sed '"'"'s![^/]*$!!'"'"''
ULFVAPYWOA/proc/device-tree/ocp/interconnect@48000000/segment@100000/target-module@9c000/i2c@0/pmic@4b/
ULFVAPYWOA 0
root@arm:~# echo 'BOTP''LNMZWU'
BOTPLNMZWU
root@arm:~# MARKER='CVOJ''MKFTCU' run 'test -f /proc/device-tree/ocp/interconnectt\@48000000/segment\@100000/target-module\@9c000/i2c\@0/pmic\@4b/regulators/LDO2//regulator-always-on ;echo $?'
CVOJMKFTCU1
CVOJMKFTCU 0
root@arm:~# echo 'UGQW''GVXUZA'
UGQWGVXUZA
root@arm:~# MARKER='CWOP''JMBLPO' run 'echo 0 > /sys/kernel/mva_test/regulators/bbuck10_en'
CWOPJMBLPOCWOPJMBLPO 0
root@arm:~# echo 'TTSK''MXJTBP'
TTSKMXJTBP
root@arm:~# MARKER='NAWN''BABYFW' run 'i2cget -y -f 2 0x4b 0x19'
NAWNBABYFW0x80
NAWNBABYFW 0
root@arm:~# echo 'WAHA''QZXFUH'
WAHAQZXFUH
root@arm:~# MARKER='ECLH''BNNMKJ' run 'grep -r -l rohm,bd71837 /proc/device-tree  | sed '"'"'s![^/]*$!!'"'"''
ECLHBNNMKJ/proc/device-tree/ocp/interconnect@48000000/segment@100000/target-module@9c000/i2c@0/pmic@4b/
ECLHBNNMKJ 0
root@arm:~# echo 'AJJS''XQUGKB'
AJJSXQUGKB
root@arm:~# MARKER='JHNP''YTMVOK' run 'test -f /proc/device-tree/ocp/interconnectt\@48000000/segment\@100000/target-module\@9c000/i2c\@0/pmic\@4b/regulators/LDO3//rohm,no-regulator-enable-control ;echo $?'
JHNPYTMVOK1
JHNPYTMVOK 0
root@arm:~# echo 'TNLH''VJXFGW'
TNLHVJXFGW
root@arm:~# MARKER='XJCH''PWKPZU' run 'echo 1 > /sys/kernel/mva_test/regulators/bbuck11_en'
XJCHPWKPZUXJCHPWKPZU 0
root@arm:~# echo 'ZWJP''OBEVWP'
ZWJPOBEVWP
root@arm:~# MARKER='FAUC''HYOWHA' run 'i2cget -y -f 2 0x4b 0x1a'
FAUCHYOWHA0xc0
FAUCHYOWHA 0
root@arm:~# echo 'XLJC''AHLYCW'
XLJCAHLYCW
root@arm:~# MARKER='KYWK''FHMUYC' run 'grep -r -l rohm,bd71837 /proc/device-tree  | sed '"'"'s![^/]*$!!'"'"''
KYWKFHMUYC/proc/device-tree/ocp/interconnect@48000000/segment@100000/target-module@9c000/i2c@0/pmic@4b/
KYWKFHMUYC 0
root@arm:~# echo 'CZVE''VGGBEY'
CZVEVGGBEY
root@arm:~# MARKER='FXPM''CELOVS' run 'test -f /proc/device-tree/ocp/interconnectt\@48000000/segment\@100000/target-module\@9c000/i2c\@0/pmic\@4b/regulators/LDO3//rohm,no-regulator-enable-control ;echo $?'
FXPMCELOVS1
FXPMCELOVS 0
root@arm:~# echo 'HXWB''AWPLNE'
HXWBAWPLNE
root@arm:~# MARKER='NZPQ''XNQNBL' run 'grep -r -l rohm,bd71837 /proc/device-tree  | sed '"'"'s![^/]*$!!'"'"''
NZPQXNQNBL/proc/device-tree/ocp/interconnect@48000000/segment@100000/target-module@9c000/i2c@0/pmic@4b/
NZPQXNQNBL 0
root@arm:~# echo 'NGXL''HLCWUZ'
NGXLHLCWUZ
root@arm:~# MARKER='QUWW''KHZXTT' run 'test -f /proc/device-tree/ocp/interconnectt\@48000000/segment\@100000/target-module\@9c000/i2c\@0/pmic\@4b/regulators/LDO3//regulator-always-on ;echo $?'
QUWWKHZXTT1
QUWWKHZXTT 0
root@arm:~# echo 'LLSO''YEFXZO'
LLSOYEFXZO
root@arm:~# MARKER='XAOP''XPXAKE' run 'echo 0 > /sys/kernel/mva_test/regulators/bbuck11_en'
XAOPXPXAKEXAOPXPXAKE 0
root@arm:~# echo 'YOEO''BCYUTZ'
YOEOBCYUTZ
root@arm:~# MARKER='TSYJ''SAPSBF' run 'i2cget -y -f 2 0x4b 0x1a'
TSYJSAPSBF0x80
TSYJSAPSBF 0
root@arm:~# echo 'QQGO''CVKQWT'
QQGOCVKQWT
root@arm:~# MARKER='VXOM''ZAJZGG' run 'grep -r -l rohm,bd71837 /proc/device-tree  | sed '"'"'s![^/]*$!!'"'"''
VXOMZAJZGG/proc/device-tree/ocp/interconnect@48000000/segment@100000/target-module@9c000/i2c@0/pmic@4b/
VXOMZAJZGG 0
root@arm:~# echo 'OEHY''NQFAFP'
OEHYNQFAFP
root@arm:~# MARKER='OMNL''PEXVQZ' run 'test -f /proc/device-tree/ocp/interconnectt\@48000000/segment\@100000/target-module\@9c000/i2c\@0/pmic\@4b/regulators/LDO4//rohm,no-regulator-enable-control ;echo $?'
OMNLPEXVQZ1
OMNLPEXVQZ 0
root@arm:~# echo 'SEVV''KQBTZV'
SEVVKQBTZV
root@arm:~# MARKER='WUOM''OXYEVU' run 'echo 1 > /sys/kernel/mva_test/regulators/bbuck12_en'
WUOMOXYEVUWUOMOXYEVU 0
root@arm:~# echo 'PXQS''ANUAVS'
PXQSANUAVS
root@arm:~# MARKER='HTPT''XGPPJS' run 'i2cget -y -f 2 0x4b 0x1b'
HTPTXGPPJS0xc0
HTPTXGPPJS 0
root@arm:~# echo 'FJCX''OXJSZH'
FJCXOXJSZH
root@arm:~# MARKER='CNCM''CHLLBV' run 'grep -r -l rohm,bd71837 /proc/device-tree  | sed '"'"'s![^/]*$!!'"'"''
CNCMCHLLBV/proc/device-tree/ocp/interconnect@48000000/segment@100000/target-module@9c000/i2c@0/pmic@4b/
CNCMCHLLBV 0
root@arm:~# echo 'JKBA''OLOVQC'
JKBAOLOVQC
root@arm:~# MARKER='YBGB''GVBOXG' run 'test -f /proc/device-tree/ocp/interconnectt\@48000000/segment\@100000/target-module\@9c000/i2c\@0/pmic\@4b/regulators/LDO4//rohm,no-regulator-enable-control ;echo $?'
YBGBGVBOXG1
YBGBGVBOXG 0
root@arm:~# echo 'CSFE''TJUEAZ'
CSFETJUEAZ
root@arm:~# MARKER='TWGQ''HQKSHZ' run 'grep -r -l rohm,bd71837 /proc/device-tree  | sed '"'"'s![^/]*$!!'"'"''
TWGQHQKSHZ/proc/device-tree/ocp/interconnect@48000000/segment@100000/target-module@9c000/i2c@0/pmic@4b/
TWGQHQKSHZ 0
root@arm:~# echo 'XWTF''LYZOUT'
XWTFLYZOUT
root@arm:~# MARKER='YYAQ''WWTUXX' run 'test -f /proc/device-tree/ocp/interconnectt\@48000000/segment\@100000/target-module\@9c000/i2c\@0/pmic\@4b/regulators/LDO4//regulator-always-on ;echo $?'
YYAQWWTUXX1
YYAQWWTUXX 0
root@arm:~# echo 'TMXK''QABCGV'
TMXKQABCGV
root@arm:~# MARKER='AKPQ''CFMWYM' run 'echo 0 > /sys/kernel/mva_test/regulators/bbuck12_en'
AKPQCFMWYMAKPQCFMWYM 0
root@arm:~# echo 'WHAE''MOLOYS'
WHAEMOLOYS
root@arm:~# MARKER='XWPT''CBLWNS' run 'i2cget -y -f 2 0x4b 0x1b'
XWPTCBLWNS0x80
XWPTCBLWNS 0
root@arm:~# echo 'FABM''ONCKHO'
FABMONCKHO
root@arm:~# MARKER='VCHP''KNVUHG' run 'grep -r -l rohm,bd71837 /proc/device-tree  | sed '"'"'s![^/]*$!!'"'"''
VCHPKNVUHG/proc/device-tree/ocp/interconnect@48000000/segment@100000/target-module@9c000/i2c@0/pmic@4b/
VCHPKNVUHG 0
root@arm:~# echo 'WUGT''MOKYJL'
WUGTMOKYJL
root@arm:~# MARKER='NKQV''PKUOCN' run 'test -f /proc/device-tree/ocp/interconnectt\@48000000/segment\@100000/target-module\@9c000/i2c\@0/pmic\@4b/regulators/LDO5//rohm,no-regulator-enable-control ;echo $?'
NKQVPKUOCN0
NKQVPKUOCN 0
root@arm:~# echo 'NNPB''FAQNCZ'
NNPBFAQNCZ
root@arm:~# MARKER='AKKG''EUUMTQ' run 'grep -r -l rohm,bd71837 /proc/device-tree  | sed '"'"'s![^/]*$!!'"'"''
AKKGEUUMTQ/proc/device-tree/ocp/interconnect@48000000/segment@100000/target-module@9c000/i2c@0/pmic@4b/
AKKGEUUMTQ 0
root@arm:~# echo 'SHSQ''MZAJOA'
SHSQMZAJOA
root@arm:~# MARKER='KOBS''WYJMJO' run 'test -f /proc/device-tree/ocp/interconnectt\@48000000/segment\@100000/target-module\@9c000/i2c\@0/pmic\@4b/regulators/LDO5//rohm,no-regulator-enable-control ;echo $?'
KOBSWYJMJO0
KOBSWYJMJO 0
root@arm:~# echo 'BHSV''SPUXYL'
BHSVSPUXYL
root@arm:~# MARKER='WFVE''NQSUET' run 'grep -r -l rohm,bd71837 /proc/device-tree  | sed '"'"'s![^/]*$!!'"'"''
WFVENQSUET/proc/device-tree/ocp/interconnect@48000000/segment@100000/target-module@9c000/i2c@0/pmic@4b/
WFVENQSUET 0
root@arm:~# echo 'GBBA''HUQQFM'
GBBAHUQQFM
root@arm:~# MARKER='ONSE''HYPQCC' run 'test -f /proc/device-tree/ocp/interconnectt\@48000000/segment\@100000/target-module\@9c000/i2c\@0/pmic\@4b/regulators/LDO6//rohm,no-regulator-enable-control ;echo $?'
ONSEHYPQCC1
ONSEHYPQCC 0
root@arm:~# echo 'HFXC''JABTKN'
HFXCJABTKN
root@arm:~# MARKER='APNT''TEMPYV' run 'echo 1 > /sys/kernel/mva_test/regulators/bbuck14_en'
APNTTEMPYVAPNTTEMPYV 0
root@arm:~# echo 'FZVF''QWXWSH'
FZVFQWXWSH
root@arm:~# MARKER='LJQY''CBKYWW' run 'i2cget -y -f 2 0x4b 0x1d'
LJQYCBKYWW0xc0
LJQYCBKYWW 0
root@arm:~# echo 'BGWM''TXNUEH'
BGWMTXNUEH
root@arm:~# MARKER='HOPO''SNKVQQ' run 'grep -r -l rohm,bd71837 /proc/device-tree  | sed '"'"'s![^/]*$!!'"'"''
HOPOSNKVQQ/proc/device-tree/ocp/interconnect@48000000/segment@100000/target-module@9c000/i2c@0/pmic@4b/
HOPOSNKVQQ 0
root@arm:~# echo 'LCXS''EXBAVB'
LCXSEXBAVB
root@arm:~# MARKER='ONVE''QHYKWK' run 'test -f /proc/device-tree/ocp/interconnectt\@48000000/segment\@100000/target-module\@9c000/i2c\@0/pmic\@4b/regulators/LDO6//rohm,no-regulator-enable-control ;echo $?'
ONVEQHYKWK1
ONVEQHYKWK 0
root@arm:~# echo 'GQMO''TFSXUW'
GQMOTFSXUW
root@arm:~# MARKER='MOOU''BQMTZX' run 'grep -r -l rohm,bd71837 /proc/device-tree  | sed '"'"'s![^/]*$!!'"'"''
MOOUBQMTZX/proc/device-tree/ocp/interconnect@48000000/segment@100000/target-module@9c000/i2c@0/pmic@4b/
MOOUBQMTZX 0
root@arm:~# echo 'SNBF''ZGUCHF'
SNBFZGUCHF
root@arm:~# MARKER='ZCMV''FPAHGK' run 'test -f /proc/device-tree/ocp/interconnectt\@48000000/segment\@100000/target-module\@9c000/i2c\@0/pmic\@4b/regulators/LDO6 /regulator-always-on ;echo $?'
ZCMVFPAHGK1
ZCMVFPAHGK 0
root@arm:~# echo 'TLXT''OPCFAG'
TLXTOPCFAG
root@arm:~# MARKER='ZEOS''KHOLMB' run 'echo 0 > /sys/kernel/mva_test/regulators/bbuck14_en'
ZEOSKHOLMBZEOSKHOLMB 0
root@arm:~# echo 'QXJJ''WMMUKB'
QXJJWMMUKB
root@arm:~# MARKER='NHOX''AGUJVB' run 'i2cget -y -f 2 0x4b 0x1d'
NHOXAGUJVB0x80
NHOXAGUJVB 0
root@arm:~# echo 'CJLC''SYJSGF'
CJLCSYJSGF
root@arm:~# MARKER='CGOW''ZAGSXY' run 'grep -r -l rohm,bd71837 /proc/device-tree  | sed '"'"'s![^/]*$!!'"'"''
CGOWZAGSXY/proc/device-tree/ocp/interconnect@48000000/segment@100000/target-module@9c000/i2c@0/pmic@4b/
CGOWZAGSXY 0
root@arm:~# echo 'HKAQ''HUWFAC'
HKAQHUWFAC
root@arm:~# MARKER='QVWY''CATUTV' run 'test -f /proc/device-tree/ocp/interconnectt\@48000000/segment\@100000/target-module\@9c000/i2c\@0/pmic\@4b/regulators/LDO7//rohm,no-regulator-enable-control ;echo $?'
QVWYCATUTV1
QVWYCATUTV 0
root@arm:~# echo 'NZNS''UOYCQC'
NZNSUOYCQC
root@arm:~# MARKER='FOQY''VCJYUE' run 'echo 1 > /sys/kernel/mva_test/regulators/bbuck15_en'
FOQYVCJYUEFOQYVCJYUE 0
root@arm:~# echo 'JPQM''UWLFLA'
JPQMUWLFLA
root@arm:~# MARKER='WQNA''EBNVOU' run 'i2cget -y -f 2 0x4b 0x1e'
WQNAEBNVOU0xcf
WQNAEBNVOU 0
root@arm:~# echo 'OPSO''VKJLLE'
OPSOVKJLLE
root@arm:~# MARKER='UKGK''FBCTKK' run 'grep -r -l rohm,bd71837 /proc/device-tree  | sed '"'"'s![^/]*$!!'"'"''
UKGKFBCTKK/proc/device-tree/ocp/interconnect@48000000/segment@100000/target-module@9c000/i2c@0/pmic@4b/
UKGKFBCTKK 0
root@arm:~# echo 'HVXH''TUGASK'
HVXHTUGASK
root@arm:~# MARKER='GWVO''FSFXMT' run 'test -f /proc/device-tree/ocp/interconnectt\@48000000/segment\@100000/target-module\@9c000/i2c\@0/pmic\@4b/regulators/LDO7//rohm,no-regulator-enable-control ;echo $?'
GWVOFSFXMT1
GWVOFSFXMT 0
root@arm:~# echo 'VMZW''TWFGSN'
VMZWTWFGSN
root@arm:~# MARKER='SBMQ''WVXJHG' run 'grep -r -l rohm,bd71837 /proc/device-tree  | sed '"'"'s![^/]*$!!'"'"''
SBMQWVXJHG/proc/device-tree/ocp/interconnect@48000000/segment@100000/target-module@9c000/i2c@0/pmic@4b/
SBMQWVXJHG 0
root@arm:~# echo 'FLHE''ZLHQBT'
FLHEZLHQBT
root@arm:~# MARKER='MBJV''MPHCGN' run 'test -f /proc/device-tree/ocp/interconnectt\@48000000/segment\@100000/target-module\@9c000/i2c\@0/pmic\@4b/regulators/LDO7//regulator-always-on ;echo $?'
MBJVMPHCGN1
MBJVMPHCGN 0
root@arm:~# echo 'PSNY''XSAFCM'
PSNYXSAFCM
root@arm:~# MARKER='EOOB''PYZZXX' run 'echo 0 > /sys/kernel/mva_test/regulators/bbuck15_en'
EOOBPYZZXXEOOBPYZZXX 0
root@arm:~# echo 'NBPY''KVACFO'
NBPYKVACFO
root@arm:~# MARKER='FPUB''XGWTXP' run 'i2cget -y -f 2 0x4b 0x1e'
FPUBXGWTXP0x8f
FPUBXGWTXP 0
root@arm:~# Labgrid Console Logfile for main
Logfile started at 2024-12-19 14:41:13.076451
=== Log starts here ===

root@arm:~# run() { echo -n "$MARKER"; sh -c "$@"; echo "$MARKER $?"; }
root@arm:~# echo 'LGFA''ZHATNL'
LGFAZHATNL
root@arm:~# MARKER='SKSH''YPCNNK' run 'grep -r -l rohm,bd71837 /proc/device-tree  | sed '"'"'s![^/]*$!!'"'"''
SKSHYPCNNK/proc/device-tree/ocp/interconnect@48000000/segment@100000/target-module@9c000/i2c@0/pmic@4b/
SKSHYPCNNK 0
root@arm:~# echo 'XWWH''CZHABA'
XWWHCZHABA
root@arm:~# MARKER='WXQB''FGNTSV' run 'test -f /proc/device-tree/ocp/interconnectt\@48000000/segment\@100000/target-module\@9c000/i2c\@0/pmic\@4b/regulators/BUCK11/rohm,no-regulator-enable-control ;echo $?'
WXQBFGNTSV1
WXQBFGNTSV 0
root@arm:~# echo 'VFWH''TUMKTP'
VFWHTUMKTP
root@arm:~# MARKER='MVSP''KXNJYQ' run 'i2cget -y -f 2 0x4b 0x5'
MVSPKXNJYQ0x02
MVSPKXNJYQ 0
root@arm:~# echo 'PGBU''AZFNYS'
PGBUAZFNYS
root@arm:~# MARKER='FCFS''FLPWEW' run 'echo 700000 700000 > /sys/kernel/mva_test//regulators/buck1_set'
FCFSFLPWEWFCFSFLPWEW 0
root@arm:~# echo 'ESLH''FGBTBO'
ESLHFGBTBO
root@arm:~# MARKER='NAUZ''WXLKEO' run 'i2cget -y -f 2 0x4b 0xd'
NAUZWXLKEO0x00
NAUZWXLKEO 0
root@arm:~# echo 'JNQB''ULGMTS'
JNQBULGMTS
root@arm:~# MARKER='MVAE''NQZSHC' run 'echo 710000 710000 > /sys/kernel/mva_test//regulators/buck1_set'
MVAENQZSHCMVAENQZSHC 0
root@arm:~# echo 'KFYA''GGTATC'
KFYAGGTATC
root@arm:~# MARKER='BTYF''MLLUUZ' run 'i2cget -y -f 2 0x4b 0xd'
BTYFMLLUUZ0x01
BTYFMLLUUZ 0
root@arm:~# echo 'LOPU''ZWGBVA'
LOPUZWGBVA
root@arm:~# MARKER='GTWP''HJANQT' run 'echo 720000 720000 > /sys/kernel/mva_test//regulators/buck1_set'
GTWPHJANQTGTWPHJANQT 0
root@arm:~# echo 'VALJ''SPZFQL'
VALJSPZFQL
root@arm:~# MARKER='PPAG''SYYLSZ' run 'i2cget -y -f 2 0x4b 0xd'
PPAGSYYLSZ0x02
PPAGSYYLSZ 0
root@arm:~# echo 'HEQA''ESHMVU'
HEQAESHMVU
root@arm:~# MARKER='JFJO''WQENEQ' run 'echo 730000 730000 > /sys/kernel/mva_test//regulators/buck1_set'
JFJOWQENEQJFJOWQENEQ 0
root@arm:~# echo 'HHJM''JMAOPA'
HHJMJMAOPA
root@arm:~# MARKER='WAZQ''HFNYUL' run 'i2cget -y -f 2 0x4b 0xd'
WAZQHFNYUL0x03
WAZQHFNYUL 0
root@arm:~# echo 'XSKE''UEQSBE'
XSKEUEQSBE
root@arm:~# MARKER='EKBX''OOAFSF' run 'echo 740000 740000 > /sys/kernel/mva_test//regulators/buck1_set'
EKBXOOAFSFEKBXOOAFSF 0
root@arm:~# echo 'NKUY''WFFYOW'
NKUYWFFYOW
root@arm:~# MARKER='KCPO''WTVPFU' run 'i2cget -y -f 2 0x4b 0xd'
KCPOWTVPFU0x04
KCPOWTVPFU 0
root@arm:~# echo 'ZHOC''PMSZNX'
ZHOCPMSZNX
root@arm:~# MARKER='JQZS''MMKPHK' run 'echo 750000 750000 > /sys/kernel/mva_test//regulators/buck1_set'
JQZSMMKPHKJQZSMMKPHK 0
root@arm:~# echo 'FPHY''QWPCGU'
FPHYQWPCGU
root@arm:~# MARKER='MOAM''GNMOWW' run 'i2cget -y -f 2 0x4b 0xd'
MOAMGNMOWW0x05
MOAMGNMOWW 0
root@arm:~# echo 'NENE''YCHAMJ'
NENEYCHAMJ
root@arm:~# MARKER='YWYE''MUPUMF' run 'echo 760000 760000 > /sys/kernel/mva_test//regulators/buck1_set'
YWYEMUPUMFYWYEMUPUMF 0
root@arm:~# echo 'XLCM''AHHPHX'
XLCMAHHPHX
root@arm:~# MARKER='CSEC''SEAXCZ' run 'i2cget -y -f 2 0x4b 0xd'
CSECSEAXCZ0x06
CSECSEAXCZ 0
root@arm:~# echo 'TJFC''JBYZQZ'
TJFCJBYZQZ
root@arm:~# MARKER='FFWN''EABTGV' run 'echo 770000 770000 > /sys/kernel/mva_test//regulators/buck1_set'
FFWNEABTGVFFWNEABTGV 0
root@arm:~# echo 'OGAY''GAQQPT'
OGAYGAQQPT
root@arm:~# MARKER='BHWV''QVXUTK' run 'i2cget -y -f 2 0x4b 0xd'
BHWVQVXUTK0x07
BHWVQVXUTK 0
root@arm:~# echo 'NTEX''ETTZMF'
NTEXETTZMF
root@arm:~# MARKER='CMUQ''WHSKCK' run 'echo 780000 780000 > /sys/kernel/mva_test//regulators/buck1_set'
CMUQWHSKCKCMUQWHSKCK 0
root@arm:~# echo 'KWOM''TTPOMA'
KWOMTTPOMA
root@arm:~# MARKER='KFFV''QZJAWL' run 'i2cget -y -f 2 0x4b 0xd'
KFFVQZJAWL0x08
KFFVQZJAWL 0
root@arm:~# echo 'TXZL''ZLCBVH'
TXZLZLCBVH
root@arm:~# MARKER='FWNZ''MEFXVO' run 'echo 790000 790000 > /sys/kernel/mva_test//regulators/buck1_set'
FWNZMEFXVOFWNZMEFXVO 0
root@arm:~# echo 'UTLE''HLUBPY'
UTLEHLUBPY
root@arm:~# MARKER='AMXN''GTNEQC' run 'i2cget -y -f 2 0x4b 0xd'
AMXNGTNEQC0x09
AMXNGTNEQC 0
root@arm:~# echo 'TWEX''XULOHH'
TWEXXULOHH
root@arm:~# MARKER='OHSK''OJXOHZ' run 'echo 800000 800000 > /sys/kernel/mva_test//regulators/buck1_set'
OHSKOJXOHZOHSKOJXOHZ 0
root@arm:~# echo 'CQYJ''FLKZJN'
CQYJFLKZJN
root@arm:~# MARKER='TWBW''KGNACK' run 'i2cget -y -f 2 0x4b 0xd'
TWBWKGNACK0x0a
TWBWKGNACK 0
root@arm:~# echo 'KANW''TYHBZU'
KANWTYHBZU
root@arm:~# MARKER='FFLU''LHXUYS' run 'echo 810000 810000 > /sys/kernel/mva_test//regulators/buck1_set'
FFLULHXUYSFFLULHXUYS 0
root@arm:~# echo 'AHCM''PVFQYC'
AHCMPVFQYC
root@arm:~# MARKER='ULBN''UTCWJJ' run 'i2cget -y -f 2 0x4b 0xd'
ULBNUTCWJJ0x0b
ULBNUTCWJJ 0
root@arm:~# echo 'LULY''WTHXYH'
LULYWTHXYH
root@arm:~# MARKER='NPVV''LWZWQH' run 'echo 820000 820000 > /sys/kernel/mva_test//regulators/buck1_set'
NPVVLWZWQHNPVVLWZWQH 0
root@arm:~# echo 'QBMA''YUNHSB'
QBMAYUNHSB
root@arm:~# MARKER='QJYV''OHUJNO' run 'i2cget -y -f 2 0x4b 0xd'
QJYVOHUJNO0x0c
QJYVOHUJNO 0
root@arm:~# echo 'JFEB''LSBPNT'
JFEBLSBPNT
root@arm:~# MARKER='MUCN''KFLPOM' run 'echo 830000 830000 > /sys/kernel/mva_test//regulators/buck1_set'
MUCNKFLPOMMUCNKFLPOM 0
root@arm:~# echo 'VUAF''KBOPJZ'
VUAFKBOPJZ
root@arm:~# MARKER='HSYF''UOTCQS' run 'i2cget -y -f 2 0x4b 0xd'
HSYFUOTCQS0x0d
HSYFUOTCQS 0
root@arm:~# echo 'ZZVZ''PWWJOQ'
ZZVZPWWJOQ
root@arm:~# MARKER='AFBQ''ABBPAA' run 'echo 840000 840000 > /sys/kernel/mva_test//regulators/buck1_set'
AFBQABBPAAAFBQABBPAA 0
root@arm:~# echo 'NQBN''TOFPUE'
NQBNTOFPUE
root@arm:~# MARKER='TACK''YXNBPB' run 'i2cget -y -f 2 0x4b 0xd'
TACKYXNBPB0x0e
TACKYXNBPB 0
root@arm:~# echo 'LPVN''QMLPJO'
LPVNQMLPJO
root@arm:~# MARKER='QJMG''SLGFBP' run 'echo 850000 850000 > /sys/kernel/mva_test//regulators/buck1_set'
QJMGSLGFBPQJMGSLGFBP 0
root@arm:~# echo 'OWME''TEPKSZ'
OWMETEPKSZ
root@arm:~# MARKER='QMLZ''ACBXSK' run 'i2cget -y -f 2 0x4b 0xd'
QMLZACBXSK0x0f
QMLZACBXSK 0
root@arm:~# echo 'PXNH''EWQGEO'
PXNHEWQGEO
root@arm:~# MARKER='LGUF''YSLPQM' run 'echo 860000 860000 > /sys/kernel/mva_test//regulators/buck1_set'
LGUFYSLPQMLGUFYSLPQM 0
root@arm:~# echo 'UGTL''LXPOEK'
UGTLLXPOEK
root@arm:~# MARKER='BUFH''FBNCTF' run 'i2cget -y -f 2 0x4b 0xd'
BUFHFBNCTF0x10
BUFHFBNCTF 0
root@arm:~# echo 'KBBW''JJSFVO'
KBBWJJSFVO
root@arm:~# MARKER='XBAQ''JTCSXH' run 'echo 870000 870000 > /sys/kernel/mva_test//regulators/buck1_set'
XBAQJTCSXHXBAQJTCSXH 0
root@arm:~# echo 'PWGP''SFOWNK'
PWGPSFOWNK
root@arm:~# MARKER='AYPJ''EWLKUB' run 'i2cget -y -f 2 0x4b 0xd'
AYPJEWLKUB0x11
AYPJEWLKUB 0
root@arm:~# echo 'UNOT''FGSQGL'
UNOTFGSQGL
root@arm:~# MARKER='SAVP''WBJPUF' run 'echo 880000 880000 > /sys/kernel/mva_test//regulators/buck1_set'
SAVPWBJPUFSAVPWBJPUF 0
root@arm:~# echo 'VPPH''WEFZPL'
VPPHWEFZPL
root@arm:~# MARKER='WZJT''NGOVEC' run 'i2cget -y -f 2 0x4b 0xd'
WZJTNGOVEC0x12
WZJTNGOVEC 0
root@arm:~# echo 'CGBC''NEUFWP'
CGBCNEUFWP
root@arm:~# MARKER='CMSE''BAAFQN' run 'echo 890000 890000 > /sys/kernel/mva_test//regulators/buck1_set'
CMSEBAAFQNCMSEBAAFQN 0
root@arm:~# echo 'FVEW''LQPGNS'
FVEWLQPGNS
root@arm:~# MARKER='ZLMB''LCPOTW' run 'i2cget -y -f 2 0x4b 0xd'
ZLMBLCPOTW0x13
ZLMBLCPOTW 0
root@arm:~# echo 'HBAK''LPATLS'
HBAKLPATLS
root@arm:~# MARKER='ZFXZ''FMCVUS' run 'echo 900000 900000 > /sys/kernel/mva_test//regulators/buck1_set'
ZFXZFMCVUSZFXZFMCVUS 0
root@arm:~# echo 'NZHF''QQKHAC'
NZHFQQKHAC
root@arm:~# MARKER='ENVS''FSKEOB' run 'i2cget -y -f 2 0x4b 0xd'
ENVSFSKEOB0x14
ENVSFSKEOB 0
root@arm:~# echo 'SYHJ''HHFBGL'
SYHJHHFBGL
root@arm:~# MARKER='KXUY''COLESH' run 'echo 910000 910000 > /sys/kernel/mva_test//regulators/buck1_set'
KXUYCOLESHKXUYCOLESH 0
root@arm:~# echo 'HGFY''KTHMEC'
HGFYKTHMEC
root@arm:~# MARKER='LYKJ''YEQLWZ' run 'i2cget -y -f 2 0x4b 0xd'
LYKJYEQLWZ0x15
LYKJYEQLWZ 0
root@arm:~# echo 'MXVH''SGZJHY'
MXVHSGZJHY
root@arm:~# MARKER='TWJP''ZBYTOV' run 'echo 920000 920000 > /sys/kernel/mva_test//regulators/buck1_set'
TWJPZBYTOVTWJPZBYTOV 0
root@arm:~# echo 'SGYF''UUCMNP'
SGYFUUCMNP
root@arm:~# MARKER='WNLK''TNMCGJ' run 'i2cget -y -f 2 0x4b 0xd'
WNLKTNMCGJ0x16
WNLKTNMCGJ 0
root@arm:~# echo 'ZYMO''BMOWET'
ZYMOBMOWET
root@arm:~# MARKER='PWCB''FEQXAH' run 'echo 930000 930000 > /sys/kernel/mva_test//regulators/buck1_set'
PWCBFEQXAHPWCBFEQXAH 0
root@arm:~# echo 'AGLH''CNHCTV'
AGLHCNHCTV
root@arm:~# MARKER='KQTE''YWAPLL' run 'i2cget -y -f 2 0x4b 0xd'
KQTEYWAPLL0x17
KQTEYWAPLL 0
root@arm:~# echo 'LSTU''KXHYEP'
LSTUKXHYEP
root@arm:~# MARKER='OUPX''MLOLFA' run 'echo 940000 940000 > /sys/kernel/mva_test//regulators/buck1_set'
OUPXMLOLFAOUPXMLOLFA 0
root@arm:~# echo 'OSUF''KWNCCG'
OSUFKWNCCG
root@arm:~# MARKER='GHCT''EOYFGL' run 'i2cget -y -f 2 0x4b 0xd'
GHCTEOYFGL0x18
GHCTEOYFGL 0
root@arm:~# echo 'KYTE''LUQBUT'
KYTELUQBUT
root@arm:~# MARKER='NXQY''NWAUMA' run 'echo 950000 950000 > /sys/kernel/mva_test//regulators/buck1_set'
NXQYNWAUMANXQYNWAUMA 0
root@arm:~# echo 'SWOU''AQXMSN'
SWOUAQXMSN
root@arm:~# MARKER='XOFW''VXZKEN' run 'i2cget -y -f 2 0x4b 0xd'
XOFWVXZKEN0x19
XOFWVXZKEN 0
root@arm:~# echo 'BQCJ''CUGGTK'
BQCJCUGGTK
root@arm:~# MARKER='VPFK''VFGZZE' run 'echo 960000 960000 > /sys/kernel/mva_test//regulators/buck1_set'
VPFKVFGZZEVPFKVFGZZE 0
root@arm:~# echo 'JMWL''WFXWQX'
JMWLWFXWQX
root@arm:~# MARKER='YMKN''VTNAVZ' run 'i2cget -y -f 2 0x4b 0xd'
YMKNVTNAVZ0x1a
YMKNVTNAVZ 0
root@arm:~# echo 'GSLQ''XNSXGG'
GSLQXNSXGG
root@arm:~# MARKER='MNUJ''VCEYMT' run 'echo 970000 970000 > /sys/kernel/mva_test//regulators/buck1_set'
MNUJVCEYMTMNUJVCEYMT 0
root@arm:~# echo 'TLYU''JXBWAQ'
TLYUJXBWAQ
root@arm:~# MARKER='NUUJ''ZGVMTP' run 'i2cget -y -f 2 0x4b 0xd'
NUUJZGVMTP0x1b
NUUJZGVMTP 0
root@arm:~# echo 'KMQU''JQFLBO'
KMQUJQFLBO
root@arm:~# MARKER='WSAT''XPQQQK' run 'echo 980000 980000 > /sys/kernel/mva_test//regulators/buck1_set'
WSATXPQQQKWSATXPQQQK 0
root@arm:~# echo 'FNZJ''KZZHJA'
FNZJKZZHJA
root@arm:~# MARKER='SVFE''KCEVKY' run 'i2cget -y -f 2 0x4b 0xd'
SVFEKCEVKY0x1c
SVFEKCEVKY 0
root@arm:~# echo 'YQTH''BAZXTT'
YQTHBAZXTT
root@arm:~# MARKER='VBST''QUTMFJ' run 'echo 990000 990000 > /sys/kernel/mva_test//regulators/buck1_set'
VBSTQUTMFJVBSTQUTMFJ 0
root@arm:~# echo 'OSCS''OTKJWN'
OSCSOTKJWN
root@arm:~# MARKER='TCMY''PGGZAJ' run 'i2cget -y -f 2 0x4b 0xd'
TCMYPGGZAJ0x1d
TCMYPGGZAJ 0
root@arm:~# echo 'YTMK''CJUKKJ'
YTMKCJUKKJ
root@arm:~# MARKER='PVOM''EGGPMV' run 'echo 1000000 1000000 > /sys/kernel/mva_tesst/regulators/buck1_set'
PVOMEGGPMVPVOMEGGPMV 0
root@arm:~# echo 'STGH''UYKHMP'
STGHUYKHMP
root@arm:~# MARKER='OAXZ''FLLTMP' run 'i2cget -y -f 2 0x4b 0xd'
OAXZFLLTMP0x1e
OAXZFLLTMP 0
root@arm:~# echo 'CWYV''YJBEPJ'
CWYVYJBEPJ
root@arm:~# MARKER='VLUV''KGAXXY' run 'echo 1010000 1010000 > /sys/kernel/mva_tesst/regulators/buck1_set'
VLUVKGAXXYVLUVKGAXXY 0
root@arm:~# echo 'VOGS''XZOJMN'
VOGSXZOJMN
root@arm:~# MARKER='NVSM''OEKHJU' run 'i2cget -y -f 2 0x4b 0xd'
NVSMOEKHJU0x1f
NVSMOEKHJU 0
root@arm:~# echo 'WBGS''BELMTJ'
WBGSBELMTJ
root@arm:~# MARKER='LEGW''LYHWEO' run 'echo 1020000 1020000 > /sys/kernel/mva_tesst/regulators/buck1_set'
LEGWLYHWEOLEGWLYHWEO 0
root@arm:~# echo 'FNNG''OBKZPN'
FNNGOBKZPN
root@arm:~# MARKER='ZXLU''UFFYTU' run 'i2cget -y -f 2 0x4b 0xd'
ZXLUUFFYTU0x20
ZXLUUFFYTU 0
root@arm:~# echo 'UOFS''MOWMLY'
UOFSMOWMLY
root@arm:~# MARKER='YLMN''AQWKYP' run 'echo 1030000 1030000 > /sys/kernel/mva_tesst/regulators/buck1_set'
YLMNAQWKYPYLMNAQWKYP 0
root@arm:~# echo 'ZYGZ''UMKQAS'
ZYGZUMKQAS
root@arm:~# MARKER='LKNO''ZHWLQZ' run 'i2cget -y -f 2 0x4b 0xd'
LKNOZHWLQZ0x21
LKNOZHWLQZ 0
root@arm:~# echo 'YOLL''QCXLCN'
YOLLQCXLCN
root@arm:~# MARKER='QAJJ''CHLLGV' run 'echo 1040000 1040000 > /sys/kernel/mva_tesst/regulators/buck1_set'
QAJJCHLLGVQAJJCHLLGV 0
root@arm:~# echo 'LGSX''FPLQAL'
LGSXFPLQAL
root@arm:~# MARKER='OQHG''UCEEFS' run 'i2cget -y -f 2 0x4b 0xd'
OQHGUCEEFS0x22
OQHGUCEEFS 0
root@arm:~# echo 'NEBK''ULBPTA'
NEBKULBPTA
root@arm:~# MARKER='HQFH''KFQPXS' run 'echo 1050000 1050000 > /sys/kernel/mva_tesst/regulators/buck1_set'
HQFHKFQPXSHQFHKFQPXS 0
root@arm:~# echo 'OVTU''NNBOUP'
OVTUNNBOUP
root@arm:~# MARKER='QVSG''GKMFMO' run 'i2cget -y -f 2 0x4b 0xd'
QVSGGKMFMO0x23
QVSGGKMFMO 0
root@arm:~# echo 'YNOZ''MTCBNQ'
YNOZMTCBNQ
root@arm:~# MARKER='NCTY''EFJGPO' run 'echo 1060000 1060000 > /sys/kernel/mva_tesst/regulators/buck1_set'
NCTYEFJGPONCTYEFJGPO 0
root@arm:~# echo 'NTBW''QONUPV'
NTBWQONUPV
root@arm:~# MARKER='JYAQ''YSBWGG' run 'i2cget -y -f 2 0x4b 0xd'
JYAQYSBWGG0x24
JYAQYSBWGG 0
root@arm:~# echo 'BNJL''WKXPCO'
BNJLWKXPCO
root@arm:~# MARKER='LVFG''FCTGNW' run 'echo 1070000 1070000 > /sys/kernel/mva_tesst/regulators/buck1_set'
LVFGFCTGNWLVFGFCTGNW 0
root@arm:~# echo 'UJVC''EYZFVW'
UJVCEYZFVW
root@arm:~# MARKER='BABQ''CSZXAN' run 'i2cget -y -f 2 0x4b 0xd'
BABQCSZXAN0x25
BABQCSZXAN 0
root@arm:~# echo 'GHQA''EGEFSZ'
GHQAEGEFSZ
root@arm:~# MARKER='UKHY''FGUKCQ' run 'echo 1080000 1080000 > /sys/kernel/mva_tesst/regulators/buck1_set'
UKHYFGUKCQUKHYFGUKCQ 0
root@arm:~# echo 'AMJC''PQOGCK'
AMJCPQOGCK
root@arm:~# MARKER='WLKL''UQCWMS' run 'i2cget -y -f 2 0x4b 0xd'
WLKLUQCWMS0x26
WLKLUQCWMS 0
root@arm:~# echo 'NAFK''GZTAAO'
NAFKGZTAAO
root@arm:~# MARKER='WMUK''YHJOKZ' run 'echo 1090000 1090000 > /sys/kernel/mva_tesst/regulators/buck1_set'
WMUKYHJOKZWMUKYHJOKZ 0
root@arm:~# echo 'PUBH''QMLBMA'
PUBHQMLBMA
root@arm:~# MARKER='CKKT''GBMOZF' run 'i2cget -y -f 2 0x4b 0xd'
CKKTGBMOZF0x27
CKKTGBMOZF 0
root@arm:~# echo 'JMLY''GJQFTC'
JMLYGJQFTC
root@arm:~# MARKER='SQUZ''JXOMOB' run 'echo 1100000 1100000 > /sys/kernel/mva_tesst/regulators/buck1_set'
SQUZJXOMOBSQUZJXOMOB 0
root@arm:~# echo 'FTAO''UOWJVA'
FTAOUOWJVA
root@arm:~# MARKER='UZHX''ZUQETB' run 'i2cget -y -f 2 0x4b 0xd'
UZHXZUQETB0x28
UZHXZUQETB 0
root@arm:~# echo 'APNQ''NQGYNB'
APNQNQGYNB
root@arm:~# MARKER='CSCH''HCPXVY' run 'echo 1110000 1110000 > /sys/kernel/mva_tesst/regulators/buck1_set'
CSCHHCPXVYCSCHHCPXVY 0
root@arm:~# echo 'HKNB''FXYJVM'
HKNBFXYJVM
root@arm:~# MARKER='EPAY''QJEUAJ' run 'i2cget -y -f 2 0x4b 0xd'
EPAYQJEUAJ0x29
EPAYQJEUAJ 0
root@arm:~# echo 'MLJB''NNBHKM'
MLJBNNBHKM
root@arm:~# MARKER='GHXZ''VNPOAP' run 'echo 1120000 1120000 > /sys/kernel/mva_tesst/regulators/buck1_set'
GHXZVNPOAPGHXZVNPOAP 0
root@arm:~# echo 'AGNK''ZTQBMH'
AGNKZTQBMH
root@arm:~# MARKER='NGHM''EMOXSG' run 'i2cget -y -f 2 0x4b 0xd'
NGHMEMOXSG0x2a
NGHMEMOXSG 0
root@arm:~# echo 'VZHW''EWHMTJ'
VZHWEWHMTJ
root@arm:~# MARKER='ZCLU''JAAPCX' run 'echo 1130000 1130000 > /sys/kernel/mva_tesst/regulators/buck1_set'
ZCLUJAAPCXZCLUJAAPCX 0
root@arm:~# echo 'SGAF''NQCQKH'
SGAFNQCQKH
root@arm:~# MARKER='PCGT''YBZTHC' run 'i2cget -y -f 2 0x4b 0xd'
PCGTYBZTHC0x2b
PCGTYBZTHC 0
root@arm:~# echo 'HPYX''WJYWKW'
HPYXWJYWKW
root@arm:~# MARKER='XMTG''JZEBGQ' run 'echo 1140000 1140000 > /sys/kernel/mva_tesst/regulators/buck1_set'
XMTGJZEBGQXMTGJZEBGQ 0
root@arm:~# echo 'PMKL''EMYESB'
PMKLEMYESB
root@arm:~# MARKER='KPUC''NUGEEL' run 'i2cget -y -f 2 0x4b 0xd'
KPUCNUGEEL0x2c
KPUCNUGEEL 0
root@arm:~# echo 'MGAN''JMMEZM'
MGANJMMEZM
root@arm:~# MARKER='XTUW''MEUTEB' run 'echo 1150000 1150000 > /sys/kernel/mva_tesst/regulators/buck1_set'
XTUWMEUTEBXTUWMEUTEB 0
root@arm:~# echo 'SLLU''GYMTVA'
SLLUGYMTVA
root@arm:~# MARKER='KHJJ''PJPSLZ' run 'i2cget -y -f 2 0x4b 0xd'
KHJJPJPSLZ0x2d
KHJJPJPSLZ 0
root@arm:~# echo 'BPVC''LFSYVZ'
BPVCLFSYVZ
root@arm:~# MARKER='XJNX''FJBOHG' run 'echo 1160000 1160000 > /sys/kernel/mva_tesst/regulators/buck1_set'
XJNXFJBOHGXJNXFJBOHG 0
root@arm:~# echo 'OEFU''GZQFFQ'
OEFUGZQFFQ
root@arm:~# MARKER='SEJE''ZYXHKT' run 'i2cget -y -f 2 0x4b 0xd'
SEJEZYXHKT0x2e
SEJEZYXHKT 0
root@arm:~# echo 'CKUN''SZAWXH'
CKUNSZAWXH
root@arm:~# MARKER='CBGV''QMNWVV' run 'echo 1170000 1170000 > /sys/kernel/mva_tesst/regulators/buck1_set'
CBGVQMNWVVCBGVQMNWVV 0
root@arm:~# echo 'FNQG''HTPTWZ'
FNQGHTPTWZ
root@arm:~# MARKER='GZHL''NMHQBW' run 'i2cget -y -f 2 0x4b 0xd'
GZHLNMHQBW0x2f
GZHLNMHQBW 0
root@arm:~# echo 'MPPZ''UCWTZX'
MPPZUCWTZX
root@arm:~# MARKER='TLWC''JFFWGO' run 'echo 1180000 1180000 > /sys/kernel/mva_tesst/regulators/buck1_set'
TLWCJFFWGOTLWCJFFWGO 0
root@arm:~# echo 'MPYO''CTAAVU'
MPYOCTAAVU
root@arm:~# MARKER='PVKW''TWWVBW' run 'i2cget -y -f 2 0x4b 0xd'
PVKWTWWVBW0x30
PVKWTWWVBW 0
root@arm:~# echo 'OEBZ''PBBHHQ'
OEBZPBBHHQ
root@arm:~# MARKER='XPKA''TAYCMX' run 'echo 1190000 1190000 > /sys/kernel/mva_tesst/regulators/buck1_set'
XPKATAYCMXXPKATAYCMX 0
root@arm:~# echo 'CAKT''LPYJFV'
CAKTLPYJFV
root@arm:~# MARKER='HYKG''VYHSQT' run 'i2cget -y -f 2 0x4b 0xd'
HYKGVYHSQT0x31
HYKGVYHSQT 0
root@arm:~# echo 'BBCM''GVBSQL'
BBCMGVBSQL
root@arm:~# MARKER='UYGZ''AOAOSQ' run 'echo 1200000 1200000 > /sys/kernel/mva_tesst/regulators/buck1_set'
UYGZAOAOSQUYGZAOAOSQ 0
root@arm:~# echo 'VCXO''GQPQKF'
VCXOGQPQKF
root@arm:~# MARKER='OEKQ''VVSJEC' run 'i2cget -y -f 2 0x4b 0xd'
OEKQVVSJEC0x32
OEKQVVSJEC 0
root@arm:~# echo 'CXBV''GWPOKC'
CXBVGWPOKC
root@arm:~# MARKER='HHPA''HGOMPS' run 'echo 1210000 1210000 > /sys/kernel/mva_tesst/regulators/buck1_set'
HHPAHGOMPSHHPAHGOMPS 0
root@arm:~# echo 'EWCX''EFOBSJ'
EWCXEFOBSJ
root@arm:~# MARKER='YVWM''CWEUJT' run 'i2cget -y -f 2 0x4b 0xd'
YVWMCWEUJT0x33
YVWMCWEUJT 0
root@arm:~# echo 'GMJO''XVOFWL'
GMJOXVOFWL
root@arm:~# MARKER='SVJU''LHHEXS' run 'echo 1220000 1220000 > /sys/kernel/mva_tesst/regulators/buck1_set'
SVJULHHEXSSVJULHHEXS 0
root@arm:~# echo 'CAGB''JBXBMX'
CAGBJBXBMX
root@arm:~# MARKER='VYCF''BQPSSS' run 'i2cget -y -f 2 0x4b 0xd'
VYCFBQPSSS0x34
VYCFBQPSSS 0
root@arm:~# echo 'CFWL''JHUJYU'
CFWLJHUJYU
root@arm:~# MARKER='CVUH''KBCFQC' run 'echo 1230000 1230000 > /sys/kernel/mva_tesst/regulators/buck1_set'
CVUHKBCFQCCVUHKBCFQC 0
root@arm:~# echo 'YWEC''SCQUQQ'
YWECSCQUQQ
root@arm:~# MARKER='ALUE''JLVQVJ' run 'i2cget -y -f 2 0x4b 0xd'
ALUEJLVQVJ0x35
ALUEJLVQVJ 0
root@arm:~# echo 'JLPC''QWHFWN'
JLPCQWHFWN
root@arm:~# MARKER='OMUY''SUQHNZ' run 'echo 1240000 1240000 > /sys/kernel/mva_tesst/regulators/buck1_set'
OMUYSUQHNZOMUYSUQHNZ 0
root@arm:~# echo 'PFVO''PHUHEM'
PFVOPHUHEM
root@arm:~# MARKER='YTSW''NMKAEG' run 'i2cget -y -f 2 0x4b 0xd'
YTSWNMKAEG0x36
YTSWNMKAEG 0
root@arm:~# echo 'COVW''JOWNFC'
COVWJOWNFC
root@arm:~# MARKER='KZLC''TYUBGQ' run 'echo 1250000 1250000 > /sys/kernel/mva_tesst/regulators/buck1_set'
KZLCTYUBGQKZLCTYUBGQ 0
root@arm:~# echo 'XOTW''SJLFEJ'
XOTWSJLFEJ
root@arm:~# MARKER='GSHZ''XQFUNV' run 'i2cget -y -f 2 0x4b 0xd'
GSHZXQFUNV0x37
GSHZXQFUNV 0
root@arm:~# echo 'NGUN''JQMWNB'
NGUNJQMWNB
root@arm:~# MARKER='XAUK''KHEYME' run 'echo 1260000 1260000 > /sys/kernel/mva_tesst/regulators/buck1_set'
XAUKKHEYMEXAUKKHEYME 0
root@arm:~# echo 'CCCW''ZATUOH'
CCCWZATUOH
root@arm:~# MARKER='UGTY''JEPTQC' run 'i2cget -y -f 2 0x4b 0xd'
UGTYJEPTQC0x38
UGTYJEPTQC 0
root@arm:~# echo 'GCNU''CLXNSH'
GCNUCLXNSH
root@arm:~# MARKER='OUTS''YHKEMY' run 'echo 1270000 1270000 > /sys/kernel/mva_tesst/regulators/buck1_set'
OUTSYHKEMYOUTSYHKEMY 0
root@arm:~# echo 'MCFH''XNOUZB'
MCFHXNOUZB
root@arm:~# MARKER='FOZW''TZMWGZ' run 'i2cget -y -f 2 0x4b 0xd'
FOZWTZMWGZ0x39
FOZWTZMWGZ 0
root@arm:~# echo 'BSOP''LFGQYK'
BSOPLFGQYK
root@arm:~# MARKER='VZSN''WTVZSG' run 'echo 1280000 1280000 > /sys/kernel/mva_tesst/regulators/buck1_set'
VZSNWTVZSGVZSNWTVZSG 0
root@arm:~# echo 'MJTB''CLJYWV'
MJTBCLJYWV
root@arm:~# MARKER='UJFZ''XCVNSB' run 'i2cget -y -f 2 0x4b 0xd'
UJFZXCVNSB0x3a
UJFZXCVNSB 0
root@arm:~# echo 'ABQP''FJLSVZ'
ABQPFJLSVZ
root@arm:~# MARKER='OPFH''AMHMOC' run 'echo 1290000 1290000 > /sys/kernel/mva_tesst/regulators/buck1_set'
OPFHAMHMOCOPFHAMHMOC 0
root@arm:~# echo 'BMET''WCNVKK'
BMETWCNVKK
root@arm:~# MARKER='GEYG''CKTYTV' run 'i2cget -y -f 2 0x4b 0xd'
GEYGCKTYTV0x3b
GEYGCKTYTV 0
root@arm:~# echo 'NQWL''VLXTFY'
NQWLVLXTFY
root@arm:~# MARKER='FKJF''QYYWTM' run 'echo 1300000 1300000 > /sys/kernel/mva_tesst/regulators/buck1_set'
FKJFQYYWTMFKJFQYYWTM 0
root@arm:~# echo 'LSBT''GPBFSB'
LSBTGPBFSB
root@arm:~# MARKER='XQTV''JBGCBE' run 'i2cget -y -f 2 0x4b 0xd'
XQTVJBGCBE0x3c
XQTVJBGCBE 0
root@arm:~# echo 'EKGC''MJMHME'
EKGCMJMHME
root@arm:~# MARKER='GJGM''AULPXH' run 'grep -r -l rohm,bd71837 /proc/device-tree  | sed '"'"'s![^/]*$!!'"'"''
GJGMAULPXH/proc/device-tree/ocp/interconnect@48000000/segment@100000/target-module@9c000/i2c@0/pmic@4b/
GJGMAULPXH 0
root@arm:~# echo 'EZVQ''PEQKGF'
EZVQPEQKGF
root@arm:~# MARKER='OECZ''EEWEOT' run 'test -f /proc/device-tree/ocp/interconnectt\@48000000/segment\@100000/target-module\@9c000/i2c\@0/pmic\@4b/regulators/BUCK 2/rohm,no-regulator-enable-control ;echo $?'
OECZEEWEOT1
OECZEEWEOT 0
root@arm:~# echo 'HSOP''XELSVW'
HSOPXELSVW
root@arm:~# MARKER='TTFK''GUKZTJ' run 'i2cget -y -f 2 0x4b 0x6'
TTFKGUKZTJ0x43
TTFKGUKZTJ 0
root@arm:~# echo 'FEVF''APQENW'
FEVFAPQENW
root@arm:~# MARKER='GTYV''YBQYPX' run 'echo 700000 700000 > /sys/kernel/mva_test//regulators/buck2_set'
GTYVYBQYPXGTYVYBQYPX 0
root@arm:~# echo 'GUCM''WXNFLS'
GUCMWXNFLS
root@arm:~# MARKER='QSTK''ETVFZE' run 'i2cget -y -f 2 0x4b 0x10'
QSTKETVFZE0x00
QSTKETVFZE 0
root@arm:~# echo 'ZBGJ''UFLKUW'
ZBGJUFLKUW
root@arm:~# MARKER='NUVG''HBWFVJ' run 'echo 710000 710000 > /sys/kernel/mva_test//regulators/buck2_set'
NUVGHBWFVJNUVGHBWFVJ 0
root@arm:~# echo 'YWJS''ZZKFAX'
YWJSZZKFAX
root@arm:~# MARKER='ELTM''APNCYN' run 'i2cget -y -f 2 0x4b 0x10'
ELTMAPNCYN0x01
ELTMAPNCYN 0
root@arm:~# echo 'ZGUW''TYYLNJ'
ZGUWTYYLNJ
root@arm:~# MARKER='ACGE''BUGWQA' run 'echo 720000 720000 > /sys/kernel/mva_test//regulators/buck2_set'
ACGEBUGWQAACGEBUGWQA 0
root@arm:~# echo 'QKJN''FMFKNW'
QKJNFMFKNW
root@arm:~# MARKER='BWEW''QPVKKS' run 'i2cget -y -f 2 0x4b 0x10'
BWEWQPVKKS0x02
BWEWQPVKKS 0
root@arm:~# echo 'PHJY''ZCEYEV'
PHJYZCEYEV
root@arm:~# MARKER='CSPK''SSVSXM' run 'echo 730000 730000 > /sys/kernel/mva_test//regulators/buck2_set'
CSPKSSVSXMCSPKSSVSXM 0
root@arm:~# echo 'WNJA''VPJBAS'
WNJAVPJBAS
root@arm:~# MARKER='YYSZ''CACEEB' run 'i2cget -y -f 2 0x4b 0x10'
YYSZCACEEB0x03
YYSZCACEEB 0
root@arm:~# echo 'EHTH''LHFWGG'
EHTHLHFWGG
root@arm:~# MARKER='OEHM''YHHBLH' run 'echo 740000 740000 > /sys/kernel/mva_test//regulators/buck2_set'
OEHMYHHBLHOEHMYHHBLH 0
root@arm:~# echo 'QASP''UCWPSW'
QASPUCWPSW
root@arm:~# MARKER='JPWC''HZTZKV' run 'i2cget -y -f 2 0x4b 0x10'
JPWCHZTZKV0x04
JPWCHZTZKV 0
root@arm:~# echo 'HONB''XNYEVO'
HONBXNYEVO
root@arm:~# MARKER='EQTW''TQFHXU' run 'echo 750000 750000 > /sys/kernel/mva_test//regulators/buck2_set'
EQTWTQFHXUEQTWTQFHXU 0
root@arm:~# echo 'GQCM''SXGSHP'
GQCMSXGSHP
root@arm:~# MARKER='EMSK''NHYSNB' run 'i2cget -y -f 2 0x4b 0x10'
EMSKNHYSNB0x05
EMSKNHYSNB 0
root@arm:~# echo 'UKZK''OGJYOS'
UKZKOGJYOS
root@arm:~# MARKER='YANZ''GXSMJO' run 'echo 760000 760000 > /sys/kernel/mva_test//regulators/buck2_set'
YANZGXSMJOYANZGXSMJO 0
root@arm:~# echo 'AUWC''ZMGALZ'
AUWCZMGALZ
root@arm:~# MARKER='YKPM''HJOMYK' run 'i2cget -y -f 2 0x4b 0x10'
YKPMHJOMYK0x06
YKPMHJOMYK 0
root@arm:~# echo 'FWUK''UBYVCH'
FWUKUBYVCH
root@arm:~# MARKER='JJOA''QJJOXP' run 'echo 770000 770000 > /sys/kernel/mva_test//regulators/buck2_set'
JJOAQJJOXPJJOAQJJOXP 0
root@arm:~# echo 'QTPG''EYUWCH'
QTPGEYUWCH
root@arm:~# MARKER='KWBO''SVJGLB' run 'i2cget -y -f 2 0x4b 0x10'
KWBOSVJGLB0x07
KWBOSVJGLB 0
root@arm:~# echo 'HLGU''GLSNVH'
HLGUGLSNVH
root@arm:~# MARKER='JZZP''OYPLQH' run 'echo 780000 780000 > /sys/kernel/mva_test//regulators/buck2_set'
JZZPOYPLQHJZZPOYPLQH 0
root@arm:~# echo 'BBXF''CKWWEY'
BBXFCKWWEY
root@arm:~# MARKER='VQKO''ENXOGF' run 'i2cget -y -f 2 0x4b 0x10'
VQKOENXOGF0x08
VQKOENXOGF 0
root@arm:~# echo 'AXXH''HFVVSK'
AXXHHFVVSK
root@arm:~# MARKER='JSOU''NJSTTH' run 'echo 790000 790000 > /sys/kernel/mva_test//regulators/buck2_set'
JSOUNJSTTHJSOUNJSTTH 0
root@arm:~# echo 'WEBE''SQOLJL'
WEBESQOLJL
root@arm:~# MARKER='CHKL''CPEKOP' run 'i2cget -y -f 2 0x4b 0x10'
CHKLCPEKOP0x09
CHKLCPEKOP 0
root@arm:~# echo 'GVEU''FHQTKM'
GVEUFHQTKM
root@arm:~# MARKER='FYSZ''WBEUKG' run 'echo 800000 800000 > /sys/kernel/mva_test//regulators/buck2_set'
FYSZWBEUKGFYSZWBEUKG 0
root@arm:~# echo 'CYKB''EVSTGJ'
CYKBEVSTGJ
root@arm:~# MARKER='GLTM''KCTNCG' run 'i2cget -y -f 2 0x4b 0x10'
GLTMKCTNCG0x0a
GLTMKCTNCG 0
root@arm:~# echo 'QBBC''VUVQUC'
QBBCVUVQUC
root@arm:~# MARKER='HVQE''VCOKXJ' run 'echo 810000 810000 > /sys/kernel/mva_test//regulators/buck2_set'
HVQEVCOKXJHVQEVCOKXJ 0
root@arm:~# echo 'CSUZ''VCYBWG'
CSUZVCYBWG
root@arm:~# MARKER='YUKC''FGNVVE' run 'i2cget -y -f 2 0x4b 0x10'
YUKCFGNVVE0x0b
YUKCFGNVVE 0
root@arm:~# echo 'XVHB''ZMYCMY'
XVHBZMYCMY
root@arm:~# MARKER='UGMF''CZVMKO' run 'echo 820000 820000 > /sys/kernel/mva_test//regulators/buck2_set'
UGMFCZVMKOUGMFCZVMKO 0
root@arm:~# echo 'SHOA''FFLYTK'
SHOAFFLYTK
root@arm:~# MARKER='XCHG''ZXLTZG' run 'i2cget -y -f 2 0x4b 0x10'
XCHGZXLTZG0x0c
XCHGZXLTZG 0
root@arm:~# echo 'PVJO''PNYBPB'
PVJOPNYBPB
root@arm:~# MARKER='UEJG''FSWLBO' run 'echo 830000 830000 > /sys/kernel/mva_test//regulators/buck2_set'
UEJGFSWLBOUEJGFSWLBO 0
root@arm:~# echo 'OFHL''SVCBOT'
OFHLSVCBOT
root@arm:~# MARKER='BZZS''XUPMSQ' run 'i2cget -y -f 2 0x4b 0x10'
BZZSXUPMSQ0x0d
BZZSXUPMSQ 0
root@arm:~# echo 'HVPG''QTNMOT'
HVPGQTNMOT
root@arm:~# MARKER='HVCE''TFSOQE' run 'echo 840000 840000 > /sys/kernel/mva_test//regulators/buck2_set'
HVCETFSOQEHVCETFSOQE 0
root@arm:~# echo 'JNAT''QOCCKG'
JNATQOCCKG
root@arm:~# MARKER='JGWW''VPMTSZ' run 'i2cget -y -f 2 0x4b 0x10'
JGWWVPMTSZ0x0e
JGWWVPMTSZ 0
root@arm:~# echo 'LONP''NLAFHY'
LONPNLAFHY
root@arm:~# MARKER='BSYY''LYFWFF' run 'echo 850000 850000 > /sys/kernel/mva_test//regulators/buck2_set'
BSYYLYFWFFBSYYLYFWFF 0
root@arm:~# echo 'CHVG''SHQUXM'
CHVGSHQUXM
root@arm:~# MARKER='BXXB''TPPTGA' run 'i2cget -y -f 2 0x4b 0x10'
BXXBTPPTGA0x0f
BXXBTPPTGA 0
root@arm:~# echo 'KGGN''EHETYO'
KGGNEHETYO
root@arm:~# MARKER='CVOS''HHJVKQ' run 'echo 860000 860000 > /sys/kernel/mva_test//regulators/buck2_set'
CVOSHHJVKQCVOSHHJVKQ 0
root@arm:~# echo 'YBSU''HMYOVE'
YBSUHMYOVE
root@arm:~# MARKER='WOBP''TWZLAX' run 'i2cget -y -f 2 0x4b 0x10'
WOBPTWZLAX0x10
WOBPTWZLAX 0
root@arm:~# echo 'MVCV''QJBQPB'
MVCVQJBQPB
root@arm:~# MARKER='TAGV''LSYSUY' run 'echo 870000 870000 > /sys/kernel/mva_test//regulators/buck2_set'
TAGVLSYSUYTAGVLSYSUY 0
root@arm:~# echo 'CNVB''CANTQL'
CNVBCANTQL
root@arm:~# MARKER='OVWO''PKUYPC' run 'i2cget -y -f 2 0x4b 0x10'
OVWOPKUYPC0x11
OVWOPKUYPC 0
root@arm:~# echo 'EXNM''QWZTXA'
EXNMQWZTXA
root@arm:~# MARKER='HVYA''TYBFPG' run 'echo 880000 880000 > /sys/kernel/mva_test//regulators/buck2_set'
HVYATYBFPGHVYATYBFPG 0
root@arm:~# echo 'SFQO''MGJAAE'
SFQOMGJAAE
root@arm:~# MARKER='BJET''XXOLOB' run 'i2cget -y -f 2 0x4b 0x10'
BJETXXOLOB0x12
BJETXXOLOB 0
root@arm:~# echo 'HAVA''NTBHPO'
HAVANTBHPO
root@arm:~# MARKER='CXGM''QGOUFN' run 'echo 890000 890000 > /sys/kernel/mva_test//regulators/buck2_set'
CXGMQGOUFNCXGMQGOUFN 0
root@arm:~# echo 'WNXC''ZQCWKH'
WNXCZQCWKH
root@arm:~# MARKER='OVFS''AANQTH' run 'i2cget -y -f 2 0x4b 0x10'
OVFSAANQTH0x13
OVFSAANQTH 0
root@arm:~# echo 'AFGX''HTQESQ'
AFGXHTQESQ
root@arm:~# MARKER='TJSP''XGOUYP' run 'echo 900000 900000 > /sys/kernel/mva_test//regulators/buck2_set'
TJSPXGOUYPTJSPXGOUYP 0
root@arm:~# echo 'LBCT''QZNFPO'
LBCTQZNFPO
root@arm:~# MARKER='BLKF''VCGGKG' run 'i2cget -y -f 2 0x4b 0x10'
BLKFVCGGKG0x14
BLKFVCGGKG 0
root@arm:~# echo 'PGTQ''AZEXTY'
PGTQAZEXTY
root@arm:~# MARKER='EXUH''CHZMQZ' run 'echo 910000 910000 > /sys/kernel/mva_test//regulators/buck2_set'
EXUHCHZMQZEXUHCHZMQZ 0
root@arm:~# echo 'VPAE''MSFEFA'
VPAEMSFEFA
root@arm:~# MARKER='FMQY''XAOJGT' run 'i2cget -y -f 2 0x4b 0x10'
FMQYXAOJGT0x15
FMQYXAOJGT 0
root@arm:~# echo 'CXYW''MHXLLV'
CXYWMHXLLV
root@arm:~# MARKER='EKNM''TYEUKA' run 'echo 920000 920000 > /sys/kernel/mva_test//regulators/buck2_set'
EKNMTYEUKAEKNMTYEUKA 0
root@arm:~# echo 'YZZY''WJXJOU'
YZZYWJXJOU
root@arm:~# MARKER='OFQE''CEHPGN' run 'i2cget -y -f 2 0x4b 0x10'
OFQECEHPGN0x16
OFQECEHPGN 0
root@arm:~# echo 'UAYO''GZYSLV'
UAYOGZYSLV
root@arm:~# MARKER='YXNT''BVJLAP' run 'echo 930000 930000 > /sys/kernel/mva_test//regulators/buck2_set'
YXNTBVJLAPYXNTBVJLAP 0
root@arm:~# echo 'TVJE''FUHKKA'
TVJEFUHKKA
root@arm:~# MARKER='BVFO''ZGSFCL' run 'i2cget -y -f 2 0x4b 0x10'
BVFOZGSFCL0x17
BVFOZGSFCL 0
root@arm:~# echo 'KLWL''QYNLQB'
KLWLQYNLQB
root@arm:~# MARKER='ZFWN''LNEPGT' run 'echo 940000 940000 > /sys/kernel/mva_test//regulators/buck2_set'
ZFWNLNEPGTZFWNLNEPGT 0
root@arm:~# echo 'YCPP''WQTMHV'
YCPPWQTMHV
root@arm:~# MARKER='ALJN''ETTHZO' run 'i2cget -y -f 2 0x4b 0x10'
ALJNETTHZO0x18
ALJNETTHZO 0
root@arm:~# echo 'ACZF''XQTJHG'
ACZFXQTJHG
root@arm:~# MARKER='HQAV''SYGQPL' run 'echo 950000 950000 > /sys/kernel/mva_test//regulators/buck2_set'
HQAVSYGQPLHQAVSYGQPL 0
root@arm:~# echo 'EHJV''UOYYPN'
EHJVUOYYPN
root@arm:~# MARKER='CMXK''SHBVJC' run 'i2cget -y -f 2 0x4b 0x10'
CMXKSHBVJC0x19
CMXKSHBVJC 0
root@arm:~# echo 'JHKK''CZSZXH'
JHKKCZSZXH
root@arm:~# MARKER='QCKV''JOQLPL' run 'echo 960000 960000 > /sys/kernel/mva_test//regulators/buck2_set'
QCKVJOQLPLQCKVJOQLPL 0
root@arm:~# echo 'NMBM''ZVZCJB'
NMBMZVZCJB
root@arm:~# MARKER='QLKV''FXBMUL' run 'i2cget -y -f 2 0x4b 0x10'
QLKVFXBMUL0x1a
QLKVFXBMUL 0
root@arm:~# echo 'ANCT''TVCMOF'
ANCTTVCMOF
root@arm:~# MARKER='ZFPJ''GOMOJG' run 'echo 970000 970000 > /sys/kernel/mva_test//regulators/buck2_set'
ZFPJGOMOJGZFPJGOMOJG 0
root@arm:~# echo 'XFWY''WMOTLG'
XFWYWMOTLG
root@arm:~# MARKER='PBKT''JJKKCE' run 'i2cget -y -f 2 0x4b 0x10'
PBKTJJKKCE0x1b
PBKTJJKKCE 0
root@arm:~# echo 'XBJW''SCGLML'
XBJWSCGLML
root@arm:~# MARKER='SEJW''XKCHFB' run 'echo 980000 980000 > /sys/kernel/mva_test//regulators/buck2_set'
SEJWXKCHFBSEJWXKCHFB 0
root@arm:~# echo 'KNMU''BYQPWK'
KNMUBYQPWK
root@arm:~# MARKER='TSTL''SEUXHT' run 'i2cget -y -f 2 0x4b 0x10'
TSTLSEUXHT0x1c
TSTLSEUXHT 0
root@arm:~# echo 'EUXL''AJCFXT'
EUXLAJCFXT
root@arm:~# MARKER='VPCY''NOWWEO' run 'echo 990000 990000 > /sys/kernel/mva_test//regulators/buck2_set'
VPCYNOWWEOVPCYNOWWEO 0
root@arm:~# echo 'NZHL''VPFELP'
NZHLVPFELP
root@arm:~# MARKER='BWOP''MHLFGF' run 'i2cget -y -f 2 0x4b 0x10'
BWOPMHLFGF0x1d
BWOPMHLFGF 0
root@arm:~# echo 'OJLQ''AGGTXH'
OJLQAGGTXH
root@arm:~# MARKER='PXCK''XJMWSH' run 'echo 1000000 1000000 > /sys/kernel/mva_tesst/regulators/buck2_set'
PXCKXJMWSHPXCKXJMWSH 0
root@arm:~# echo 'ALCK''XYZTCJ'
ALCKXYZTCJ
root@arm:~# MARKER='VOWO''ESMTJN' run 'i2cget -y -f 2 0x4b 0x10'
VOWOESMTJN0x1e
VOWOESMTJN 0
root@arm:~# echo 'KOQP''HTBWXY'
KOQPHTBWXY
root@arm:~# MARKER='FLHN''FSQPEM' run 'echo 1010000 1010000 > /sys/kernel/mva_tesst/regulators/buck2_set'
FLHNFSQPEMFLHNFSQPEM 0
root@arm:~# echo 'YPTX''ZGJCMN'
YPTXZGJCMN
root@arm:~# MARKER='JATM''LUECFO' run 'i2cget -y -f 2 0x4b 0x10'
JATMLUECFO0x1f
JATMLUECFO 0
root@arm:~# echo 'UZLE''VTEUKJ'
UZLEVTEUKJ
root@arm:~# MARKER='NFJP''COOVNC' run 'echo 1020000 1020000 > /sys/kernel/mva_tesst/regulators/buck2_set'
NFJPCOOVNCNFJPCOOVNC 0
root@arm:~# echo 'EANL''ZSLOTY'
EANLZSLOTY
root@arm:~# MARKER='ZKOX''WYTJCE' run 'i2cget -y -f 2 0x4b 0x10'
ZKOXWYTJCE0x20
ZKOXWYTJCE 0
root@arm:~# echo 'AMWY''AYHYPV'
AMWYAYHYPV
root@arm:~# MARKER='WEMZ''LCEAXG' run 'echo 1030000 1030000 > /sys/kernel/mva_tesst/regulators/buck2_set'
WEMZLCEAXGWEMZLCEAXG 0
root@arm:~# echo 'QSNS''HQELLM'
QSNSHQELLM
root@arm:~# MARKER='JGHA''HPZXQW' run 'i2cget -y -f 2 0x4b 0x10'
JGHAHPZXQW0x21
JGHAHPZXQW 0
root@arm:~# echo 'ZCVW''CPAMWF'
ZCVWCPAMWF
root@arm:~# MARKER='QMTA''THVTJT' run 'echo 1040000 1040000 > /sys/kernel/mva_tesst/regulators/buck2_set'
QMTATHVTJTQMTATHVTJT 0
root@arm:~# echo 'PYYT''SXXLLK'
PYYTSXXLLK
root@arm:~# MARKER='ENBP''GCWJLQ' run 'i2cget -y -f 2 0x4b 0x10'
ENBPGCWJLQ0x22
ENBPGCWJLQ 0
root@arm:~# echo 'AMES''NSTNEJ'
AMESNSTNEJ
root@arm:~# MARKER='SCYH''COTGEE' run 'echo 1050000 1050000 > /sys/kernel/mva_tesst/regulators/buck2_set'
SCYHCOTGEESCYHCOTGEE 0
root@arm:~# echo 'YYJM''BBWASZ'
YYJMBBWASZ
root@arm:~# MARKER='AEJB''LQTOBB' run 'i2cget -y -f 2 0x4b 0x10'
AEJBLQTOBB0x23
AEJBLQTOBB 0
root@arm:~# echo 'GYWX''SLHFSV'
GYWXSLHFSV
root@arm:~# MARKER='YONV''PFSXOB' run 'echo 1060000 1060000 > /sys/kernel/mva_tesst/regulators/buck2_set'
YONVPFSXOBYONVPFSXOB 0
root@arm:~# echo 'NXLX''BMJEJZ'
NXLXBMJEJZ
root@arm:~# MARKER='FNZP''YYMQOE' run 'i2cget -y -f 2 0x4b 0x10'
FNZPYYMQOE0x24
FNZPYYMQOE 0
root@arm:~# echo 'HWUP''NLHLOT'
HWUPNLHLOT
root@arm:~# MARKER='VGPZ''HLSGVC' run 'echo 1070000 1070000 > /sys/kernel/mva_tesst/regulators/buck2_set'
VGPZHLSGVCVGPZHLSGVC 0
root@arm:~# echo 'FZSK''CEVVSN'
FZSKCEVVSN
root@arm:~# MARKER='ULKK''EZHHYS' run 'i2cget -y -f 2 0x4b 0x10'
ULKKEZHHYS0x25
ULKKEZHHYS 0
root@arm:~# echo 'VSGL''LYWOQC'
VSGLLYWOQC
root@arm:~# MARKER='VKUM''VKFMHW' run 'echo 1080000 1080000 > /sys/kernel/mva_tesst/regulators/buck2_set'
VKUMVKFMHWVKUMVKFMHW 0
root@arm:~# echo 'HONX''ZQQASL'
HONXZQQASL
root@arm:~# MARKER='OHAA''MVUTJE' run 'i2cget -y -f 2 0x4b 0x10'
OHAAMVUTJE0x26
OHAAMVUTJE 0
root@arm:~# echo 'ZFNL''OFCOFH'
ZFNLOFCOFH
root@arm:~# MARKER='VGTT''SYSNBF' run 'echo 1090000 1090000 > /sys/kernel/mva_tesst/regulators/buck2_set'
VGTTSYSNBFVGTTSYSNBF 0
root@arm:~# echo 'MWMH''JNOOMQ'
MWMHJNOOMQ
root@arm:~# MARKER='UPMJ''KWATZO' run 'i2cget -y -f 2 0x4b 0x10'
UPMJKWATZO0x27
UPMJKWATZO 0
root@arm:~# echo 'UBFW''UXCQHQ'
UBFWUXCQHQ
root@arm:~# MARKER='LFGA''LSMSBN' run 'echo 1100000 1100000 > /sys/kernel/mva_tesst/regulators/buck2_set'
LFGALSMSBNLFGALSMSBN 0
root@arm:~# echo 'SPOV''GOBKGJ'
SPOVGOBKGJ
root@arm:~# MARKER='BGJG''MHOKLE' run 'i2cget -y -f 2 0x4b 0x10'
BGJGMHOKLE0x28
BGJGMHOKLE 0
root@arm:~# echo 'FCUB''OZTPML'
FCUBOZTPML
root@arm:~# MARKER='LJKM''LBAVLF' run 'echo 1110000 1110000 > /sys/kernel/mva_tesst/regulators/buck2_set'
LJKMLBAVLFLJKMLBAVLF 0
root@arm:~# echo 'HMCQ''YSHFMC'
HMCQYSHFMC
root@arm:~# MARKER='TKUN''QHAMMA' run 'i2cget -y -f 2 0x4b 0x10'
TKUNQHAMMA0x29
TKUNQHAMMA 0
root@arm:~# echo 'BMQO''JQFQAA'
BMQOJQFQAA
root@arm:~# MARKER='QHXM''WABVFQ' run 'echo 1120000 1120000 > /sys/kernel/mva_tesst/regulators/buck2_set'
QHXMWABVFQQHXMWABVFQ 0
root@arm:~# echo 'MVGO''JVZQOK'
MVGOJVZQOK
root@arm:~# MARKER='MCBS''NBVSCY' run 'i2cget -y -f 2 0x4b 0x10'
MCBSNBVSCY0x2a
MCBSNBVSCY 0
root@arm:~# echo 'SQUY''ZWYCLL'
SQUYZWYCLL
root@arm:~# MARKER='CWGY''AMZCGN' run 'echo 1130000 1130000 > /sys/kernel/mva_tesst/regulators/buck2_set'
CWGYAMZCGNCWGYAMZCGN 0
root@arm:~# echo 'UHLP''NTTCVB'
UHLPNTTCVB
root@arm:~# MARKER='XHCG''MSVCGE' run 'i2cget -y -f 2 0x4b 0x10'
XHCGMSVCGE0x2b
XHCGMSVCGE 0
root@arm:~# echo 'YUSF''PTCLXK'
YUSFPTCLXK
root@arm:~# MARKER='KPMV''BMEJAA' run 'echo 1140000 1140000 > /sys/kernel/mva_tesst/regulators/buck2_set'
KPMVBMEJAAKPMVBMEJAA 0
root@arm:~# echo 'JWQU''BUQUXJ'
JWQUBUQUXJ
root@arm:~# MARKER='BGAV''LKPSUX' run 'i2cget -y -f 2 0x4b 0x10'
BGAVLKPSUX0x2c
BGAVLKPSUX 0
root@arm:~# echo 'LPFF''TZAJZH'
LPFFTZAJZH
root@arm:~# MARKER='JASM''LNJLGS' run 'echo 1150000 1150000 > /sys/kernel/mva_tesst/regulators/buck2_set'
JASMLNJLGSJASMLNJLGS 0
root@arm:~# echo 'UMZU''VFAJES'
UMZUVFAJES
root@arm:~# MARKER='QOUY''LMSWWT' run 'i2cget -y -f 2 0x4b 0x10'
QOUYLMSWWT0x2d
QOUYLMSWWT 0
root@arm:~# echo 'UUVK''ZUSOMF'
UUVKZUSOMF
root@arm:~# MARKER='OAYW''WXHVPO' run 'echo 1160000 1160000 > /sys/kernel/mva_tesst/regulators/buck2_set'
OAYWWXHVPOOAYWWXHVPO 0
root@arm:~# echo 'JKUB''NABACA'
JKUBNABACA
root@arm:~# MARKER='HFGS''EUTFON' run 'i2cget -y -f 2 0x4b 0x10'
HFGSEUTFON0x2e
HFGSEUTFON 0
root@arm:~# echo 'ZENM''AUEABP'
ZENMAUEABP
root@arm:~# MARKER='YWMH''MYMNKL' run 'echo 1170000 1170000 > /sys/kernel/mva_tesst/regulators/buck2_set'
YWMHMYMNKLYWMHMYMNKL 0
root@arm:~# echo 'HPGN''CBGCXM'
HPGNCBGCXM
root@arm:~# MARKER='CFOJ''FFHANU' run 'i2cget -y -f 2 0x4b 0x10'
CFOJFFHANU0x2f
CFOJFFHANU 0
root@arm:~# echo 'PUZM''NBOZBX'
PUZMNBOZBX
root@arm:~# MARKER='KUVQ''ASFXWM' run 'echo 1180000 1180000 > /sys/kernel/mva_tesst/regulators/buck2_set'
KUVQASFXWMKUVQASFXWM 0
root@arm:~# echo 'UTQX''CXABWW'
UTQXCXABWW
root@arm:~# MARKER='XMKY''FQCEWL' run 'i2cget -y -f 2 0x4b 0x10'
XMKYFQCEWL0x30
XMKYFQCEWL 0
root@arm:~# echo 'FCGK''UGJWHQ'
FCGKUGJWHQ
root@arm:~# MARKER='SPEY''YKLFZV' run 'echo 1190000 1190000 > /sys/kernel/mva_tesst/regulators/buck2_set'
SPEYYKLFZVSPEYYKLFZV 0
root@arm:~# echo 'SWMF''ZLLTYH'
SWMFZLLTYH
root@arm:~# MARKER='ZAVF''JLPYKT' run 'i2cget -y -f 2 0x4b 0x10'
ZAVFJLPYKT0x31
ZAVFJLPYKT 0
root@arm:~# echo 'GAVY''JCSLSM'
GAVYJCSLSM
root@arm:~# MARKER='XTGH''UTMJXW' run 'echo 1200000 1200000 > /sys/kernel/mva_tesst/regulators/buck2_set'
XTGHUTMJXWXTGHUTMJXW 0
root@arm:~# echo 'OYFP''MTCOYQ'
OYFPMTCOYQ
root@arm:~# MARKER='XLLY''XCFJAX' run 'i2cget -y -f 2 0x4b 0x10'
XLLYXCFJAX0x32
XLLYXCFJAX 0
root@arm:~# echo 'LYFM''PEVZVE'
LYFMPEVZVE
root@arm:~# MARKER='SANU''AXSOJZ' run 'echo 1210000 1210000 > /sys/kernel/mva_tesst/regulators/buck2_set'
SANUAXSOJZSANUAXSOJZ 0
root@arm:~# echo 'YLUK''UCNMYM'
YLUKUCNMYM
root@arm:~# MARKER='XPNQ''FMUAEA' run 'i2cget -y -f 2 0x4b 0x10'
XPNQFMUAEA0x33
XPNQFMUAEA 0
root@arm:~# echo 'OJWV''TAUGLC'
OJWVTAUGLC
root@arm:~# MARKER='WSMB''XTQNEU' run 'echo 1220000 1220000 > /sys/kernel/mva_tesst/regulators/buck2_set'
WSMBXTQNEUWSMBXTQNEU 0
root@arm:~# echo 'OAJH''OPCOCY'
OAJHOPCOCY
root@arm:~# MARKER='KTJK''NZCGGF' run 'i2cget -y -f 2 0x4b 0x10'
KTJKNZCGGF0x34
KTJKNZCGGF 0
root@arm:~# echo 'WJTG''BPYYGH'
WJTGBPYYGH
root@arm:~# MARKER='UKMN''ZUPFBQ' run 'echo 1230000 1230000 > /sys/kernel/mva_tesst/regulators/buck2_set'
UKMNZUPFBQUKMNZUPFBQ 0
root@arm:~# echo 'MVJP''JAQZAY'
MVJPJAQZAY
root@arm:~# MARKER='BUYU''CFVLKH' run 'i2cget -y -f 2 0x4b 0x10'
BUYUCFVLKH0x35
BUYUCFVLKH 0
root@arm:~# echo 'YKBH''WJWMGK'
YKBHWJWMGK
root@arm:~# MARKER='GPTZ''NAAGOF' run 'echo 1240000 1240000 > /sys/kernel/mva_tesst/regulators/buck2_set'
GPTZNAAGOFGPTZNAAGOF 0
root@arm:~# echo 'JSPO''EOSCAF'
JSPOEOSCAF
root@arm:~# MARKER='OUTG''QGOGAP' run 'i2cget -y -f 2 0x4b 0x10'
OUTGQGOGAP0x36
OUTGQGOGAP 0
root@arm:~# echo 'JHEH''JENKEV'
JHEHJENKEV
root@arm:~# MARKER='PQSO''ONJZXM' run 'echo 1250000 1250000 > /sys/kernel/mva_tesst/regulators/buck2_set'
PQSOONJZXMPQSOONJZXM 0
root@arm:~# echo 'NCKO''CVCHLC'
NCKOCVCHLC
root@arm:~# MARKER='ECWC''CUVBAK' run 'i2cget -y -f 2 0x4b 0x10'
ECWCCUVBAK0x37
ECWCCUVBAK 0
root@arm:~# echo 'MFHW''CQPZHA'
MFHWCQPZHA
root@arm:~# MARKER='FFVY''OVKZNC' run 'echo 1260000 1260000 > /sys/kernel/mva_tesst/regulators/buck2_set'
FFVYOVKZNCFFVYOVKZNC 0
root@arm:~# echo 'YWBC''JPWLSA'
YWBCJPWLSA
root@arm:~# MARKER='PXLJ''CVXUNS' run 'i2cget -y -f 2 0x4b 0x10'
PXLJCVXUNS0x38
PXLJCVXUNS 0
root@arm:~# echo 'AVQM''OLBLKH'
AVQMOLBLKH
root@arm:~# MARKER='QGEZ''HHOHQW' run 'echo 1270000 1270000 > /sys/kernel/mva_tesst/regulators/buck2_set'
QGEZHHOHQWQGEZHHOHQW 0
root@arm:~# echo 'JWEY''VCQPPE'
JWEYVCQPPE
root@arm:~# MARKER='FQBO''WHGWHV' run 'i2cget -y -f 2 0x4b 0x10'
FQBOWHGWHV0x39
FQBOWHGWHV 0
root@arm:~# echo 'AVJO''VWJNXH'
AVJOVWJNXH
root@arm:~# MARKER='GGVP''GVLOEH' run 'echo 1280000 1280000 > /sys/kernel/mva_tesst/regulators/buck2_set'
GGVPGVLOEHGGVPGVLOEH 0
root@arm:~# echo 'GKSY''SANLZG'
GKSYSANLZG
root@arm:~# MARKER='HVPQ''UGEVYE' run 'i2cget -y -f 2 0x4b 0x10'
HVPQUGEVYE0x3a
HVPQUGEVYE 0
root@arm:~# echo 'FOZU''BCPPXQ'
FOZUBCPPXQ
root@arm:~# MARKER='QXZL''ESMPLK' run 'echo 1290000 1290000 > /sys/kernel/mva_tesst/regulators/buck2_set'
QXZLESMPLKQXZLESMPLK 0
root@arm:~# echo 'UGGG''FVHMFE'
UGGGFVHMFE
root@arm:~# MARKER='ZFAS''UBWYVL' run 'i2cget -y -f 2 0x4b 0x10'
ZFASUBWYVL0x3b
ZFASUBWYVL 0
root@arm:~# echo 'FPWE''GKJAEY'
FPWEGKJAEY
root@arm:~# MARKER='HZGP''YCXJSP' run 'echo 1300000 1300000 > /sys/kernel/mva_tesst/regulators/buck2_set'
HZGPYCXJSPHZGPYCXJSP 0
root@arm:~# echo 'ZBUK''OBTNJQ'
ZBUKOBTNJQ
root@arm:~# MARKER='OMBU''QTZJPE' run 'i2cget -y -f 2 0x4b 0x10'
OMBUQTZJPE0x3c
OMBUQTZJPE 0
root@arm:~# echo 'FSGX''OWNMKL'
FSGXOWNMKL
root@arm:~# MARKER='ZLYY''HGMMSW' run 'grep -r -l rohm,bd71837 /proc/device-tree  | sed '"'"'s![^/]*$!!'"'"''
ZLYYHGMMSW/proc/device-tree/ocp/interconnect@48000000/segment@100000/target-module@9c000/i2c@0/pmic@4b/
ZLYYHGMMSW 0
root@arm:~# echo 'ATEN''FFPPFK'
ATENFFPPFK
root@arm:~# MARKER='BFWE''CCGGTT' run 'test -f /proc/device-tree/ocp/interconnectt\@48000000/segment\@100000/target-module\@9c000/i2c\@0/pmic\@4b/regulators/BUCK 3/rohm,no-regulator-enable-control ;echo $?'
BFWECCGGTT0
BFWECCGGTT 0
root@arm:~# echo 'TFCG''JCSBNN'
TFCGJCSBNN
root@arm:~# MARKER='OTUZ''QEHMWH' run 'echo 700000 700000 > /sys/kernel/mva_test//regulators/buck3_set'
OTUZQEHMWHOTUZQEHMWH 0
root@arm:~# echo 'EVQX''NEQKQA'
EVQXNEQKQA
root@arm:~# MARKER='YLZF''OPXUBN' run 'i2cget -y -f 2 0x4b 0x12'
YLZFOPXUBN0x00
YLZFOPXUBN 0
root@arm:~# echo 'THWQ''KCXPVF'
THWQKCXPVF
root@arm:~# MARKER='VUJC''VUHVES' run 'echo 710000 710000 > /sys/kernel/mva_test//regulators/buck3_set'
VUJCVUHVESVUJCVUHVES 0
root@arm:~# echo 'NCES''OJGHVJ'
NCESOJGHVJ
root@arm:~# MARKER='OVZJ''BTGLYK' run 'i2cget -y -f 2 0x4b 0x12'
OVZJBTGLYK0x01
OVZJBTGLYK 0
root@arm:~# echo 'UCLH''TWWVKM'
UCLHTWWVKM
root@arm:~# MARKER='QKAZ''BWBJYX' run 'echo 720000 720000 > /sys/kernel/mva_test//regulators/buck3_set'
QKAZBWBJYXQKAZBWBJYX 0
root@arm:~# echo 'FYJK''YLKJFO'
FYJKYLKJFO
root@arm:~# MARKER='QUAV''ZSEWKV' run 'i2cget -y -f 2 0x4b 0x12'
QUAVZSEWKV0x02
QUAVZSEWKV 0
root@arm:~# echo 'VSKZ''JTXYLZ'
VSKZJTXYLZ
root@arm:~# MARKER='TLZA''NVMVCA' run 'echo 730000 730000 > /sys/kernel/mva_test//regulators/buck3_set'
TLZANVMVCATLZANVMVCA 0
root@arm:~# echo 'JHNS''KSOOEW'
JHNSKSOOEW
root@arm:~# MARKER='BWVG''TZHXGK' run 'i2cget -y -f 2 0x4b 0x12'
BWVGTZHXGK0x03
BWVGTZHXGK 0
root@arm:~# echo 'GJPU''OTMHTK'
GJPUOTMHTK
root@arm:~# MARKER='CGAL''OSYTZN' run 'echo 740000 740000 > /sys/kernel/mva_test//regulators/buck3_set'
CGALOSYTZNCGALOSYTZN 0
root@arm:~# echo 'MKBG''OOUTNQ'
MKBGOOUTNQ
root@arm:~# MARKER='CPTM''ZZQMLA' run 'i2cget -y -f 2 0x4b 0x12'
CPTMZZQMLA0x04
CPTMZZQMLA 0
root@arm:~# echo 'JVAM''OVFWUC'
JVAMOVFWUC
root@arm:~# MARKER='MKCA''PSFQOL' run 'echo 750000 750000 > /sys/kernel/mva_test//regulators/buck3_set'
MKCAPSFQOLMKCAPSFQOL 0
root@arm:~# echo 'QPVA''YCSTZE'
QPVAYCSTZE
root@arm:~# MARKER='FQLW''SHJCZY' run 'i2cget -y -f 2 0x4b 0x12'
FQLWSHJCZY0x05
FQLWSHJCZY 0
root@arm:~# echo 'XTKL''WCZCLB'
XTKLWCZCLB
root@arm:~# MARKER='HEPJ''YBAUMF' run 'echo 760000 760000 > /sys/kernel/mva_test//regulators/buck3_set'
HEPJYBAUMFHEPJYBAUMF 0
root@arm:~# echo 'TOAE''CEXUFA'
TOAECEXUFA
root@arm:~# MARKER='HAOH''JSXMQJ' run 'i2cget -y -f 2 0x4b 0x12'
HAOHJSXMQJ0x06
HAOHJSXMQJ 0
root@arm:~# echo 'UOAW''CCTTOW'
UOAWCCTTOW
root@arm:~# MARKER='ZXKP''XWXUZO' run 'echo 770000 770000 > /sys/kernel/mva_test//regulators/buck3_set'
ZXKPXWXUZOZXKPXWXUZO 0
root@arm:~# echo 'QKLM''QUGKKM'
QKLMQUGKKM
root@arm:~# MARKER='BNQE''TLZAJV' run 'i2cget -y -f 2 0x4b 0x12'
BNQETLZAJV0x07
BNQETLZAJV 0
root@arm:~# echo 'FGPT''QWGSGQ'
FGPTQWGSGQ
root@arm:~# MARKER='PGJO''MEFBNF' run 'echo 780000 780000 > /sys/kernel/mva_test//regulators/buck3_set'
PGJOMEFBNFPGJOMEFBNF 0
root@arm:~# echo 'JUYT''YHWLKV'
JUYTYHWLKV
root@arm:~# MARKER='KQXZ''LJQZUL' run 'i2cget -y -f 2 0x4b 0x12'
KQXZLJQZUL0x08
KQXZLJQZUL 0
root@arm:~# echo 'EOHX''MNQMCM'
EOHXMNQMCM
root@arm:~# MARKER='KMNP''LSYTWH' run 'echo 790000 790000 > /sys/kernel/mva_test//regulators/buck3_set'
KMNPLSYTWHKMNPLSYTWH 0
root@arm:~# echo 'GHWL''UZYWPJ'
GHWLUZYWPJ
root@arm:~# MARKER='KKHQ''JTUBFX' run 'i2cget -y -f 2 0x4b 0x12'
KKHQJTUBFX0x09
KKHQJTUBFX 0
root@arm:~# echo 'FHJG''SHAUZX'
FHJGSHAUZX
root@arm:~# MARKER='TKEH''TYTNEY' run 'echo 800000 800000 > /sys/kernel/mva_test//regulators/buck3_set'
TKEHTYTNEYTKEHTYTNEY 0
root@arm:~# echo 'OJQT''XFZEOG'
OJQTXFZEOG
root@arm:~# MARKER='SKQB''NUZVSA' run 'i2cget -y -f 2 0x4b 0x12'
SKQBNUZVSA0x0a
SKQBNUZVSA 0
root@arm:~# echo 'FUZB''ABZGON'
FUZBABZGON
root@arm:~# MARKER='WNJA''VXZJKY' run 'echo 810000 810000 > /sys/kernel/mva_test//regulators/buck3_set'
WNJAVXZJKYWNJAVXZJKY 0
root@arm:~# echo 'CTWN''EVWSGM'
CTWNEVWSGM
root@arm:~# MARKER='GGSB''VEVJBP' run 'i2cget -y -f 2 0x4b 0x12'
GGSBVEVJBP0x0b
GGSBVEVJBP 0
root@arm:~# echo 'UHKH''HJYGKZ'
UHKHHJYGKZ
root@arm:~# MARKER='PSQX''ZKWGFN' run 'echo 820000 820000 > /sys/kernel/mva_test//regulators/buck3_set'
PSQXZKWGFNPSQXZKWGFN 0
root@arm:~# echo 'QMFW''UFPEUX'
QMFWUFPEUX
root@arm:~# MARKER='BYSM''HTAAZY' run 'i2cget -y -f 2 0x4b 0x12'
BYSMHTAAZY0x0c
BYSMHTAAZY 0
root@arm:~# echo 'OGOY''OGSTFG'
OGOYOGSTFG
root@arm:~# MARKER='VAXX''AGWMPC' run 'echo 830000 830000 > /sys/kernel/mva_test//regulators/buck3_set'
VAXXAGWMPCVAXXAGWMPC 0
root@arm:~# echo 'VWYH''ZAGZSH'
VWYHZAGZSH
root@arm:~# MARKER='JBBL''XAXXCP' run 'i2cget -y -f 2 0x4b 0x12'
JBBLXAXXCP0x0d
JBBLXAXXCP 0
root@arm:~# echo 'PQZN''NHSSGG'
PQZNNHSSGG
root@arm:~# MARKER='CQWY''NKGUNM' run 'echo 840000 840000 > /sys/kernel/mva_test//regulators/buck3_set'
CQWYNKGUNMCQWYNKGUNM 0
root@arm:~# echo 'JBYQ''GNZWJE'
JBYQGNZWJE
root@arm:~# MARKER='CQJN''WQLKPS' run 'i2cget -y -f 2 0x4b 0x12'
CQJNWQLKPS0x0e
CQJNWQLKPS 0
root@arm:~# echo 'MJKC''XJKMON'
MJKCXJKMON
root@arm:~# MARKER='GWXL''VUGGNA' run 'echo 850000 850000 > /sys/kernel/mva_test//regulators/buck3_set'
GWXLVUGGNAGWXLVUGGNA 0
root@arm:~# echo 'VNLG''ZLXTXG'
VNLGZLXTXG
root@arm:~# MARKER='LMSF''VTOGXB' run 'i2cget -y -f 2 0x4b 0x12'
LMSFVTOGXB0x0f
LMSFVTOGXB 0
root@arm:~# echo 'WOWA''QTACYZ'
WOWAQTACYZ
root@arm:~# MARKER='JYOQ''FMYNWS' run 'echo 860000 860000 > /sys/kernel/mva_test//regulators/buck3_set'
JYOQFMYNWSJYOQFMYNWS 0
root@arm:~# echo 'NCHM''USOMTL'
NCHMUSOMTL
root@arm:~# MARKER='CONJ''ZZTPZL' run 'i2cget -y -f 2 0x4b 0x12'
CONJZZTPZL0x10
CONJZZTPZL 0
root@arm:~# echo 'FFMX''FZCVYA'
FFMXFZCVYA
root@arm:~# MARKER='KFNV''TAACCV' run 'echo 870000 870000 > /sys/kernel/mva_test//regulators/buck3_set'
KFNVTAACCVKFNVTAACCV 0
root@arm:~# echo 'TGWO''LOOTGS'
TGWOLOOTGS
root@arm:~# MARKER='KVSJ''FZSZHJ' run 'i2cget -y -f 2 0x4b 0x12'
KVSJFZSZHJ0x11
KVSJFZSZHJ 0
root@arm:~# echo 'JQQC''MTQVUC'
JQQCMTQVUC
root@arm:~# MARKER='UBJX''LCKJMQ' run 'echo 880000 880000 > /sys/kernel/mva_test//regulators/buck3_set'
UBJXLCKJMQUBJXLCKJMQ 0
root@arm:~# echo 'VMFC''MBBHQY'
VMFCMBBHQY
root@arm:~# MARKER='HCAZ''YLQSJU' run 'i2cget -y -f 2 0x4b 0x12'
HCAZYLQSJU0x12
HCAZYLQSJU 0
root@arm:~# echo 'ONEO''CCWTBU'
ONEOCCWTBU
root@arm:~# MARKER='LFQL''UGCJPS' run 'echo 890000 890000 > /sys/kernel/mva_test//regulators/buck3_set'
LFQLUGCJPSLFQLUGCJPS 0
root@arm:~# echo 'QLJS''KWVHBB'
QLJSKWVHBB
root@arm:~# MARKER='AMOO''NUVAWN' run 'i2cget -y -f 2 0x4b 0x12'
AMOONUVAWN0x13
AMOONUVAWN 0
root@arm:~# echo 'FYKZ''HCYNWQ'
FYKZHCYNWQ
root@arm:~# MARKER='JQAE''KPCOAE' run 'echo 900000 900000 > /sys/kernel/mva_test//regulators/buck3_set'
JQAEKPCOAEJQAEKPCOAE 0
root@arm:~# echo 'VLOK''PKAMSP'
VLOKPKAMSP
root@arm:~# MARKER='HYYG''UAESOG' run 'i2cget -y -f 2 0x4b 0x12'
HYYGUAESOG0x14
HYYGUAESOG 0
root@arm:~# echo 'LEPC''SCHEHU'
LEPCSCHEHU
root@arm:~# MARKER='WFTW''LNGVSS' run 'echo 910000 910000 > /sys/kernel/mva_test//regulators/buck3_set'
WFTWLNGVSSWFTWLNGVSS 0
root@arm:~# echo 'TAGQ''WKOEEF'
TAGQWKOEEF
root@arm:~# MARKER='CAWE''KJMTCJ' run 'i2cget -y -f 2 0x4b 0x12'
CAWEKJMTCJ0x15
CAWEKJMTCJ 0
root@arm:~# echo 'EWGQ''HPCZVY'
EWGQHPCZVY
root@arm:~# MARKER='TFKJ''MQMBEY' run 'echo 920000 920000 > /sys/kernel/mva_test//regulators/buck3_set'
TFKJMQMBEYTFKJMQMBEY 0
root@arm:~# echo 'HLYV''GUHHQV'
HLYVGUHHQV
root@arm:~# MARKER='QYTN''CEHJSO' run 'i2cget -y -f 2 0x4b 0x12'
QYTNCEHJSO0x16
QYTNCEHJSO 0
root@arm:~# echo 'PHSZ''LSFXVJ'
PHSZLSFXVJ
root@arm:~# MARKER='ABCC''WOOKUH' run 'echo 930000 930000 > /sys/kernel/mva_test//regulators/buck3_set'
ABCCWOOKUHABCCWOOKUH 0
root@arm:~# echo 'JBCN''FBNLHU'
JBCNFBNLHU
root@arm:~# MARKER='NQSA''CJHUBN' run 'i2cget -y -f 2 0x4b 0x12'
NQSACJHUBN0x17
NQSACJHUBN 0
root@arm:~# echo 'TVZJ''JVTGAM'
TVZJJVTGAM
root@arm:~# MARKER='MQYZ''FCEEBX' run 'echo 940000 940000 > /sys/kernel/mva_test//regulators/buck3_set'
MQYZFCEEBXMQYZFCEEBX 0
root@arm:~# echo 'MOHS''OSFFGM'
MOHSOSFFGM
root@arm:~# MARKER='TFWJ''LAZVZP' run 'i2cget -y -f 2 0x4b 0x12'
TFWJLAZVZP0x18
TFWJLAZVZP 0
root@arm:~# echo 'VKQQ''ENQXUF'
VKQQENQXUF
root@arm:~# MARKER='KGLQ''QGBHPA' run 'echo 950000 950000 > /sys/kernel/mva_test//regulators/buck3_set'
KGLQQGBHPAKGLQQGBHPA 0
root@arm:~# echo 'BEGJ''SMGGCH'
BEGJSMGGCH
root@arm:~# MARKER='PYSX''VFPBAH' run 'i2cget -y -f 2 0x4b 0x12'
PYSXVFPBAH0x19
PYSXVFPBAH 0
root@arm:~# echo 'CBNZ''NWAVPT'
CBNZNWAVPT
root@arm:~# MARKER='PLXU''ZPMTKN' run 'echo 960000 960000 > /sys/kernel/mva_test//regulators/buck3_set'
PLXUZPMTKNPLXUZPMTKN 0
root@arm:~# echo 'BPHJ''LGEKZV'
BPHJLGEKZV
root@arm:~# MARKER='KXSL''PEHHWE' run 'i2cget -y -f 2 0x4b 0x12'
KXSLPEHHWE0x1a
KXSLPEHHWE 0
root@arm:~# echo 'WGEV''YGVGYY'
WGEVYGVGYY
root@arm:~# MARKER='SVJG''LYGYFH' run 'echo 970000 970000 > /sys/kernel/mva_test//regulators/buck3_set'
SVJGLYGYFHSVJGLYGYFH 0
root@arm:~# echo 'AZHK''SSNLTJ'
AZHKSSNLTJ
root@arm:~# MARKER='VEKE''SFHSFX' run 'i2cget -y -f 2 0x4b 0x12'
VEKESFHSFX0x1b
VEKESFHSFX 0
root@arm:~# echo 'OVUZ''TJGJWB'
OVUZTJGJWB
root@arm:~# MARKER='WZCT''PXNAFM' run 'echo 980000 980000 > /sys/kernel/mva_test//regulators/buck3_set'
WZCTPXNAFMWZCTPXNAFM 0
root@arm:~# echo 'MJQF''LUSUTG'
MJQFLUSUTG
root@arm:~# MARKER='ZWNH''XXZMNZ' run 'i2cget -y -f 2 0x4b 0x12'
ZWNHXXZMNZ0x1c
ZWNHXXZMNZ 0
root@arm:~# echo 'EAAU''YAQLPC'
EAAUYAQLPC
root@arm:~# MARKER='LQAQ''WQLBEA' run 'echo 990000 990000 > /sys/kernel/mva_test//regulators/buck3_set'
LQAQWQLBEALQAQWQLBEA 0
root@arm:~# echo 'TTNH''GHTNTH'
TTNHGHTNTH
root@arm:~# MARKER='NMVC''GJJLQT' run 'i2cget -y -f 2 0x4b 0x12'
NMVCGJJLQT0x1d
NMVCGJJLQT 0
root@arm:~# echo 'PUBP''ECWVEH'
PUBPECWVEH
root@arm:~# MARKER='UWMW''TXXCGN' run 'echo 1000000 1000000 > /sys/kernel/mva_tesst/regulators/buck3_set'
UWMWTXXCGNUWMWTXXCGN 0
root@arm:~# echo 'XTAJ''NQFHNA'
XTAJNQFHNA
root@arm:~# MARKER='FMYN''AGKSXB' run 'i2cget -y -f 2 0x4b 0x12'
FMYNAGKSXB0x1e
FMYNAGKSXB 0
root@arm:~# echo 'XFBA''UWANJZ'
XFBAUWANJZ
root@arm:~# MARKER='ABNA''CMYQZF' run 'echo 1010000 1010000 > /sys/kernel/mva_tesst/regulators/buck3_set'
ABNACMYQZFABNACMYQZF 0
root@arm:~# echo 'GJZL''ETZEZM'
GJZLETZEZM
root@arm:~# MARKER='ATHY''CPNCSU' run 'i2cget -y -f 2 0x4b 0x12'
ATHYCPNCSU0x1f
ATHYCPNCSU 0
root@arm:~# echo 'GZVN''KWXLLQ'
GZVNKWXLLQ
root@arm:~# MARKER='ACOV''GFTZGA' run 'echo 1020000 1020000 > /sys/kernel/mva_tesst/regulators/buck3_set'
ACOVGFTZGAACOVGFTZGA 0
root@arm:~# echo 'KZTE''JOMKHV'
KZTEJOMKHV
root@arm:~# MARKER='XWTO''NKGUGW' run 'i2cget -y -f 2 0x4b 0x12'
XWTONKGUGW0x20
XWTONKGUGW 0
root@arm:~# echo 'COET''PEFSCL'
COETPEFSCL
root@arm:~# MARKER='NCMY''GLPPMW' run 'echo 1030000 1030000 > /sys/kernel/mva_tesst/regulators/buck3_set'
NCMYGLPPMWNCMYGLPPMW 0
root@arm:~# echo 'FAGB''EGJQXN'
FAGBEGJQXN
root@arm:~# MARKER='MKBB''AGBSZX' run 'i2cget -y -f 2 0x4b 0x12'
MKBBAGBSZX0x21
MKBBAGBSZX 0
root@arm:~# echo 'NLZX''VSBBYQ'
NLZXVSBBYQ
root@arm:~# MARKER='SHWB''HLOZJV' run 'echo 1040000 1040000 > /sys/kernel/mva_tesst/regulators/buck3_set'
SHWBHLOZJVSHWBHLOZJV 0
root@arm:~# echo 'MVZB''QHVKHV'
MVZBQHVKHV
root@arm:~# MARKER='YVNO''ZPQOFC' run 'i2cget -y -f 2 0x4b 0x12'
YVNOZPQOFC0x22
YVNOZPQOFC 0
root@arm:~# echo 'NLEJ''MQPOJG'
NLEJMQPOJG
root@arm:~# MARKER='AGCL''ZCHWWK' run 'echo 1050000 1050000 > /sys/kernel/mva_tesst/regulators/buck3_set'
AGCLZCHWWKAGCLZCHWWK 0
root@arm:~# echo 'ULOW''HBJGVG'
ULOWHBJGVG
root@arm:~# MARKER='MZAK''KXYJAN' run 'i2cget -y -f 2 0x4b 0x12'
MZAKKXYJAN0x23
MZAKKXYJAN 0
root@arm:~# echo 'VOUV''AOQLQO'
VOUVAOQLQO
root@arm:~# MARKER='EXTN''EOUXPK' run 'echo 1060000 1060000 > /sys/kernel/mva_tesst/regulators/buck3_set'
EXTNEOUXPKEXTNEOUXPK 0
root@arm:~# echo 'SSMM''NXKJXY'
SSMMNXKJXY
root@arm:~# MARKER='OBUY''MKQEOX' run 'i2cget -y -f 2 0x4b 0x12'
OBUYMKQEOX0x24
OBUYMKQEOX 0
root@arm:~# echo 'UMYE''QZQWNP'
UMYEQZQWNP
root@arm:~# MARKER='MCUW''AWTZMB' run 'echo 1070000 1070000 > /sys/kernel/mva_tesst/regulators/buck3_set'
MCUWAWTZMBMCUWAWTZMB 0
root@arm:~# echo 'VPGQ''AZTBUQ'
VPGQAZTBUQ
root@arm:~# MARKER='LPBX''AUPSGP' run 'i2cget -y -f 2 0x4b 0x12'
LPBXAUPSGP0x25
LPBXAUPSGP 0
root@arm:~# echo 'VBFW''JEZMXE'
VBFWJEZMXE
root@arm:~# MARKER='QZGF''ZNHLNX' run 'echo 1080000 1080000 > /sys/kernel/mva_tesst/regulators/buck3_set'
QZGFZNHLNXQZGFZNHLNX 0
root@arm:~# echo 'ZEGK''TCNBGU'
ZEGKTCNBGU
root@arm:~# MARKER='VXSW''ZVSYNF' run 'i2cget -y -f 2 0x4b 0x12'
VXSWZVSYNF0x26
VXSWZVSYNF 0
root@arm:~# echo 'OEMF''PTNSCX'
OEMFPTNSCX
root@arm:~# MARKER='GOMS''GXCWLL' run 'echo 1090000 1090000 > /sys/kernel/mva_tesst/regulators/buck3_set'
GOMSGXCWLLGOMSGXCWLL 0
root@arm:~# echo 'QQAQ''ELWLCY'
QQAQELWLCY
root@arm:~# MARKER='OMZN''PBCXJC' run 'i2cget -y -f 2 0x4b 0x12'
OMZNPBCXJC0x27
OMZNPBCXJC 0
root@arm:~# echo 'HQUW''AXEQBC'
HQUWAXEQBC
root@arm:~# MARKER='YBZP''ZKTZGP' run 'echo 1100000 1100000 > /sys/kernel/mva_tesst/regulators/buck3_set'
YBZPZKTZGPYBZPZKTZGP 0
root@arm:~# echo 'BXVL''SYFHHA'
BXVLSYFHHA
root@arm:~# MARKER='UCTJ''YPLSLE' run 'i2cget -y -f 2 0x4b 0x12'
UCTJYPLSLE0x28
UCTJYPLSLE 0
root@arm:~# echo 'MYZF''NQGOEE'
MYZFNQGOEE
root@arm:~# MARKER='MYSH''OYVPZN' run 'echo 1110000 1110000 > /sys/kernel/mva_tesst/regulators/buck3_set'
MYSHOYVPZNMYSHOYVPZN 0
root@arm:~# echo 'EZSN''PQUWGV'
EZSNPQUWGV
root@arm:~# MARKER='ESFT''FJQOSO' run 'i2cget -y -f 2 0x4b 0x12'
ESFTFJQOSO0x29
ESFTFJQOSO 0
root@arm:~# echo 'EZFH''HMUJMK'
EZFHHMUJMK
root@arm:~# MARKER='EHEY''AMEPZV' run 'echo 1120000 1120000 > /sys/kernel/mva_tesst/regulators/buck3_set'
EHEYAMEPZVEHEYAMEPZV 0
root@arm:~# echo 'KVHT''CYNVCQ'
KVHTCYNVCQ
root@arm:~# MARKER='WYLX''OVQFKF' run 'i2cget -y -f 2 0x4b 0x12'
WYLXOVQFKF0x2a
WYLXOVQFKF 0
root@arm:~# echo 'CUSK''KYVQNS'
CUSKKYVQNS
root@arm:~# MARKER='LATU''WFXLMP' run 'echo 1130000 1130000 > /sys/kernel/mva_tesst/regulators/buck3_set'
LATUWFXLMPLATUWFXLMP 0
root@arm:~# echo 'USHZ''TCPTCW'
USHZTCPTCW
root@arm:~# MARKER='OCCP''QQNEUM' run 'i2cget -y -f 2 0x4b 0x12'
OCCPQQNEUM0x2b
OCCPQQNEUM 0
root@arm:~# echo 'PZBC''AYABVK'
PZBCAYABVK
root@arm:~# MARKER='ASOH''KOGBCT' run 'echo 1140000 1140000 > /sys/kernel/mva_tesst/regulators/buck3_set'
ASOHKOGBCTASOHKOGBCT 0
root@arm:~# echo 'NWGK''TTZQHA'
NWGKTTZQHA
root@arm:~# MARKER='WHHT''OQTSYT' run 'i2cget -y -f 2 0x4b 0x12'
WHHTOQTSYT0x2c
WHHTOQTSYT 0
root@arm:~# echo 'QHMO''GMUHMU'
QHMOGMUHMU
root@arm:~# MARKER='ZCAQ''QAZATO' run 'echo 1150000 1150000 > /sys/kernel/mva_tesst/regulators/buck3_set'
ZCAQQAZATOZCAQQAZATO 0
root@arm:~# echo 'XAGT''YVKWCL'
XAGTYVKWCL
root@arm:~# MARKER='MLQJ''MXVSSW' run 'i2cget -y -f 2 0x4b 0x12'
MLQJMXVSSW0x2d
MLQJMXVSSW 0
root@arm:~# echo 'PSAZ''AZOZGY'
PSAZAZOZGY
root@arm:~# MARKER='MUNG''OAFACB' run 'echo 1160000 1160000 > /sys/kernel/mva_tesst/regulators/buck3_set'
MUNGOAFACBMUNGOAFACB 0
root@arm:~# echo 'QXLX''KFFVAN'
QXLXKFFVAN
root@arm:~# MARKER='YOAO''TMZLUC' run 'i2cget -y -f 2 0x4b 0x12'
YOAOTMZLUC0x2e
YOAOTMZLUC 0
root@arm:~# echo 'WXCW''FQJLLO'
WXCWFQJLLO
root@arm:~# MARKER='CMVP''JPXETB' run 'echo 1170000 1170000 > /sys/kernel/mva_tesst/regulators/buck3_set'
CMVPJPXETBCMVPJPXETB 0
root@arm:~# echo 'KEPX''OWYBOE'
KEPXOWYBOE
root@arm:~# MARKER='OHSS''YSSYKS' run 'i2cget -y -f 2 0x4b 0x12'
OHSSYSSYKS0x2f
OHSSYSSYKS 0
root@arm:~# echo 'NLUJ''TNAWHC'
NLUJTNAWHC
root@arm:~# MARKER='PZUJ''KMVBXM' run 'echo 1180000 1180000 > /sys/kernel/mva_tesst/regulators/buck3_set'
PZUJKMVBXMPZUJKMVBXM 0
root@arm:~# echo 'EXBY''AUGPCQ'
EXBYAUGPCQ
root@arm:~# MARKER='YCUQ''PLTOOU' run 'i2cget -y -f 2 0x4b 0x12'
YCUQPLTOOU0x30
YCUQPLTOOU 0
root@arm:~# echo 'SAKW''MOEXVE'
SAKWMOEXVE
root@arm:~# MARKER='MTME''TKGAEX' run 'echo 1190000 1190000 > /sys/kernel/mva_tesst/regulators/buck3_set'
MTMETKGAEXMTMETKGAEX 0
root@arm:~# echo 'TNFU''HMZKZT'
TNFUHMZKZT
root@arm:~# MARKER='KSXS''KSYLNZ' run 'i2cget -y -f 2 0x4b 0x12'
KSXSKSYLNZ0x31
KSXSKSYLNZ 0
root@arm:~# echo 'ZAQS''XAFXBH'
ZAQSXAFXBH
root@arm:~# MARKER='ESLX''QEWTHP' run 'echo 1200000 1200000 > /sys/kernel/mva_tesst/regulators/buck3_set'
ESLXQEWTHPESLXQEWTHP 0
root@arm:~# echo 'MHJF''AQGBUE'
MHJFAQGBUE
root@arm:~# MARKER='BBZU''XKFGYN' run 'i2cget -y -f 2 0x4b 0x12'
BBZUXKFGYN0x32
BBZUXKFGYN 0
root@arm:~# echo 'PZMN''GSWAGK'
PZMNGSWAGK
root@arm:~# MARKER='SXHA''BFCMKJ' run 'echo 1210000 1210000 > /sys/kernel/mva_tesst/regulators/buck3_set'
SXHABFCMKJSXHABFCMKJ 0
root@arm:~# echo 'KNPA''MMOCJM'
KNPAMMOCJM
root@arm:~# MARKER='QPJZ''SBOWYT' run 'i2cget -y -f 2 0x4b 0x12'
QPJZSBOWYT0x33
QPJZSBOWYT 0
root@arm:~# echo 'TXGN''LQJNEV'
TXGNLQJNEV
root@arm:~# MARKER='FWXK''LXFVMH' run 'echo 1220000 1220000 > /sys/kernel/mva_tesst/regulators/buck3_set'
FWXKLXFVMHFWXKLXFVMH 0
root@arm:~# echo 'VBJW''WYWMEM'
VBJWWYWMEM
root@arm:~# MARKER='MQGG''GNCWPA' run 'i2cget -y -f 2 0x4b 0x12'
MQGGGNCWPA0x34
MQGGGNCWPA 0
root@arm:~# echo 'TSFS''XXAAFO'
TSFSXXAAFO
root@arm:~# MARKER='TWTC''MYOOMB' run 'echo 1230000 1230000 > /sys/kernel/mva_tesst/regulators/buck3_set'
TWTCMYOOMBTWTCMYOOMB 0
root@arm:~# echo 'ZSAA''CVMCJH'
ZSAACVMCJH
root@arm:~# MARKER='EANJ''SQZPWN' run 'i2cget -y -f 2 0x4b 0x12'
EANJSQZPWN0x35
EANJSQZPWN 0
root@arm:~# echo 'CETO''GNSMTX'
CETOGNSMTX
root@arm:~# MARKER='LQMO''QTVKHQ' run 'echo 1240000 1240000 > /sys/kernel/mva_tesst/regulators/buck3_set'
LQMOQTVKHQLQMOQTVKHQ 0
root@arm:~# echo 'ENOT''SOSLOQ'
ENOTSOSLOQ
root@arm:~# MARKER='SBXV''TZXQQF' run 'i2cget -y -f 2 0x4b 0x12'
SBXVTZXQQF0x36
SBXVTZXQQF 0
root@arm:~# echo 'GHJK''XKBACJ'
GHJKXKBACJ
root@arm:~# MARKER='LLLS''QKMXGS' run 'echo 1250000 1250000 > /sys/kernel/mva_tesst/regulators/buck3_set'
LLLSQKMXGSLLLSQKMXGS 0
root@arm:~# echo 'LLWM''VWOQEE'
LLWMVWOQEE
root@arm:~# MARKER='QCPS''YWWLTY' run 'i2cget -y -f 2 0x4b 0x12'
QCPSYWWLTY0x37
QCPSYWWLTY 0
root@arm:~# echo 'XZAE''UNCMCO'
XZAEUNCMCO
root@arm:~# MARKER='OPQV''YMNSOE' run 'echo 1260000 1260000 > /sys/kernel/mva_tesst/regulators/buck3_set'
OPQVYMNSOEOPQVYMNSOE 0
root@arm:~# echo 'OOYN''KZSTMJ'
OOYNKZSTMJ
root@arm:~# MARKER='LKTY''XLTPNU' run 'i2cget -y -f 2 0x4b 0x12'
LKTYXLTPNU0x38
LKTYXLTPNU 0
root@arm:~# echo 'ZXTL''GZOMFN'
ZXTLGZOMFN
root@arm:~# MARKER='LNQX''CQTVWZ' run 'echo 1270000 1270000 > /sys/kernel/mva_tesst/regulators/buck3_set'
LNQXCQTVWZLNQXCQTVWZ 0
root@arm:~# echo 'TVWS''QGHCPQ'
TVWSQGHCPQ
root@arm:~# MARKER='GQSV''EOZFUC' run 'i2cget -y -f 2 0x4b 0x12'
GQSVEOZFUC0x39
GQSVEOZFUC 0
root@arm:~# echo 'SGAK''LZJECX'
SGAKLZJECX
root@arm:~# MARKER='HXPM''BZTPHS' run 'echo 1280000 1280000 > /sys/kernel/mva_tesst/regulators/buck3_set'
HXPMBZTPHSHXPMBZTPHS 0
root@arm:~# echo 'VPXJ''FBVCHH'
VPXJFBVCHH
root@arm:~# MARKER='GWFA''JLGOQG' run 'i2cget -y -f 2 0x4b 0x12'
GWFAJLGOQG0x3a
GWFAJLGOQG 0
root@arm:~# echo 'LELH''SXTSEE'
LELHSXTSEE
root@arm:~# MARKER='YEFG''BEPZYA' run 'echo 1290000 1290000 > /sys/kernel/mva_tesst/regulators/buck3_set'
YEFGBEPZYAYEFGBEPZYA 0
root@arm:~# echo 'TJGX''YXJAQS'
TJGXYXJAQS
root@arm:~# MARKER='YNTY''QZALQU' run 'i2cget -y -f 2 0x4b 0x12'
YNTYQZALQU0x3b
YNTYQZALQU 0
root@arm:~# echo 'AWHT''CTUGUN'
AWHTCTUGUN
root@arm:~# MARKER='UASY''MNGEAE' run 'echo 1300000 1300000 > /sys/kernel/mva_tesst/regulators/buck3_set'
UASYMNGEAEUASYMNGEAE 0
root@arm:~# echo 'ZOZL''LTTFFN'
ZOZLLTTFFN
root@arm:~# MARKER='OECF''POFZMB' run 'i2cget -y -f 2 0x4b 0x12'
OECFPOFZMB0x3c
OECFPOFZMB 0
root@arm:~# echo 'OSHB''BYUYMJ'
OSHBBYUYMJ
root@arm:~# MARKER='MONH''FVLCXS' run 'grep -r -l rohm,bd71837 /proc/device-tree  | sed '"'"'s![^/]*$!!'"'"''
MONHFVLCXS/proc/device-tree/ocp/interconnect@48000000/segment@100000/target-module@9c000/i2c@0/pmic@4b/
MONHFVLCXS 0
root@arm:~# echo 'KAVK''ZCTTAB'
KAVKZCTTAB
root@arm:~# MARKER='ZFUA''NQHQPQ' run 'test -f /proc/device-tree/ocp/interconnectt\@48000000/segment\@100000/target-module\@9c000/i2c\@0/pmic\@4b/regulators/BUCK44/rohm,no-regulator-enable-control ;echo $?'
ZFUANQHQPQ1
ZFUANQHQPQ 0
root@arm:~# echo 'UAZC''UMCOMC'
UAZCUMCOMC
root@arm:~# MARKER='VFQT''OLLEYA' run 'i2cget -y -f 2 0x4b 0x8'
VFQTOLLEYA0xc6
VFQTOLLEYA 0
root@arm:~# echo 'JJEV''JWLXMO'
JJEVJWLXMO
root@arm:~# MARKER='JQGK''WYWPUP' run 'echo 700000 700000 > /sys/kernel/mva_test//regulators/buck4_set'
JQGKWYWPUPJQGKWYWPUP 0
root@arm:~# echo 'SHFT''MPCNKY'
SHFTMPCNKY
root@arm:~# MARKER='XFOG''EFHSJU' run 'i2cget -y -f 2 0x4b 0x13'
XFOGEFHSJU0x00
XFOGEFHSJU 0
root@arm:~# echo 'UZNY''XXBKHY'
UZNYXXBKHY
root@arm:~# MARKER='PXAK''PMKOMY' run 'echo 710000 710000 > /sys/kernel/mva_test//regulators/buck4_set'
PXAKPMKOMYPXAKPMKOMY 0
root@arm:~# echo 'VQLZ''GHGUBQ'
VQLZGHGUBQ
root@arm:~# MARKER='EKNQ''OZVCLQ' run 'i2cget -y -f 2 0x4b 0x13'
EKNQOZVCLQ0x01
EKNQOZVCLQ 0
root@arm:~# echo 'XFTN''JWOMAE'
XFTNJWOMAE
root@arm:~# MARKER='JYNU''JPLBFO' run 'echo 720000 720000 > /sys/kernel/mva_test//regulators/buck4_set'
JYNUJPLBFOJYNUJPLBFO 0
root@arm:~# echo 'NFPG''NMVXLK'
NFPGNMVXLK
root@arm:~# MARKER='SWYZ''GHOOPM' run 'i2cget -y -f 2 0x4b 0x13'
SWYZGHOOPM0x02
SWYZGHOOPM 0
root@arm:~# echo 'UZAE''XZKJTY'
UZAEXZKJTY
root@arm:~# MARKER='TPGO''JUCCBF' run 'echo 730000 730000 > /sys/kernel/mva_test//regulators/buck4_set'
TPGOJUCCBFTPGOJUCCBF 0
root@arm:~# echo 'BFFU''OTNECX'
BFFUOTNECX
root@arm:~# MARKER='YEEL''BSZJPJ' run 'i2cget -y -f 2 0x4b 0x13'
YEELBSZJPJ0x03
YEELBSZJPJ 0
root@arm:~# echo 'TESA''ZFJMSP'
TESAZFJMSP
root@arm:~# MARKER='HMUW''NMZAUJ' run 'echo 740000 740000 > /sys/kernel/mva_test//regulators/buck4_set'
HMUWNMZAUJHMUWNMZAUJ 0
root@arm:~# echo 'EHVA''QNKVVY'
EHVAQNKVVY
root@arm:~# MARKER='GBZP''FLJMOM' run 'i2cget -y -f 2 0x4b 0x13'
GBZPFLJMOM0x04
GBZPFLJMOM 0
root@arm:~# echo 'SVBX''MJPCHA'
SVBXMJPCHA
root@arm:~# MARKER='JYGX''EYUCNT' run 'echo 750000 750000 > /sys/kernel/mva_test//regulators/buck4_set'
JYGXEYUCNTJYGXEYUCNT 0
root@arm:~# echo 'KKGF''NEVONK'
KKGFNEVONK
root@arm:~# MARKER='QMUH''BCKGWX' run 'i2cget -y -f 2 0x4b 0x13'
QMUHBCKGWX0x05
QMUHBCKGWX 0
root@arm:~# echo 'CQPX''CMGLQO'
CQPXCMGLQO
root@arm:~# MARKER='TJZN''NNPLXP' run 'echo 760000 760000 > /sys/kernel/mva_test//regulators/buck4_set'
TJZNNNPLXPTJZNNNPLXP 0
root@arm:~# echo 'BWYX''CCXKSV'
BWYXCCXKSV
root@arm:~# MARKER='BCAL''YPQNVZ' run 'i2cget -y -f 2 0x4b 0x13'
BCALYPQNVZ0x06
BCALYPQNVZ 0
root@arm:~# echo 'UOQZ''XMEEKB'
UOQZXMEEKB
root@arm:~# MARKER='WVMH''GHFZQV' run 'echo 770000 770000 > /sys/kernel/mva_test//regulators/buck4_set'
WVMHGHFZQVWVMHGHFZQV 0
root@arm:~# echo 'EJYN''MMHMOL'
EJYNMMHMOL
root@arm:~# MARKER='ZHVV''UQYPLT' run 'i2cget -y -f 2 0x4b 0x13'
ZHVVUQYPLT0x07
ZHVVUQYPLT 0
root@arm:~# echo 'XNPJ''UYYKOS'
XNPJUYYKOS
root@arm:~# MARKER='BJKO''MAETQC' run 'echo 780000 780000 > /sys/kernel/mva_test//regulators/buck4_set'
BJKOMAETQCBJKOMAETQC 0
root@arm:~# echo 'EZHK''UENHYJ'
EZHKUENHYJ
root@arm:~# MARKER='GHKP''USQWQX' run 'i2cget -y -f 2 0x4b 0x13'
GHKPUSQWQX0x08
GHKPUSQWQX 0
root@arm:~# echo 'TSES''FUWASY'
TSESFUWASY
root@arm:~# MARKER='UUWK''OXTETJ' run 'echo 790000 790000 > /sys/kernel/mva_test//regulators/buck4_set'
UUWKOXTETJUUWKOXTETJ 0
root@arm:~# echo 'BSWP''OXSKXT'
BSWPOXSKXT
root@arm:~# MARKER='JXAO''WPHAGK' run 'i2cget -y -f 2 0x4b 0x13'
JXAOWPHAGK0x09
JXAOWPHAGK 0
root@arm:~# echo 'YCQJ''TQPTYJ'
YCQJTQPTYJ
root@arm:~# MARKER='QLXB''CGPUBW' run 'echo 800000 800000 > /sys/kernel/mva_test//regulators/buck4_set'
QLXBCGPUBWQLXBCGPUBW 0
root@arm:~# echo 'MTVG''BUBSFL'
MTVGBUBSFL
root@arm:~# MARKER='VHLN''FCZKVH' run 'i2cget -y -f 2 0x4b 0x13'
VHLNFCZKVH0x0a
VHLNFCZKVH 0
root@arm:~# echo 'JSNZ''SXOECY'
JSNZSXOECY
root@arm:~# MARKER='WJCV''JJYMNW' run 'echo 810000 810000 > /sys/kernel/mva_test//regulators/buck4_set'
WJCVJJYMNWWJCVJJYMNW 0
root@arm:~# echo 'QQUC''TWYVQG'
QQUCTWYVQG
root@arm:~# MARKER='XZJG''ZFAYHJ' run 'i2cget -y -f 2 0x4b 0x13'
XZJGZFAYHJ0x0b
XZJGZFAYHJ 0
root@arm:~# echo 'TTUH''OGOFLC'
TTUHOGOFLC
root@arm:~# MARKER='PCBM''XCUVFE' run 'echo 820000 820000 > /sys/kernel/mva_test//regulators/buck4_set'
PCBMXCUVFEPCBMXCUVFE 0
root@arm:~# echo 'XMSW''VULHXU'
XMSWVULHXU
root@arm:~# MARKER='CGXK''XOLQCP' run 'i2cget -y -f 2 0x4b 0x13'
CGXKXOLQCP0x0c
CGXKXOLQCP 0
root@arm:~# echo 'UWMF''KWFHSH'
UWMFKWFHSH
root@arm:~# MARKER='KAQV''TEFEGP' run 'echo 830000 830000 > /sys/kernel/mva_test//regulators/buck4_set'
KAQVTEFEGPKAQVTEFEGP 0
root@arm:~# echo 'UKOY''GEZMEM'
UKOYGEZMEM
root@arm:~# MARKER='ZFVP''FHPSWH' run 'i2cget -y -f 2 0x4b 0x13'
ZFVPFHPSWH0x0d
ZFVPFHPSWH 0
root@arm:~# echo 'PKTW''FTEEOL'
PKTWFTEEOL
root@arm:~# MARKER='AEOC''KQBWGN' run 'echo 840000 840000 > /sys/kernel/mva_test//regulators/buck4_set'
AEOCKQBWGNAEOCKQBWGN 0
root@arm:~# echo 'YBSY''NOMJEY'
YBSYNOMJEY
root@arm:~# MARKER='XHXO''MOMWUN' run 'i2cget -y -f 2 0x4b 0x13'
XHXOMOMWUN0x0e
XHXOMOMWUN 0
root@arm:~# echo 'HXZB''ZHPGKS'
HXZBZHPGKS
root@arm:~# MARKER='AMZX''NZVGHH' run 'echo 850000 850000 > /sys/kernel/mva_test//regulators/buck4_set'
AMZXNZVGHHAMZXNZVGHH 0
root@arm:~# echo 'JEYH''KFHUHH'
JEYHKFHUHH
root@arm:~# MARKER='FWXE''XBTHUL' run 'i2cget -y -f 2 0x4b 0x13'
FWXEXBTHUL0x0f
FWXEXBTHUL 0
root@arm:~# echo 'WYTE''FZTZWX'
WYTEFZTZWX
root@arm:~# MARKER='OHVH''ZCPWZY' run 'echo 860000 860000 > /sys/kernel/mva_test//regulators/buck4_set'
OHVHZCPWZYOHVHZCPWZY 0
root@arm:~# echo 'TWGY''FSGZMV'
TWGYFSGZMV
root@arm:~# MARKER='YMGU''KKZBXG' run 'i2cget -y -f 2 0x4b 0x13'
YMGUKKZBXG0x10
YMGUKKZBXG 0
root@arm:~# echo 'FNAU''EGQCFC'
FNAUEGQCFC
root@arm:~# MARKER='GXPY''LBJKST' run 'echo 870000 870000 > /sys/kernel/mva_test//regulators/buck4_set'
GXPYLBJKSTGXPYLBJKST 0
root@arm:~# echo 'HCUW''XLJQAJ'
HCUWXLJQAJ
root@arm:~# MARKER='BYKE''OATKSN' run 'i2cget -y -f 2 0x4b 0x13'
BYKEOATKSN0x11
BYKEOATKSN 0
root@arm:~# echo 'UWSM''UPOPUM'
UWSMUPOPUM
root@arm:~# MARKER='PBKA''YZLFAT' run 'echo 880000 880000 > /sys/kernel/mva_test//regulators/buck4_set'
PBKAYZLFATPBKAYZLFAT 0
root@arm:~# echo 'WVHU''ZCQKCC'
WVHUZCQKCC
root@arm:~# MARKER='CSXS''ONSGSQ' run 'i2cget -y -f 2 0x4b 0x13'
CSXSONSGSQ0x12
CSXSONSGSQ 0
root@arm:~# echo 'VKQV''KFPXZW'
VKQVKFPXZW
root@arm:~# MARKER='HWHT''PQQKMN' run 'echo 890000 890000 > /sys/kernel/mva_test//regulators/buck4_set'
HWHTPQQKMNHWHTPQQKMN 0
root@arm:~# echo 'PLVA''PSEFYF'
PLVAPSEFYF
root@arm:~# MARKER='AVVH''KJUJMM' run 'i2cget -y -f 2 0x4b 0x13'
AVVHKJUJMM0x13
AVVHKJUJMM 0
root@arm:~# echo 'CMHP''CGHXHJ'
CMHPCGHXHJ
root@arm:~# MARKER='PWBC''KQQKOS' run 'echo 900000 900000 > /sys/kernel/mva_test//regulators/buck4_set'
PWBCKQQKOSPWBCKQQKOS 0
root@arm:~# echo 'CJFJ''TETCNX'
CJFJTETCNX
root@arm:~# MARKER='VYWV''TKWCPJ' run 'i2cget -y -f 2 0x4b 0x13'
VYWVTKWCPJ0x14
VYWVTKWCPJ 0
root@arm:~# echo 'HUVZ''KLAUUH'
HUVZKLAUUH
root@arm:~# MARKER='XAWG''FJKGUY' run 'echo 910000 910000 > /sys/kernel/mva_test//regulators/buck4_set'
XAWGFJKGUYXAWGFJKGUY 0
root@arm:~# echo 'GAHM''JVZFSU'
GAHMJVZFSU
root@arm:~# MARKER='VKYO''OXHEBW' run 'i2cget -y -f 2 0x4b 0x13'
VKYOOXHEBW0x15
VKYOOXHEBW 0
root@arm:~# echo 'XMMB''VLHSEF'
XMMBVLHSEF
root@arm:~# MARKER='JPLU''KAHSXP' run 'echo 920000 920000 > /sys/kernel/mva_test//regulators/buck4_set'
JPLUKAHSXPJPLUKAHSXP 0
root@arm:~# echo 'OPSF''FYNXKH'
OPSFFYNXKH
root@arm:~# MARKER='XJTF''HTZSQB' run 'i2cget -y -f 2 0x4b 0x13'
XJTFHTZSQB0x16
XJTFHTZSQB 0
root@arm:~# echo 'QPJP''XCBXMT'
QPJPXCBXMT
root@arm:~# MARKER='UBZG''WWNNOW' run 'echo 930000 930000 > /sys/kernel/mva_test//regulators/buck4_set'
UBZGWWNNOWUBZGWWNNOW 0
root@arm:~# echo 'TGNL''OXTGFZ'
TGNLOXTGFZ
root@arm:~# MARKER='MWYW''EOWFZW' run 'i2cget -y -f 2 0x4b 0x13'
MWYWEOWFZW0x17
MWYWEOWFZW 0
root@arm:~# echo 'PFPC''FMKUHS'
PFPCFMKUHS
