Labgrid Console Logfile for main
Logfile started at 2024-12-19 08:47:07.518837
=== Log starts here ===

root@arm:~# run() { echo -n "$MARKER"; sh -c "$@"; echo "$MARKER $?"; }
root@arm:~# echo 'BKQH''PPYLOE'
BKQHPPYLOE
root@arm:~# MARKER='CCUV''GBSTAQ' run 'grep -r -l rohm,bd71847 /proc/device-tree  | sed '"'"'s![^/]*$!!'"'"''
CCUVGBSTAQ/proc/device-tree/ocp/interconnect@48000000/segment@0/target-module@2a000/i2c@0/pmic@4b/
CCUVGBSTAQ 0
root@arm:~# echo 'SZJA''PMYOZY'
SZJAPMYOZY
root@arm:~# MARKER='MLGB''QUQCZN' run 'test -f /proc/device-tree/ocp/interconnectt\@48000000/segment\@0/target-module\@2a000/i2c\@0/pmic\@4b/regulators/BUCK1/rohmm,no-regulator-enable-control ;echo $?'
MLGBQUQCZN1
MLGBQUQCZN 0
root@arm:~# echo 'CVVS''JAGWTT'
CVVSJAGWTT
root@arm:~# MARKER='UAGA''PBFZVU' run 'echo 1 > /sys/kernel/mva_test/regulators/bbuck1_en'
UAGAPBFZVUUAGAPBFZVU 0
root@arm:~# echo 'OOGV''HBJWYN'
OOGVHBJWYN
root@arm:~# MARKER='NWAQ''XOUSFS' run 'i2cget -y -f 1 0x4b 0x5'
NWAQXOUSFS0x03
NWAQXOUSFS 0
root@arm:~# echo 'TVVQ''NZXELJ'
TVVQNZXELJ
root@arm:~# MARKER='NPFK''YJNETS' run 'grep -r -l rohm,bd71847 /proc/device-tree  | sed '"'"'s![^/]*$!!'"'"''
NPFKYJNETS/proc/device-tree/ocp/interconnect@48000000/segment@0/target-module@2a000/i2c@0/pmic@4b/
NPFKYJNETS 0
root@arm:~# echo 'PAPO''EEJFVY'
PAPOEEJFVY
root@arm:~# MARKER='QLCK''GYEVGH' run 'test -f /proc/device-tree/ocp/interconnectt\@48000000/segment\@0/target-module\@2a000/i2c\@0/pmic\@4b/regulators/BUCK1/rohmm,no-regulator-enable-control ;echo $?'
QLCKGYEVGH1
QLCKGYEVGH 0
root@arm:~# echo 'AMZA''GPOOAB'
AMZAGPOOAB
root@arm:~# MARKER='UBSA''VFBNYJ' run 'grep -r -l rohm,bd71847 /proc/device-tree  | sed '"'"'s![^/]*$!!'"'"''
UBSAVFBNYJ/proc/device-tree/ocp/interconnect@48000000/segment@0/target-module@2a000/i2c@0/pmic@4b/
UBSAVFBNYJ 0
root@arm:~# echo 'MZZG''YBXUOB'
MZZGYBXUOB
root@arm:~# MARKER='KWWY''UVVNFJ' run 'test -f /proc/device-tree/ocp/interconnectt\@48000000/segment\@0/target-module\@2a000/i2c\@0/pmic\@4b/regulators/BUCK1/reguulator-always-on ;echo $?'
KWWYUVVNFJ1
KWWYUVVNFJ 0
root@arm:~# echo 'ZETN''XZTXNJ'
ZETNXZTXNJ
root@arm:~# MARKER='EOKJ''EKCTWK' run 'echo 0 > /sys/kernel/mva_test/regulators/bbuck1_en'
EOKJEKCTWKEOKJEKCTWK 0
root@arm:~# echo 'OTCV''NAACSV'
OTCVNAACSV
root@arm:~# MARKER='WXAN''TBCJOQ' run 'i2cget -y -f 1 0x4b 0x5'
WXANTBCJOQ0x02
WXANTBCJOQ 0
root@arm:~# echo 'FQJG''ZCOSWG'
FQJGZCOSWG
root@arm:~# MARKER='VTGY''CGFGZW' run 'grep -r -l rohm,bd71847 /proc/device-tree  | sed '"'"'s![^/]*$!!'"'"''
VTGYCGFGZW/proc/device-tree/ocp/interconnect@48000000/segment@0/target-module@2a000/i2c@0/pmic@4b/
VTGYCGFGZW 0
root@arm:~# echo 'WTEJ''TCEVUV'
WTEJTCEVUV
root@arm:~# MARKER='NTSB''WSCCSM' run 'test -f /proc/device-tree/ocp/interconnectt\@48000000/segment\@0/target-module\@2a000/i2c\@0/pmic\@4b/regulators/BUCK2/rohmm,no-regulator-enable-control ;echo $?'
NTSBWSCCSM1
NTSBWSCCSM 0
root@arm:~# echo 'XFFT''SLMFLJ'
XFFTSLMFLJ
root@arm:~# MARKER='FPMP''NPYCGA' run 'echo 1 > /sys/kernel/mva_test/regulators/bbuck2_en'
FPMPNPYCGAFPMPNPYCGA 0
root@arm:~# echo 'MVHN''ZQOOWB'
MVHNZQOOWB
root@arm:~# MARKER='NHLH''PJQKXO' run 'i2cget -y -f 1 0x4b 0x6'
NHLHPJQKXO0x43
NHLHPJQKXO 0
root@arm:~# echo 'GMSL''FBFGKJ'
GMSLFBFGKJ
root@arm:~# MARKER='XCYM''YSVABF' run 'grep -r -l rohm,bd71847 /proc/device-tree  | sed '"'"'s![^/]*$!!'"'"''
XCYMYSVABF/proc/device-tree/ocp/interconnect@48000000/segment@0/target-module@2a000/i2c@0/pmic@4b/
XCYMYSVABF 0
root@arm:~# echo 'KKMP''AFWGPZ'
KKMPAFWGPZ
root@arm:~# MARKER='VBGA''XXGYFF' run 'test -f /proc/device-tree/ocp/interconnectt\@48000000/segment\@0/target-module\@2a000/i2c\@0/pmic\@4b/regulators/BUCK2/rohmm,no-regulator-enable-control ;echo $?'
VBGAXXGYFF1
VBGAXXGYFF 0
root@arm:~# echo 'GZCO''ZEAVAN'
GZCOZEAVAN
root@arm:~# MARKER='ZZQY''JHYLUJ' run 'grep -r -l rohm,bd71847 /proc/device-tree  | sed '"'"'s![^/]*$!!'"'"''
ZZQYJHYLUJ/proc/device-tree/ocp/interconnect@48000000/segment@0/target-module@2a000/i2c@0/pmic@4b/
ZZQYJHYLUJ 0
root@arm:~# echo 'JFKP''KENWJP'
JFKPKENWJP
root@arm:~# MARKER='GBZJ''SLBHEM' run 'test -f /proc/device-tree/ocp/interconnectt\@48000000/segment\@0/target-module\@2a000/i2c\@0/pmic\@4b/regulators/BUCK2/reguulator-always-on ;echo $?'
GBZJSLBHEM0
GBZJSLBHEM 0
root@arm:~# echo 'AOWG''SUVUHM'
AOWGSUVUHM
root@arm:~# MARKER='GCLN''KPGNUK' run 'grep -r -l rohm,bd71847 /proc/device-tree  | sed '"'"'s![^/]*$!!'"'"''
GCLNKPGNUK/proc/device-tree/ocp/interconnect@48000000/segment@0/target-module@2a000/i2c@0/pmic@4b/
GCLNKPGNUK 0
root@arm:~# echo 'QQAF''CAHPNL'
QQAFCAHPNL
root@arm:~# MARKER='SPXQ''FYPYPX' run 'test -f /proc/device-tree/ocp/interconnectt\@48000000/segment\@0/target-module\@2a000/i2c\@0/pmic\@4b/regulators/BUCK3/rohmm,no-regulator-enable-control ;echo $?'
SPXQFYPYPX0
SPXQFYPYPX 0
root@arm:~# echo 'OEKO''QGBPTL'
OEKOQGBPTL
root@arm:~# MARKER='CFVQ''UVXALB' run 'grep -r -l rohm,bd71847 /proc/device-tree  | sed '"'"'s![^/]*$!!'"'"''
CFVQUVXALB/proc/device-tree/ocp/interconnect@48000000/segment@0/target-module@2a000/i2c@0/pmic@4b/
CFVQUVXALB 0
root@arm:~# echo 'NJXC''QEUSJJ'
NJXCQEUSJJ
root@arm:~# MARKER='MXUL''QPVJHZ' run 'test -f /proc/device-tree/ocp/interconnectt\@48000000/segment\@0/target-module\@2a000/i2c\@0/pmic\@4b/regulators/BUCK3/rohmm,no-regulator-enable-control ;echo $?'
MXULQPVJHZ0
MXULQPVJHZ 0
root@arm:~# echo 'QJAW''ZKAKAH'
QJAWZKAKAH
root@arm:~# MARKER='LBBY''NMAQQH' run 'grep -r -l rohm,bd71847 /proc/device-tree  | sed '"'"'s![^/]*$!!'"'"''
LBBYNMAQQH/proc/device-tree/ocp/interconnect@48000000/segment@0/target-module@2a000/i2c@0/pmic@4b/
LBBYNMAQQH 0
root@arm:~# echo 'SLWO''XJEBEU'
SLWOXJEBEU
root@arm:~# MARKER='EYPU''HLUAYM' run 'test -f /proc/device-tree/ocp/interconnectt\@48000000/segment\@0/target-module\@2a000/i2c\@0/pmic\@4b/regulators/BUCK4/rohmm,no-regulator-enable-control ;echo $?'
EYPUHLUAYM1
EYPUHLUAYM 0
root@arm:~# echo 'UQHA''GYSEEL'
UQHAGYSEEL
root@arm:~# MARKER='NTYP''PAFFMM' run 'echo 1 > /sys/kernel/mva_test/regulators/bbuck4_en'
NTYPPAFFMMNTYPPAFFMM 0
root@arm:~# echo 'YVTE''XTTHNM'
YVTEXTTHNM
root@arm:~# MARKER='LOWU''EKCETV' run 'i2cget -y -f 1 0x4b 0xa'
LOWUEKCETV0x03
LOWUEKCETV 0
root@arm:~# echo 'GHNP''TZXZMX'
GHNPTZXZMX
root@arm:~# MARKER='GZHC''KAUUJV' run 'grep -r -l rohm,bd71847 /proc/device-tree  | sed '"'"'s![^/]*$!!'"'"''
GZHCKAUUJV/proc/device-tree/ocp/interconnect@48000000/segment@0/target-module@2a000/i2c@0/pmic@4b/
GZHCKAUUJV 0
root@arm:~# echo 'JZYJ''PHPSHF'
JZYJPHPSHF
root@arm:~# MARKER='TSOB''ZYLTEN' run 'test -f /proc/device-tree/ocp/interconnectt\@48000000/segment\@0/target-module\@2a000/i2c\@0/pmic\@4b/regulators/BUCK4/rohmm,no-regulator-enable-control ;echo $?'
TSOBZYLTEN1
TSOBZYLTEN 0
root@arm:~# echo 'UYPB''ATXYVL'
UYPBATXYVL
root@arm:~# MARKER='MQEG''LKTKFN' run 'grep -r -l rohm,bd71847 /proc/device-tree  | sed '"'"'s![^/]*$!!'"'"''
MQEGLKTKFN/proc/device-tree/ocp/interconnect@48000000/segment@0/target-module@2a000/i2c@0/pmic@4b/
MQEGLKTKFN 0
root@arm:~# echo 'OGBU''PTCWOS'
OGBUPTCWOS
root@arm:~# MARKER='TEXB''LMTWQB' run 'test -f /proc/device-tree/ocp/interconnectt\@48000000/segment\@0/target-module\@2a000/i2c\@0/pmic\@4b/regulators/BUCK4/reguulator-always-on ;echo $?'
TEXBLMTWQB1
TEXBLMTWQB 0
root@arm:~# echo 'PKWA''QXXKUN'
PKWAQXXKUN
root@arm:~# MARKER='ACBT''CCFUPT' run 'echo 0 > /sys/kernel/mva_test/regulators/bbuck4_en'
ACBTCCFUPTACBTCCFUPT 0
root@arm:~# echo 'KUCA''XGUZYJ'
KUCAXGUZYJ
root@arm:~# MARKER='BZGW''JNOLHG' run 'i2cget -y -f 1 0x4b 0xa'
BZGWJNOLHG0x02
BZGWJNOLHG 0
root@arm:~# echo 'KSUS''AKEBPJ'
KSUSAKEBPJ
root@arm:~# MARKER='QVUC''BZHAHZ' run 'grep -r -l rohm,bd71847 /proc/device-tree  | sed '"'"'s![^/]*$!!'"'"''
QVUCBZHAHZ/proc/device-tree/ocp/interconnect@48000000/segment@0/target-module@2a000/i2c@0/pmic@4b/
QVUCBZHAHZ 0
root@arm:~# echo 'ZOUJ''GXFHCK'
ZOUJGXFHCK
root@arm:~# MARKER='WZYE''PFGKCC' run 'test -f /proc/device-tree/ocp/interconnectt\@48000000/segment\@0/target-module\@2a000/i2c\@0/pmic\@4b/regulators/BUCK5/rohmm,no-regulator-enable-control ;echo $?'
WZYEPFGKCC1
WZYEPFGKCC 0
root@arm:~# echo 'LXHV''CWFMGY'
LXHVCWFMGY
root@arm:~# MARKER='EBLH''ZOLFLK' run 'echo 1 > /sys/kernel/mva_test/regulators/bbuck5_en'
EBLHZOLFLKEBLHZOLFLK 0
root@arm:~# echo 'WYSL''GZHNKM'
WYSLGZHNKM
root@arm:~# MARKER='LNZC''FNUGWY' run 'i2cget -y -f 1 0x4b 0xb'
LNZCFNUGWY0x03
LNZCFNUGWY 0
root@arm:~# echo 'HYYW''VHWGJP'
HYYWVHWGJP
root@arm:~# MARKER='FNSA''PUGQVG' run 'grep -r -l rohm,bd71847 /proc/device-tree  | sed '"'"'s![^/]*$!!'"'"''
FNSAPUGQVG/proc/device-tree/ocp/interconnect@48000000/segment@0/target-module@2a000/i2c@0/pmic@4b/
FNSAPUGQVG 0
root@arm:~# echo 'ZSYG''MVWFPA'
ZSYGMVWFPA
root@arm:~# MARKER='TQXJ''BKYBEJ' run 'test -f /proc/device-tree/ocp/interconnectt\@48000000/segment\@0/target-module\@2a000/i2c\@0/pmic\@4b/regulators/BUCK5/rohmm,no-regulator-enable-control ;echo $?'
TQXJBKYBEJ1
TQXJBKYBEJ 0
root@arm:~# echo 'ZFZM''TAMLQP'
ZFZMTAMLQP
root@arm:~# MARKER='ANUQ''KLFCAE' run 'grep -r -l rohm,bd71847 /proc/device-tree  | sed '"'"'s![^/]*$!!'"'"''
ANUQKLFCAE/proc/device-tree/ocp/interconnect@48000000/segment@0/target-module@2a000/i2c@0/pmic@4b/
ANUQKLFCAE 0
root@arm:~# echo 'MTBY''QUTUOJ'
MTBYQUTUOJ
root@arm:~# MARKER='AUSF''FUTWWK' run 'test -f /proc/device-tree/ocp/interconnectt\@48000000/segment\@0/target-module\@2a000/i2c\@0/pmic\@4b/regulators/BUCK5/reguulator-always-on ;echo $?'
AUSFFUTWWK1
AUSFFUTWWK 0
root@arm:~# echo 'ZGBG''MWSGFM'
ZGBGMWSGFM
root@arm:~# MARKER='WJPX''PUGOKH' run 'echo 0 > /sys/kernel/mva_test/regulators/bbuck5_en'
WJPXPUGOKHWJPXPUGOKH 0
root@arm:~# echo 'WFMY''NUENBN'
WFMYNUENBN
root@arm:~# MARKER='YNQH''FPZGBT' run 'i2cget -y -f 1 0x4b 0xb'
YNQHFPZGBT0x02
YNQHFPZGBT 0
root@arm:~# echo 'NSYP''HZJFGU'
NSYPHZJFGU
root@arm:~# MARKER='JTAJ''PVYEVK' run 'grep -r -l rohm,bd71847 /proc/device-tree  | sed '"'"'s![^/]*$!!'"'"''
JTAJPVYEVK/proc/device-tree/ocp/interconnect@48000000/segment@0/target-module@2a000/i2c@0/pmic@4b/
JTAJPVYEVK 0
root@arm:~# echo 'JAQP''KCZTVQ'
JAQPKCZTVQ
root@arm:~# MARKER='AWBH''THLGTC' run 'test -f /proc/device-tree/ocp/interconnectt\@48000000/segment\@0/target-module\@2a000/i2c\@0/pmic\@4b/regulators/BUCK6/rohmm,no-regulator-enable-control ;echo $?'
AWBHTHLGTC1
AWBHTHLGTC 0
root@arm:~# echo 'TQAW''YLBPVJ'
TQAWYLBPVJ
root@arm:~# MARKER='LNMN''WYOATB' run 'echo 1 > /sys/kernel/mva_test/regulators/bbuck6_en'
LNMNWYOATBLNMNWYOATB 0
root@arm:~# echo 'CVST''YGJOBL'
CVSTYGJOBL
root@arm:~# MARKER='TABL''HPHLCW' run 'i2cget -y -f 1 0x4b 0xc'
TABLHPHLCW0x03
TABLHPHLCW 0
root@arm:~# echo 'TYZS''XWJZUH'
TYZSXWJZUH
root@arm:~# MARKER='ABBL''VHCUKA' run 'grep -r -l rohm,bd71847 /proc/device-tree  | sed '"'"'s![^/]*$!!'"'"''
ABBLVHCUKA/proc/device-tree/ocp/interconnect@48000000/segment@0/target-module@2a000/i2c@0/pmic@4b/
ABBLVHCUKA 0
root@arm:~# echo 'UHSC''MEXZWA'
UHSCMEXZWA
root@arm:~# MARKER='FGXB''TUTWFO' run 'test -f /proc/device-tree/ocp/interconnectt\@48000000/segment\@0/target-module\@2a000/i2c\@0/pmic\@4b/regulators/BUCK6/rohmm,no-regulator-enable-control ;echo $?'
FGXBTUTWFO1
FGXBTUTWFO 0
root@arm:~# echo 'NSTX''VUJKSZ'
NSTXVUJKSZ
root@arm:~# MARKER='WGQB''AAUMUA' run 'grep -r -l rohm,bd71847 /proc/device-tree  | sed '"'"'s![^/]*$!!'"'"''
WGQBAAUMUA/proc/device-tree/ocp/interconnect@48000000/segment@0/target-module@2a000/i2c@0/pmic@4b/
WGQBAAUMUA 0
root@arm:~# echo 'PAEA''ULFPXQ'
PAEAULFPXQ
root@arm:~# MARKER='PWMU''NAKFKP' run 'test -f /proc/device-tree/ocp/interconnectt\@48000000/segment\@0/target-module\@2a000/i2c\@0/pmic\@4b/regulators/BUCK6/reguulator-always-on ;echo $?'
PWMUNAKFKP1
PWMUNAKFKP 0
root@arm:~# echo 'NSFE''AMOLSN'
NSFEAMOLSN
root@arm:~# MARKER='YEJF''XOKNQJ' run 'echo 0 > /sys/kernel/mva_test/regulators/bbuck6_en'
YEJFXOKNQJYEJFXOKNQJ 0
root@arm:~# echo 'UHKL''BBOYJE'
UHKLBBOYJE
root@arm:~# MARKER='UWMT''EJXESO' run 'i2cget -y -f 1 0x4b 0xc'
UWMTEJXESO0x02
UWMTEJXESO 0
root@arm:~# echo 'HGLH''UOGKQZ'
HGLHUOGKQZ
root@arm:~# MARKER='CGCW''HATXZY' run 'grep -r -l rohm,bd71847 /proc/device-tree  | sed '"'"'s![^/]*$!!'"'"''
CGCWHATXZY/proc/device-tree/ocp/interconnect@48000000/segment@0/target-module@2a000/i2c@0/pmic@4b/
CGCWHATXZY 0
root@arm:~# echo 'XETJ''PCZGVG'
XETJPCZGVG
root@arm:~# MARKER='BBJK''VXYMKQ' run 'test -f /proc/device-tree/ocp/interconnectt\@48000000/segment\@0/target-module\@2a000/i2c\@0/pmic\@4b/regulators/LDO1/rohm,,no-regulator-enable-control ;echo $?'
BBJKVXYMKQ1
BBJKVXYMKQ 0
root@arm:~# echo 'NVCV''VVHEEB'
NVCVVVHEEB
root@arm:~# MARKER='HZXC''QMJCKY' run 'echo 1 > /sys/kernel/mva_test/regulators/bbuck7_en'
HZXCQMJCKYHZXCQMJCKY 0
root@arm:~# echo 'COYF''ULQFNG'
COYFULQFNG
root@arm:~# MARKER='BLJN''YVHPPJ' run 'i2cget -y -f 1 0x4b 0x18'
BLJNYVHPPJ0xe2
BLJNYVHPPJ 0
root@arm:~# echo 'SWPS''AOUXGB'
SWPSAOUXGB
root@arm:~# MARKER='KLNE''JULWFZ' run 'grep -r -l rohm,bd71847 /proc/device-tree  | sed '"'"'s![^/]*$!!'"'"''
KLNEJULWFZ/proc/device-tree/ocp/interconnect@48000000/segment@0/target-module@2a000/i2c@0/pmic@4b/
KLNEJULWFZ 0
root@arm:~# echo 'XAHY''NPNZVM'
XAHYNPNZVM
root@arm:~# MARKER='NAAM''EVKVCV' run 'test -f /proc/device-tree/ocp/interconnectt\@48000000/segment\@0/target-module\@2a000/i2c\@0/pmic\@4b/regulators/LDO1/rohm,,no-regulator-enable-control ;echo $?'
NAAMEVKVCV1
NAAMEVKVCV 0
root@arm:~# echo 'ZCWK''ULFXLC'
ZCWKULFXLC
root@arm:~# MARKER='HEVB''ETSFLJ' run 'grep -r -l rohm,bd71847 /proc/device-tree  | sed '"'"'s![^/]*$!!'"'"''
HEVBETSFLJ/proc/device-tree/ocp/interconnect@48000000/segment@0/target-module@2a000/i2c@0/pmic@4b/
HEVBETSFLJ 0
root@arm:~# echo 'JAOM''BJGOCB'
JAOMBJGOCB
root@arm:~# MARKER='WYNG''KXHXAT' run 'test -f /proc/device-tree/ocp/interconnectt\@48000000/segment\@0/target-module\@2a000/i2c\@0/pmic\@4b/regulators/LDO1/regullator-always-on ;echo $?'
WYNGKXHXAT1
WYNGKXHXAT 0
root@arm:~# echo 'OWNA''EHCFCY'
OWNAEHCFCY
root@arm:~# MARKER='JHMB''JJTSZZ' run 'echo 0 > /sys/kernel/mva_test/regulators/bbuck7_en'
JHMBJJTSZZJHMBJJTSZZ 0
root@arm:~# echo 'QJMH''ZOZCZN'
QJMHZOZCZN
root@arm:~# MARKER='UBFP''STSYJK' run 'i2cget -y -f 1 0x4b 0x18'
UBFPSTSYJK0xa2
UBFPSTSYJK 0
root@arm:~# echo 'VTGQ''JCPEMQ'
VTGQJCPEMQ
root@arm:~# MARKER='YHPN''OBJVXT' run 'grep -r -l rohm,bd71847 /proc/device-tree  | sed '"'"'s![^/]*$!!'"'"''
YHPNOBJVXT/proc/device-tree/ocp/interconnect@48000000/segment@0/target-module@2a000/i2c@0/pmic@4b/
YHPNOBJVXT 0
root@arm:~# echo 'FZVO''ETNGOQ'
FZVOETNGOQ
root@arm:~# MARKER='XNEC''LFBTJA' run 'test -f /proc/device-tree/ocp/interconnectt\@48000000/segment\@0/target-module\@2a000/i2c\@0/pmic\@4b/regulators/LDO2/rohm,,no-regulator-enable-control ;echo $?'
XNECLFBTJA1
XNECLFBTJA 0
root@arm:~# echo 'PGFF''NAEFCH'
PGFFNAEFCH
root@arm:~# MARKER='PZJF''SBVEZA' run 'echo 1 > /sys/kernel/mva_test/regulators/bbuck8_en'
PZJFSBVEZAPZJFSBVEZA 0
root@arm:~# echo 'KOPB''OTZCWA'
KOPBOTZCWA
root@arm:~# MARKER='NTPW''CNLCJU' run 'i2cget -y -f 1 0x4b 0x19'
NTPWCNLCJU0xe0
NTPWCNLCJU 0
root@arm:~# echo 'VQEM''MLWQUL'
VQEMMLWQUL
root@arm:~# MARKER='FWFO''HYPQFH' run 'grep -r -l rohm,bd71847 /proc/device-tree  | sed '"'"'s![^/]*$!!'"'"''
FWFOHYPQFH/proc/device-tree/ocp/interconnect@48000000/segment@0/target-module@2a000/i2c@0/pmic@4b/
FWFOHYPQFH 0
root@arm:~# echo 'VQFB''SXTXXN'
VQFBSXTXXN
root@arm:~# MARKER='KCYE''FVLAOP' run 'test -f /proc/device-tree/ocp/interconnectt\@48000000/segment\@0/target-module\@2a000/i2c\@0/pmic\@4b/regulators/LDO2/rohm,,no-regulator-enable-control ;echo $?'
KCYEFVLAOP1
KCYEFVLAOP 0
root@arm:~# echo 'WAKJ''XGCLLE'
WAKJXGCLLE
root@arm:~# MARKER='VPNF''KCAGFP' run 'grep -r -l rohm,bd71847 /proc/device-tree  | sed '"'"'s![^/]*$!!'"'"''
VPNFKCAGFP/proc/device-tree/ocp/interconnect@48000000/segment@0/target-module@2a000/i2c@0/pmic@4b/
VPNFKCAGFP 0
root@arm:~# echo 'SPEV''XPFEWM'
SPEVXPFEWM
root@arm:~# MARKER='WSUA''VTGSBJ' run 'test -f /proc/device-tree/ocp/interconnectt\@48000000/segment\@0/target-module\@2a000/i2c\@0/pmic\@4b/regulators/LDO2/regullator-always-on ;echo $?'
WSUAVTGSBJ1
WSUAVTGSBJ 0
root@arm:~# echo 'OWCA''JVOOVL'
OWCAJVOOVL
root@arm:~# MARKER='KTCX''GZQCTP' run 'echo 0 > /sys/kernel/mva_test/regulators/bbuck8_en'
KTCXGZQCTPKTCXGZQCTP 0
root@arm:~# echo 'TEWT''XQUHHZ'
TEWTXQUHHZ
root@arm:~# MARKER='UWVX''ULXUEU' run 'i2cget -y -f 1 0x4b 0x19'
UWVXULXUEU0xa0
UWVXULXUEU 0
root@arm:~# echo 'QUUF''QVCWQW'
QUUFQVCWQW
root@arm:~# MARKER='CPCB''TLECXO' run 'grep -r -l rohm,bd71847 /proc/device-tree  | sed '"'"'s![^/]*$!!'"'"''
CPCBTLECXO/proc/device-tree/ocp/interconnect@48000000/segment@0/target-module@2a000/i2c@0/pmic@4b/
CPCBTLECXO 0
root@arm:~# echo 'XMPO''JHYBTE'
XMPOJHYBTE
root@arm:~# MARKER='WKCL''LCKCGN' run 'test -f /proc/device-tree/ocp/interconnectt\@48000000/segment\@0/target-module\@2a000/i2c\@0/pmic\@4b/regulators/LDO3/rohm,,no-regulator-enable-control ;echo $?'
WKCLLCKCGN1
WKCLLCKCGN 0
root@arm:~# echo 'AEZC''SEHFMG'
AEZCSEHFMG
root@arm:~# MARKER='EPCT''GJZXWK' run 'echo 1 > /sys/kernel/mva_test/regulators/bbuck9_en'
EPCTGJZXWKEPCTGJZXWK 0
root@arm:~# echo 'VSEU''CXZHGG'
VSEUCXZHGG
root@arm:~# MARKER='SAJU''OPOTQL' run 'i2cget -y -f 1 0x4b 0x1a'
SAJUOPOTQL0xc0
SAJUOPOTQL 0
root@arm:~# echo 'MBNJ''WLUMET'
MBNJWLUMET
root@arm:~# MARKER='OVKM''FZLAGO' run 'grep -r -l rohm,bd71847 /proc/device-tree  | sed '"'"'s![^/]*$!!'"'"''
OVKMFZLAGO/proc/device-tree/ocp/interconnect@48000000/segment@0/target-module@2a000/i2c@0/pmic@4b/
OVKMFZLAGO 0
root@arm:~# echo 'QJJY''GEZZMU'
QJJYGEZZMU
root@arm:~# MARKER='XEAQ''BHSTQQ' run 'test -f /proc/device-tree/ocp/interconnectt\@48000000/segment\@0/target-module\@2a000/i2c\@0/pmic\@4b/regulators/LDO3/rohm,,no-regulator-enable-control ;echo $?'
XEAQBHSTQQ1
XEAQBHSTQQ 0
root@arm:~# echo 'HYOG''CBATHW'
HYOGCBATHW
root@arm:~# MARKER='XOZN''CKUJFA' run 'grep -r -l rohm,bd71847 /proc/device-tree  | sed '"'"'s![^/]*$!!'"'"''
XOZNCKUJFA/proc/device-tree/ocp/interconnect@48000000/segment@0/target-module@2a000/i2c@0/pmic@4b/
XOZNCKUJFA 0
root@arm:~# echo 'WQLY''BLOBYM'
WQLYBLOBYM
root@arm:~# MARKER='QCKN''PYLHUO' run 'test -f /proc/device-tree/ocp/interconnectt\@48000000/segment\@0/target-module\@2a000/i2c\@0/pmic\@4b/regulators/LDO3/regullator-always-on ;echo $?'
QCKNPYLHUO1
QCKNPYLHUO 0
root@arm:~# echo 'JZNT''CGGFWF'
JZNTCGGFWF
root@arm:~# MARKER='NWON''AYKPTZ' run 'echo 0 > /sys/kernel/mva_test/regulators/bbuck9_en'
NWONAYKPTZNWONAYKPTZ 0
root@arm:~# echo 'QFNE''LGXWAY'
QFNELGXWAY
root@arm:~# MARKER='OJPQ''HOWKHE' run 'i2cget -y -f 1 0x4b 0x1a'
OJPQHOWKHE0x80
OJPQHOWKHE 0
root@arm:~# echo 'NCVT''WWTUCF'
NCVTWWTUCF
root@arm:~# MARKER='WYKZ''GQTWAQ' run 'grep -r -l rohm,bd71847 /proc/device-tree  | sed '"'"'s![^/]*$!!'"'"''
WYKZGQTWAQ/proc/device-tree/ocp/interconnect@48000000/segment@0/target-module@2a000/i2c@0/pmic@4b/
WYKZGQTWAQ 0
root@arm:~# echo 'WTTV''XWPGFT'
WTTVXWPGFT
root@arm:~# MARKER='AXON''XYJXGL' run 'test -f /proc/device-tree/ocp/interconnectt\@48000000/segment\@0/target-module\@2a000/i2c\@0/pmic\@4b/regulators/LDO4/rohm,,no-regulator-enable-control ;echo $?'
AXONXYJXGL1
AXONXYJXGL 0
root@arm:~# echo 'GHFG''VBJZKL'
GHFGVBJZKL
root@arm:~# MARKER='SKPU''TUWPTQ' run 'echo 1 > /sys/kernel/mva_test/regulators/bbuck10_en'
SKPUTUWPTQSKPUTUWPTQ 0
root@arm:~# echo 'SUUM''LQVVMC'
SUUMLQVVMC
root@arm:~# MARKER='XJEY''VUQZXM' run 'i2cget -y -f 1 0x4b 0x1b'
XJEYVUQZXM0xc0
XJEYVUQZXM 0
root@arm:~# echo 'WYWN''ZJVBLK'
WYWNZJVBLK
root@arm:~# MARKER='YSKE''ACJOLF' run 'grep -r -l rohm,bd71847 /proc/device-tree  | sed '"'"'s![^/]*$!!'"'"''
YSKEACJOLF/proc/device-tree/ocp/interconnect@48000000/segment@0/target-module@2a000/i2c@0/pmic@4b/
YSKEACJOLF 0
root@arm:~# echo 'KHWC''HONOCV'
KHWCHONOCV
root@arm:~# MARKER='PNJA''PZJWNS' run 'test -f /proc/device-tree/ocp/interconnectt\@48000000/segment\@0/target-module\@2a000/i2c\@0/pmic\@4b/regulators/LDO4/rohm,,no-regulator-enable-control ;echo $?'
PNJAPZJWNS1
PNJAPZJWNS 0
root@arm:~# echo 'BZGC''ESSPGG'
BZGCESSPGG
root@arm:~# MARKER='MGTT''UOPXWL' run 'grep -r -l rohm,bd71847 /proc/device-tree  | sed '"'"'s![^/]*$!!'"'"''
MGTTUOPXWL/proc/device-tree/ocp/interconnect@48000000/segment@0/target-module@2a000/i2c@0/pmic@4b/
MGTTUOPXWL 0
root@arm:~# echo 'GVUJ''VMEZYC'
GVUJVMEZYC
root@arm:~# MARKER='YWAQ''FTXANG' run 'test -f /proc/device-tree/ocp/interconnectt\@48000000/segment\@0/target-module\@2a000/i2c\@0/pmic\@4b/regulators/LDO4/regullator-always-on ;echo $?'
YWAQFTXANG1
YWAQFTXANG 0
root@arm:~# echo 'UKQK''EXUGZP'
UKQKEXUGZP
root@arm:~# MARKER='YQHP''KKQTGX' run 'echo 0 > /sys/kernel/mva_test/regulators/bbuck10_en'
YQHPKKQTGXYQHPKKQTGX 0
root@arm:~# echo 'LQUM''ZYJNSG'
LQUMZYJNSG
root@arm:~# MARKER='JNNM''EFXFHL' run 'i2cget -y -f 1 0x4b 0x1b'
JNNMEFXFHL0x80
JNNMEFXFHL 0
root@arm:~# echo 'SEEL''JFNCYG'
SEELJFNCYG
root@arm:~# MARKER='WFGH''WMWXZG' run 'grep -r -l rohm,bd71847 /proc/device-tree  | sed '"'"'s![^/]*$!!'"'"''
WFGHWMWXZG/proc/device-tree/ocp/interconnect@48000000/segment@0/target-module@2a000/i2c@0/pmic@4b/
WFGHWMWXZG 0
root@arm:~# echo 'VKUG''ABVXJZ'
VKUGABVXJZ
root@arm:~# MARKER='YKSZ''ABZSUC' run 'test -f /proc/device-tree/ocp/interconnectt\@48000000/segment\@0/target-module\@2a000/i2c\@0/pmic\@4b/regulators/LDO5/rohm,,no-regulator-enable-control ;echo $?'
YKSZABZSUC0
YKSZABZSUC 0
root@arm:~# echo 'TYJY''OLQWLE'
TYJYOLQWLE
root@arm:~# MARKER='OFSA''UCJHET' run 'grep -r -l rohm,bd71847 /proc/device-tree  | sed '"'"'s![^/]*$!!'"'"''
OFSAUCJHET/proc/device-tree/ocp/interconnect@48000000/segment@0/target-module@2a000/i2c@0/pmic@4b/
OFSAUCJHET 0
root@arm:~# echo 'EXCK''FXLPLK'
EXCKFXLPLK
root@arm:~# MARKER='NLES''FCLBVX' run 'test -f /proc/device-tree/ocp/interconnectt\@48000000/segment\@0/target-module\@2a000/i2c\@0/pmic\@4b/regulators/LDO5/rohm,,no-regulator-enable-control ;echo $?'
NLESFCLBVX0
NLESFCLBVX 0
root@arm:~# echo 'LWHG''JKKGHC'
LWHGJKKGHC
root@arm:~# MARKER='EFAA''NJLNML' run 'grep -r -l rohm,bd71847 /proc/device-tree  | sed '"'"'s![^/]*$!!'"'"''
EFAANJLNML/proc/device-tree/ocp/interconnect@48000000/segment@0/target-module@2a000/i2c@0/pmic@4b/
EFAANJLNML 0
root@arm:~# echo 'XFHC''XCTUNX'
XFHCXCTUNX
root@arm:~# MARKER='TEKH''MBZVGF' run 'test -f /proc/device-tree/ocp/interconnectt\@48000000/segment\@0/target-module\@2a000/i2c\@0/pmic\@4b/regulators/LDO6/rohm,,no-regulator-enable-control ;echo $?'
TEKHMBZVGF1
TEKHMBZVGF 0
root@arm:~# echo 'OCFS''HXJYNK'
OCFSHXJYNK
root@arm:~# MARKER='OBOJ''VQFGZY' run 'echo 1 > /sys/kernel/mva_test/regulators/bbuck12_en'
OBOJVQFGZYOBOJVQFGZY 0
root@arm:~# echo 'LTPF''YAEFGP'
LTPFYAEFGP
root@arm:~# MARKER='PHPZ''BYUHMJ' run 'i2cget -y -f 1 0x4b 0x1d'
PHPZBYUHMJ0xc3
PHPZBYUHMJ 0
root@arm:~# echo 'KXJJ''UTWYMV'
KXJJUTWYMV
root@arm:~# MARKER='FQZW''KYXPPF' run 'grep -r -l rohm,bd71847 /proc/device-tree  | sed '"'"'s![^/]*$!!'"'"''
FQZWKYXPPF/proc/device-tree/ocp/interconnect@48000000/segment@0/target-module@2a000/i2c@0/pmic@4b/
FQZWKYXPPF 0
root@arm:~# echo 'LBXP''KPEMCS'
LBXPKPEMCS
root@arm:~# MARKER='LEUQ''YQBPKA' run 'test -f /proc/device-tree/ocp/interconnectt\@48000000/segment\@0/target-module\@2a000/i2c\@0/pmic\@4b/regulators/LDO6/rohm,,no-regulator-enable-control ;echo $?'
LEUQYQBPKA1
LEUQYQBPKA 0
root@arm:~# echo 'NAET''JKJAOL'
NAETJKJAOL
root@arm:~# MARKER='FQQQ''CSYXUK' run 'grep -r -l rohm,bd71847 /proc/device-tree  | sed '"'"'s![^/]*$!!'"'"''
FQQQCSYXUK/proc/device-tree/ocp/interconnect@48000000/segment@0/target-module@2a000/i2c@0/pmic@4b/
FQQQCSYXUK 0
root@arm:~# echo 'UQTK''WGULCS'
UQTKWGULCS
root@arm:~# MARKER='PHGA''CZKXOT' run 'test -f /proc/device-tree/ocp/interconnectt\@48000000/segment\@0/target-module\@2a000/i2c\@0/pmic\@4b/regulators/LDO6/regullator-always-on ;echo $?'
PHGACZKXOT1
PHGACZKXOT 0
root@arm:~# echo 'EYXV''SFNACW'
EYXVSFNACW
root@arm:~# MARKER='KKGB''AGXLCO' run 'echo 0 > /sys/kernel/mva_test/regulators/bbuck12_en'
KKGBAGXLCOKKGBAGXLCO 0
root@arm:~# echo 'SLPJ''QWKVGO'
SLPJQWKVGO
root@arm:~# MARKER='OKCO''QMCHVG' run 'i2cget -y -f 1 0x4b 0x1d'
OKCOQMCHVG0x83
OKCOQMCHVG 0
root@arm:~# Labgrid Console Logfile for main
Logfile started at 2024-12-19 08:47:40.913925
=== Log starts here ===

root@arm:~# run() { echo -n "$MARKER"; sh -c "$@"; echo "$MARKER $?"; }
root@arm:~# echo 'QLHZ''EWUGFZ'
QLHZEWUGFZ
root@arm:~# MARKER='XJXU''PNALUM' run 'grep -r -l rohm,bd71847 /proc/device-tree  | sed '"'"'s![^/]*$!!'"'"''
XJXUPNALUM/proc/device-tree/ocp/interconnect@48000000/segment@0/target-module@2a000/i2c@0/pmic@4b/
XJXUPNALUM 0
root@arm:~# echo 'WMME''OWWPPF'
WMMEOWWPPF
root@arm:~# MARKER='YYST''EBFZQF' run 'test -f /proc/device-tree/ocp/interconnectt\@48000000/segment\@0/target-module\@2a000/i2c\@0/pmic\@4b/regulators/BUCK1/rohmm,no-regulator-enable-control ;echo $?'
YYSTEBFZQF1
YYSTEBFZQF 0
root@arm:~# echo 'UQPH''KSOHYS'
UQPHKSOHYS
root@arm:~# MARKER='QEYE''XXXGWZ' run 'i2cget -y -f 1 0x4b 0x5'
QEYEXXXGWZ0x02
QEYEXXXGWZ 0
root@arm:~# echo 'GZOO''AQZZVT'
GZOOAQZZVT
root@arm:~# MARKER='JTSV''FNATMX' run 'echo 700000 700000 > /sys/kernel/mva_test//regulators/buck1_set'
JTSVFNATMXJTSVFNATMX 0
root@arm:~# echo 'STYO''VCBVFK'
STYOVCBVFK
root@arm:~# MARKER='YGEQ''AHTWVK' run 'i2cget -y -f 1 0x4b 0xd'
YGEQAHTWVK0x00
YGEQAHTWVK 0
root@arm:~# echo 'KBGW''XCKUEG'
KBGWXCKUEG
root@arm:~# MARKER='EUXG''JKLSWV' run 'echo 710000 710000 > /sys/kernel/mva_test//regulators/buck1_set'
EUXGJKLSWVEUXGJKLSWV 0
root@arm:~# echo 'LTCM''HAWVBB'
LTCMHAWVBB
root@arm:~# MARKER='CCKC''TJEWVA' run 'i2cget -y -f 1 0x4b 0xd'
CCKCTJEWVA0x01
CCKCTJEWVA 0
root@arm:~# echo 'NHGZ''BHOBTL'
NHGZBHOBTL
root@arm:~# MARKER='ULTF''QQZJLA' run 'echo 720000 720000 > /sys/kernel/mva_test//regulators/buck1_set'
ULTFQQZJLAULTFQQZJLA 0
root@arm:~# echo 'XUQF''NKKULW'
XUQFNKKULW
root@arm:~# MARKER='UJTT''BSFLHL' run 'i2cget -y -f 1 0x4b 0xd'
UJTTBSFLHL0x02
UJTTBSFLHL 0
root@arm:~# echo 'TTEV''BOUGAB'
TTEVBOUGAB
root@arm:~# MARKER='YBZP''TLJBWJ' run 'echo 730000 730000 > /sys/kernel/mva_test//regulators/buck1_set'
YBZPTLJBWJYBZPTLJBWJ 0
root@arm:~# echo 'FSKU''YBCGAS'
FSKUYBCGAS
root@arm:~# MARKER='YFYG''POBOHU' run 'i2cget -y -f 1 0x4b 0xd'
YFYGPOBOHU0x03
YFYGPOBOHU 0
root@arm:~# echo 'UATU''LHUEVO'
UATULHUEVO
root@arm:~# MARKER='WWTU''AYHENS' run 'echo 740000 740000 > /sys/kernel/mva_test//regulators/buck1_set'
WWTUAYHENSWWTUAYHENS 0
root@arm:~# echo 'OZTS''CCGKJB'
OZTSCCGKJB
root@arm:~# MARKER='NBBB''FMMSSH' run 'i2cget -y -f 1 0x4b 0xd'
NBBBFMMSSH0x04
NBBBFMMSSH 0
root@arm:~# echo 'NBLS''TUNZWL'
NBLSTUNZWL
root@arm:~# MARKER='UQWU''YEFUSB' run 'echo 750000 750000 > /sys/kernel/mva_test//regulators/buck1_set'
UQWUYEFUSBUQWUYEFUSB 0
root@arm:~# echo 'MCWL''TQAYBF'
MCWLTQAYBF
root@arm:~# MARKER='FZLW''FPANYM' run 'i2cget -y -f 1 0x4b 0xd'
FZLWFPANYM0x05
FZLWFPANYM 0
root@arm:~# echo 'XPZO''HXZLFX'
XPZOHXZLFX
root@arm:~# MARKER='WMYC''BTKVGX' run 'echo 760000 760000 > /sys/kernel/mva_test//regulators/buck1_set'
WMYCBTKVGXWMYCBTKVGX 0
root@arm:~# echo 'YHSL''JBCJAG'
YHSLJBCJAG
root@arm:~# MARKER='QGEE''QEVEHU' run 'i2cget -y -f 1 0x4b 0xd'
QGEEQEVEHU0x06
QGEEQEVEHU 0
root@arm:~# echo 'LUCL''LTBJTP'
LUCLLTBJTP
root@arm:~# MARKER='CHPC''CPQYST' run 'echo 770000 770000 > /sys/kernel/mva_test//regulators/buck1_set'
CHPCCPQYSTCHPCCPQYST 0
root@arm:~# echo 'OBFS''HPHTWP'
OBFSHPHTWP
root@arm:~# MARKER='PTNK''AJFKNU' run 'i2cget -y -f 1 0x4b 0xd'
PTNKAJFKNU0x07
PTNKAJFKNU 0
root@arm:~# echo 'EEGW''OXWWKV'
EEGWOXWWKV
root@arm:~# MARKER='JNVC''GHQYWU' run 'echo 780000 780000 > /sys/kernel/mva_test//regulators/buck1_set'
JNVCGHQYWUJNVCGHQYWU 0
root@arm:~# echo 'QXCW''YYMLQC'
QXCWYYMLQC
root@arm:~# MARKER='HYZP''WHNQTF' run 'i2cget -y -f 1 0x4b 0xd'
HYZPWHNQTF0x08
HYZPWHNQTF 0
root@arm:~# echo 'VTJE''JPWZGK'
VTJEJPWZGK
root@arm:~# MARKER='ZHYJ''UJSALV' run 'echo 790000 790000 > /sys/kernel/mva_test//regulators/buck1_set'
ZHYJUJSALVZHYJUJSALV 0
root@arm:~# echo 'CKAJ''TZVXUK'
CKAJTZVXUK
root@arm:~# MARKER='LSQT''ZSMEKV' run 'i2cget -y -f 1 0x4b 0xd'
LSQTZSMEKV0x09
LSQTZSMEKV 0
root@arm:~# echo 'CWYM''TLWKOT'
CWYMTLWKOT
root@arm:~# MARKER='OLHE''BZPCGC' run 'echo 800000 800000 > /sys/kernel/mva_test//regulators/buck1_set'
OLHEBZPCGCOLHEBZPCGC 0
root@arm:~# echo 'WANL''KNBLAP'
WANLKNBLAP
root@arm:~# MARKER='NBHA''NYZYOO' run 'i2cget -y -f 1 0x4b 0xd'
NBHANYZYOO0x0a
NBHANYZYOO 0
root@arm:~# echo 'OENJ''WQPBQM'
OENJWQPBQM
root@arm:~# MARKER='OCAJ''ATKGCU' run 'echo 810000 810000 > /sys/kernel/mva_test//regulators/buck1_set'
OCAJATKGCUOCAJATKGCU 0
root@arm:~# echo 'BNMQ''TWNTZT'
BNMQTWNTZT
root@arm:~# MARKER='YVQS''YETHCN' run 'i2cget -y -f 1 0x4b 0xd'
YVQSYETHCN0x0b
YVQSYETHCN 0
root@arm:~# echo 'TZGM''FMTNLV'
TZGMFMTNLV
root@arm:~# MARKER='QMMH''GSAFUN' run 'echo 820000 820000 > /sys/kernel/mva_test//regulators/buck1_set'
QMMHGSAFUNQMMHGSAFUN 0
root@arm:~# echo 'GFQU''TUFVHA'
GFQUTUFVHA
root@arm:~# MARKER='FYYV''NFYWKS' run 'i2cget -y -f 1 0x4b 0xd'
FYYVNFYWKS0x0c
FYYVNFYWKS 0
root@arm:~# echo 'JHML''FNQHOS'
JHMLFNQHOS
root@arm:~# MARKER='BUWP''MXHYHK' run 'echo 830000 830000 > /sys/kernel/mva_test//regulators/buck1_set'
BUWPMXHYHKBUWPMXHYHK 0
root@arm:~# echo 'QFMN''XPKFFV'
QFMNXPKFFV
root@arm:~# MARKER='KLLS''YYTCWO' run 'i2cget -y -f 1 0x4b 0xd'
KLLSYYTCWO0x0d
KLLSYYTCWO 0
root@arm:~# echo 'KGGS''ASJHOV'
KGGSASJHOV
root@arm:~# MARKER='QOYE''LWYFVB' run 'echo 840000 840000 > /sys/kernel/mva_test//regulators/buck1_set'
QOYELWYFVBQOYELWYFVB 0
root@arm:~# echo 'NCQA''ZZBJJK'
NCQAZZBJJK
root@arm:~# MARKER='LOFF''OWHVTK' run 'i2cget -y -f 1 0x4b 0xd'
LOFFOWHVTK0x0e
LOFFOWHVTK 0
root@arm:~# echo 'NUEE''UPFFAF'
NUEEUPFFAF
root@arm:~# MARKER='FXBO''UTNGVH' run 'echo 850000 850000 > /sys/kernel/mva_test//regulators/buck1_set'
FXBOUTNGVHFXBOUTNGVH 0
root@arm:~# echo 'UYCG''CVSVHX'
UYCGCVSVHX
root@arm:~# MARKER='XKXH''WTTHLF' run 'i2cget -y -f 1 0x4b 0xd'
XKXHWTTHLF0x0f
XKXHWTTHLF 0
root@arm:~# echo 'UBNO''JLUBNL'
UBNOJLUBNL
root@arm:~# MARKER='AZSF''MYYVMZ' run 'echo 860000 860000 > /sys/kernel/mva_test//regulators/buck1_set'
AZSFMYYVMZAZSFMYYVMZ 0
root@arm:~# echo 'BGZB''FKCFEA'
BGZBFKCFEA
root@arm:~# MARKER='ZXQY''JNSPNZ' run 'i2cget -y -f 1 0x4b 0xd'
ZXQYJNSPNZ0x10
ZXQYJNSPNZ 0
root@arm:~# echo 'WZHO''JWBEHJ'
WZHOJWBEHJ
root@arm:~# MARKER='SFYL''VCYOEL' run 'echo 870000 870000 > /sys/kernel/mva_test//regulators/buck1_set'
SFYLVCYOELSFYLVCYOEL 0
root@arm:~# echo 'UYOF''BVSMKT'
UYOFBVSMKT
root@arm:~# MARKER='FXXS''ZCNTOM' run 'i2cget -y -f 1 0x4b 0xd'
FXXSZCNTOM0x11
FXXSZCNTOM 0
root@arm:~# echo 'YXTB''EKFOLB'
YXTBEKFOLB
root@arm:~# MARKER='YLQZ''XUNZWX' run 'echo 880000 880000 > /sys/kernel/mva_test//regulators/buck1_set'
YLQZXUNZWXYLQZXUNZWX 0
root@arm:~# echo 'VXJL''UOXMOS'
VXJLUOXMOS
root@arm:~# MARKER='OGNJ''ZSBCGP' run 'i2cget -y -f 1 0x4b 0xd'
OGNJZSBCGP0x12
OGNJZSBCGP 0
root@arm:~# echo 'JJKA''AXGLKH'
JJKAAXGLKH
root@arm:~# MARKER='USOH''SYAZME' run 'echo 890000 890000 > /sys/kernel/mva_test//regulators/buck1_set'
USOHSYAZMEUSOHSYAZME 0
root@arm:~# echo 'AJTJ''QUBPVT'
AJTJQUBPVT
root@arm:~# MARKER='KVLN''QJCPUA' run 'i2cget -y -f 1 0x4b 0xd'
KVLNQJCPUA0x13
KVLNQJCPUA 0
root@arm:~# echo 'KCAE''QNXZNK'
KCAEQNXZNK
root@arm:~# MARKER='BHHM''LJKZMA' run 'echo 900000 900000 > /sys/kernel/mva_test//regulators/buck1_set'
BHHMLJKZMABHHMLJKZMA 0
root@arm:~# echo 'JGAJ''FBGBHX'
JGAJFBGBHX
root@arm:~# MARKER='ACKJ''CYYZAW' run 'i2cget -y -f 1 0x4b 0xd'
ACKJCYYZAW0x14
ACKJCYYZAW 0
root@arm:~# echo 'MWAG''LAXWUV'
MWAGLAXWUV
root@arm:~# MARKER='TBVM''WUZJTO' run 'echo 910000 910000 > /sys/kernel/mva_test//regulators/buck1_set'
TBVMWUZJTOTBVMWUZJTO 0
root@arm:~# echo 'BXPF''VNXEFZ'
BXPFVNXEFZ
root@arm:~# MARKER='OXVA''HGBBZW' run 'i2cget -y -f 1 0x4b 0xd'
OXVAHGBBZW0x15
OXVAHGBBZW 0
root@arm:~# echo 'WAVX''SCPSEB'
WAVXSCPSEB
root@arm:~# MARKER='TNGS''BESAVE' run 'echo 920000 920000 > /sys/kernel/mva_test//regulators/buck1_set'
TNGSBESAVETNGSBESAVE 0
root@arm:~# echo 'XKPY''NHJTNC'
XKPYNHJTNC
root@arm:~# MARKER='OWLV''OCFMAV' run 'i2cget -y -f 1 0x4b 0xd'
OWLVOCFMAV0x16
OWLVOCFMAV 0
root@arm:~# echo 'SXXK''FQFFQW'
SXXKFQFFQW
root@arm:~# MARKER='UEAX''SLCTVU' run 'echo 930000 930000 > /sys/kernel/mva_test//regulators/buck1_set'
UEAXSLCTVUUEAXSLCTVU 0
root@arm:~# echo 'TAVQ''PZEFQS'
TAVQPZEFQS
root@arm:~# MARKER='LJHE''LTKFNF' run 'i2cget -y -f 1 0x4b 0xd'
LJHELTKFNF0x17
LJHELTKFNF 0
root@arm:~# echo 'ZTZV''QMUZGH'
ZTZVQMUZGH
root@arm:~# MARKER='NTMN''BKEZFF' run 'echo 940000 940000 > /sys/kernel/mva_test//regulators/buck1_set'
NTMNBKEZFFNTMNBKEZFF 0
root@arm:~# echo 'TZGE''GQXJKP'
TZGEGQXJKP
root@arm:~# MARKER='VSBU''XHEFJY' run 'i2cget -y -f 1 0x4b 0xd'
VSBUXHEFJY0x18
VSBUXHEFJY 0
root@arm:~# echo 'PCVH''OUJPYM'
PCVHOUJPYM
root@arm:~# MARKER='AQVS''PHGJKL' run 'echo 950000 950000 > /sys/kernel/mva_test//regulators/buck1_set'
AQVSPHGJKLAQVSPHGJKL 0
root@arm:~# echo 'ZNAH''QPVVGX'
ZNAHQPVVGX
root@arm:~# MARKER='XEUX''BFUOJT' run 'i2cget -y -f 1 0x4b 0xd'
XEUXBFUOJT0x19
XEUXBFUOJT 0
root@arm:~# echo 'QLWB''FQYQFA'
QLWBFQYQFA
root@arm:~# MARKER='EFCG''THLVBB' run 'echo 960000 960000 > /sys/kernel/mva_test//regulators/buck1_set'
EFCGTHLVBBEFCGTHLVBB 0
root@arm:~# echo 'HQON''YNHNMP'
HQONYNHNMP
root@arm:~# MARKER='NWKZ''PQMSPA' run 'i2cget -y -f 1 0x4b 0xd'
NWKZPQMSPA0x1a
NWKZPQMSPA 0
root@arm:~# echo 'HGTN''WJPGUP'
HGTNWJPGUP
root@arm:~# MARKER='EBGY''FXELYO' run 'echo 970000 970000 > /sys/kernel/mva_test//regulators/buck1_set'
EBGYFXELYOEBGYFXELYO 0
root@arm:~# echo 'ZLKK''TXEOUE'
ZLKKTXEOUE
root@arm:~# MARKER='YXKY''THBMOT' run 'i2cget -y -f 1 0x4b 0xd'
YXKYTHBMOT0x1b
YXKYTHBMOT 0
root@arm:~# echo 'OBKQ''QNHSNQ'
OBKQQNHSNQ
root@arm:~# MARKER='EKGW''GTFYJP' run 'echo 980000 980000 > /sys/kernel/mva_test//regulators/buck1_set'
EKGWGTFYJPEKGWGTFYJP 0
root@arm:~# echo 'EJMX''LUKXBO'
EJMXLUKXBO
root@arm:~# MARKER='ZPOV''NYMJMC' run 'i2cget -y -f 1 0x4b 0xd'
ZPOVNYMJMC0x1c
ZPOVNYMJMC 0
root@arm:~# echo 'LXUX''MQZYWU'
LXUXMQZYWU
root@arm:~# MARKER='YASJ''XSNVBZ' run 'echo 990000 990000 > /sys/kernel/mva_test//regulators/buck1_set'
YASJXSNVBZYASJXSNVBZ 0
root@arm:~# echo 'LUZV''QWGFSA'
LUZVQWGFSA
root@arm:~# MARKER='ZFWG''FVHQKW' run 'i2cget -y -f 1 0x4b 0xd'
ZFWGFVHQKW0x1d
ZFWGFVHQKW 0
root@arm:~# echo 'FACN''YBPPKO'
FACNYBPPKO
root@arm:~# MARKER='UQQM''YZTTZA' run 'echo 1000000 1000000 > /sys/kernel/mva_tesst/regulators/buck1_set'
UQQMYZTTZAUQQMYZTTZA 0
root@arm:~# echo 'MNZW''XUVHVG'
MNZWXUVHVG
root@arm:~# MARKER='NMXY''BVPFWO' run 'i2cget -y -f 1 0x4b 0xd'
NMXYBVPFWO0x1e
NMXYBVPFWO 0
root@arm:~# echo 'VVYB''XSNLAG'
VVYBXSNLAG
root@arm:~# MARKER='MYUA''HLHXJH' run 'echo 1010000 1010000 > /sys/kernel/mva_tesst/regulators/buck1_set'
MYUAHLHXJHMYUAHLHXJH 0
root@arm:~# echo 'XOKV''OVTXTY'
XOKVOVTXTY
root@arm:~# MARKER='NKPJ''UBHWNC' run 'i2cget -y -f 1 0x4b 0xd'
NKPJUBHWNC0x1f
NKPJUBHWNC 0
root@arm:~# echo 'MHGF''KSONWK'
MHGFKSONWK
root@arm:~# MARKER='CBUK''JEHAZL' run 'echo 1020000 1020000 > /sys/kernel/mva_tesst/regulators/buck1_set'
CBUKJEHAZLCBUKJEHAZL 0
root@arm:~# echo 'ETMQ''WYPUZJ'
ETMQWYPUZJ
root@arm:~# MARKER='YAML''SNBLZN' run 'i2cget -y -f 1 0x4b 0xd'
YAMLSNBLZN0x20
YAMLSNBLZN 0
root@arm:~# echo 'BSUA''MAVNNG'
BSUAMAVNNG
root@arm:~# MARKER='TFGZ''ZQQCLA' run 'echo 1030000 1030000 > /sys/kernel/mva_tesst/regulators/buck1_set'
TFGZZQQCLATFGZZQQCLA 0
root@arm:~# echo 'NEAE''LPTEEF'
NEAELPTEEF
root@arm:~# MARKER='SYMU''ZVEQHP' run 'i2cget -y -f 1 0x4b 0xd'
SYMUZVEQHP0x21
SYMUZVEQHP 0
root@arm:~# echo 'YABY''JQPLNZ'
YABYJQPLNZ
root@arm:~# MARKER='HJBL''BUGPUK' run 'echo 1040000 1040000 > /sys/kernel/mva_tesst/regulators/buck1_set'
HJBLBUGPUKHJBLBUGPUK 0
root@arm:~# echo 'NOUL''CUBAZF'
NOULCUBAZF
root@arm:~# MARKER='EELC''TCXJWN' run 'i2cget -y -f 1 0x4b 0xd'
EELCTCXJWN0x22
EELCTCXJWN 0
root@arm:~# echo 'NSWT''XAFGOB'
NSWTXAFGOB
root@arm:~# MARKER='GSLN''ULHHYT' run 'echo 1050000 1050000 > /sys/kernel/mva_tesst/regulators/buck1_set'
GSLNULHHYTGSLNULHHYT 0
root@arm:~# echo 'YBTQ''KYSMXV'
YBTQKYSMXV
root@arm:~# MARKER='HXSA''HKWSGW' run 'i2cget -y -f 1 0x4b 0xd'
HXSAHKWSGW0x23
HXSAHKWSGW 0
root@arm:~# echo 'JZBH''JJKNBJ'
JZBHJJKNBJ
root@arm:~# MARKER='MNJW''PXYPLF' run 'echo 1060000 1060000 > /sys/kernel/mva_tesst/regulators/buck1_set'
MNJWPXYPLFMNJWPXYPLF 0
root@arm:~# echo 'ZLLO''GGXUWM'
ZLLOGGXUWM
root@arm:~# MARKER='SGYX''ZCWPLO' run 'i2cget -y -f 1 0x4b 0xd'
SGYXZCWPLO0x24
SGYXZCWPLO 0
root@arm:~# echo 'XAOF''XCTJMC'
XAOFXCTJMC
root@arm:~# MARKER='KKSF''LKLMBX' run 'echo 1070000 1070000 > /sys/kernel/mva_tesst/regulators/buck1_set'
KKSFLKLMBXKKSFLKLMBX 0
root@arm:~# echo 'MLFW''AAMZUZ'
MLFWAAMZUZ
root@arm:~# MARKER='AHQT''AMLAEM' run 'i2cget -y -f 1 0x4b 0xd'
AHQTAMLAEM0x25
AHQTAMLAEM 0
root@arm:~# echo 'YPNF''MTNYWT'
YPNFMTNYWT
root@arm:~# MARKER='PHCB''TNHYSA' run 'echo 1080000 1080000 > /sys/kernel/mva_tesst/regulators/buck1_set'
PHCBTNHYSAPHCBTNHYSA 0
root@arm:~# echo 'PJZN''ZWKJOA'
PJZNZWKJOA
root@arm:~# MARKER='OJTB''CFETWY' run 'i2cget -y -f 1 0x4b 0xd'
OJTBCFETWY0x26
OJTBCFETWY 0
root@arm:~# echo 'UNAH''QAMGEL'
UNAHQAMGEL
root@arm:~# MARKER='WHUA''GKVWOE' run 'echo 1090000 1090000 > /sys/kernel/mva_tesst/regulators/buck1_set'
WHUAGKVWOEWHUAGKVWOE 0
root@arm:~# echo 'ATSQ''XNVTPP'
ATSQXNVTPP
root@arm:~# MARKER='ETOO''JMYFNC' run 'i2cget -y -f 1 0x4b 0xd'
ETOOJMYFNC0x27
ETOOJMYFNC 0
root@arm:~# echo 'STYG''SZLPHT'
STYGSZLPHT
root@arm:~# MARKER='MWHB''TPFAOT' run 'echo 1100000 1100000 > /sys/kernel/mva_tesst/regulators/buck1_set'
MWHBTPFAOTMWHBTPFAOT 0
root@arm:~# echo 'ZJTW''CEZZBJ'
ZJTWCEZZBJ
root@arm:~# MARKER='UYGF''OBJYJU' run 'i2cget -y -f 1 0x4b 0xd'
UYGFOBJYJU0x28
UYGFOBJYJU 0
root@arm:~# echo 'GQZQ''NJTBUP'
GQZQNJTBUP
root@arm:~# MARKER='VHKF''YVVQCU' run 'echo 1110000 1110000 > /sys/kernel/mva_tesst/regulators/buck1_set'
VHKFYVVQCUVHKFYVVQCU 0
root@arm:~# echo 'HMHF''XYPJYN'
HMHFXYPJYN
root@arm:~# MARKER='LKJN''LQBZHW' run 'i2cget -y -f 1 0x4b 0xd'
LKJNLQBZHW0x29
LKJNLQBZHW 0
root@arm:~# echo 'OBMG''FXZWUX'
OBMGFXZWUX
root@arm:~# MARKER='AOOW''OGNPXH' run 'echo 1120000 1120000 > /sys/kernel/mva_tesst/regulators/buck1_set'
AOOWOGNPXHAOOWOGNPXH 0
root@arm:~# echo 'WQPC''GHATFZ'
WQPCGHATFZ
root@arm:~# MARKER='NZUH''BKXMPU' run 'i2cget -y -f 1 0x4b 0xd'
NZUHBKXMPU0x2a
NZUHBKXMPU 0
root@arm:~# echo 'OSZG''OKUPCZ'
OSZGOKUPCZ
root@arm:~# MARKER='OFOY''ZMBBBE' run 'echo 1130000 1130000 > /sys/kernel/mva_tesst/regulators/buck1_set'
OFOYZMBBBEOFOYZMBBBE 0
root@arm:~# echo 'QHOQ''WMMOFP'
QHOQWMMOFP
root@arm:~# MARKER='YKCO''EXBZJH' run 'i2cget -y -f 1 0x4b 0xd'
YKCOEXBZJH0x2b
YKCOEXBZJH 0
root@arm:~# echo 'YJHZ''LFENQU'
YJHZLFENQU
root@arm:~# MARKER='NPVG''VFNPSB' run 'echo 1140000 1140000 > /sys/kernel/mva_tesst/regulators/buck1_set'
NPVGVFNPSBNPVGVFNPSB 0
root@arm:~# echo 'BNGE''CHUQGV'
BNGECHUQGV
root@arm:~# MARKER='YNGQ''UBWGEA' run 'i2cget -y -f 1 0x4b 0xd'
YNGQUBWGEA0x2c
YNGQUBWGEA 0
root@arm:~# echo 'MGYP''VMCVML'
MGYPVMCVML
root@arm:~# MARKER='HLCA''ZESCVO' run 'echo 1150000 1150000 > /sys/kernel/mva_tesst/regulators/buck1_set'
HLCAZESCVOHLCAZESCVO 0
root@arm:~# echo 'LMEL''OHXJKM'
LMELOHXJKM
root@arm:~# MARKER='VKVL''TVZNTU' run 'i2cget -y -f 1 0x4b 0xd'
VKVLTVZNTU0x2d
VKVLTVZNTU 0
root@arm:~# echo 'QUHH''ZGVOMB'
QUHHZGVOMB
root@arm:~# MARKER='FTGJ''BONENO' run 'echo 1160000 1160000 > /sys/kernel/mva_tesst/regulators/buck1_set'
FTGJBONENOFTGJBONENO 0
root@arm:~# echo 'NZBY''SQPFLW'
NZBYSQPFLW
root@arm:~# MARKER='LFQT''KCGXOG' run 'i2cget -y -f 1 0x4b 0xd'
LFQTKCGXOG0x2e
LFQTKCGXOG 0
root@arm:~# echo 'PAXZ''UMOTOW'
PAXZUMOTOW
root@arm:~# MARKER='GQWP''YGOCGJ' run 'echo 1170000 1170000 > /sys/kernel/mva_tesst/regulators/buck1_set'
GQWPYGOCGJGQWPYGOCGJ 0
root@arm:~# echo 'XCMV''HHMQFW'
XCMVHHMQFW
root@arm:~# MARKER='QZGM''NFJSOW' run 'i2cget -y -f 1 0x4b 0xd'
QZGMNFJSOW0x2f
QZGMNFJSOW 0
root@arm:~# echo 'CSSM''PVCCAX'
CSSMPVCCAX
root@arm:~# MARKER='CWEO''AGWHSP' run 'echo 1180000 1180000 > /sys/kernel/mva_tesst/regulators/buck1_set'
CWEOAGWHSPCWEOAGWHSP 0
root@arm:~# echo 'MHPP''UKOMAA'
MHPPUKOMAA
root@arm:~# MARKER='ZKXA''HNXHZM' run 'i2cget -y -f 1 0x4b 0xd'
ZKXAHNXHZM0x30
ZKXAHNXHZM 0
root@arm:~# echo 'FJOE''XPYGYS'
FJOEXPYGYS
root@arm:~# MARKER='LUYV''MOAAVL' run 'echo 1190000 1190000 > /sys/kernel/mva_tesst/regulators/buck1_set'
LUYVMOAAVLLUYVMOAAVL 0
root@arm:~# echo 'QPPT''AKKKAA'
QPPTAKKKAA
root@arm:~# MARKER='XTXZ''NMBYCL' run 'i2cget -y -f 1 0x4b 0xd'
XTXZNMBYCL0x31
XTXZNMBYCL 0
root@arm:~# echo 'BNML''TQOTKO'
BNMLTQOTKO
root@arm:~# MARKER='VGGC''UMMPQG' run 'echo 1200000 1200000 > /sys/kernel/mva_tesst/regulators/buck1_set'
VGGCUMMPQGVGGCUMMPQG 0
root@arm:~# echo 'KOZO''CFJVJN'
KOZOCFJVJN
root@arm:~# MARKER='BTJO''BESYQZ' run 'i2cget -y -f 1 0x4b 0xd'
BTJOBESYQZ0x32
BTJOBESYQZ 0
root@arm:~# echo 'XSWK''ZPTGWA'
XSWKZPTGWA
root@arm:~# MARKER='ABEZ''BUPSVM' run 'echo 1210000 1210000 > /sys/kernel/mva_tesst/regulators/buck1_set'
ABEZBUPSVMABEZBUPSVM 0
root@arm:~# echo 'WKHO''CWPSYB'
WKHOCWPSYB
root@arm:~# MARKER='PLFF''FMVWBN' run 'i2cget -y -f 1 0x4b 0xd'
PLFFFMVWBN0x33
PLFFFMVWBN 0
root@arm:~# echo 'YTGN''EFSSKU'
YTGNEFSSKU
root@arm:~# MARKER='MAOK''EEMCXT' run 'echo 1220000 1220000 > /sys/kernel/mva_tesst/regulators/buck1_set'
MAOKEEMCXTMAOKEEMCXT 0
root@arm:~# echo 'OCYJ''ECVUKV'
OCYJECVUKV
root@arm:~# MARKER='ZCAK''PBSNNK' run 'i2cget -y -f 1 0x4b 0xd'
ZCAKPBSNNK0x34
ZCAKPBSNNK 0
root@arm:~# echo 'XVYC''XYNNLJ'
XVYCXYNNLJ
root@arm:~# MARKER='FFJK''AJNVOB' run 'echo 1230000 1230000 > /sys/kernel/mva_tesst/regulators/buck1_set'
FFJKAJNVOBFFJKAJNVOB 0
root@arm:~# echo 'XAMQ''ENTMQE'
XAMQENTMQE
root@arm:~# MARKER='UEUJ''JSQLMW' run 'i2cget -y -f 1 0x4b 0xd'
UEUJJSQLMW0x35
UEUJJSQLMW 0
root@arm:~# echo 'QPBZ''TFEOLL'
QPBZTFEOLL
root@arm:~# MARKER='GPZV''XZYJFO' run 'echo 1240000 1240000 > /sys/kernel/mva_tesst/regulators/buck1_set'
GPZVXZYJFOGPZVXZYJFO 0
root@arm:~# echo 'QMXU''UNOEHA'
QMXUUNOEHA
root@arm:~# MARKER='XNSX''GBGANA' run 'i2cget -y -f 1 0x4b 0xd'
XNSXGBGANA0x36
XNSXGBGANA 0
root@arm:~# echo 'MOXF''BNCTTM'
MOXFBNCTTM
root@arm:~# MARKER='BJKV''QBCHHC' run 'echo 1250000 1250000 > /sys/kernel/mva_tesst/regulators/buck1_set'
BJKVQBCHHCBJKVQBCHHC 0
root@arm:~# echo 'PEEP''QBKSBM'
PEEPQBKSBM
root@arm:~# MARKER='WZAN''HVETZA' run 'i2cget -y -f 1 0x4b 0xd'
WZANHVETZA0x37
WZANHVETZA 0
root@arm:~# echo 'LVYW''XSZSPV'
LVYWXSZSPV
root@arm:~# MARKER='NMAK''TJKGMC' run 'echo 1260000 1260000 > /sys/kernel/mva_tesst/regulators/buck1_set'
NMAKTJKGMCNMAKTJKGMC 0
root@arm:~# echo 'UWPS''ZYLPSQ'
UWPSZYLPSQ
root@arm:~# MARKER='WFWA''WYEXAG' run 'i2cget -y -f 1 0x4b 0xd'
WFWAWYEXAG0x38
WFWAWYEXAG 0
root@arm:~# echo 'UGXP''KUJTTB'
UGXPKUJTTB
root@arm:~# MARKER='ENJC''HYTQXK' run 'echo 1270000 1270000 > /sys/kernel/mva_tesst/regulators/buck1_set'
ENJCHYTQXKENJCHYTQXK 0
root@arm:~# echo 'HEQV''ZPQAYN'
HEQVZPQAYN
root@arm:~# MARKER='BSOE''KZGKBA' run 'i2cget -y -f 1 0x4b 0xd'
BSOEKZGKBA0x39
BSOEKZGKBA 0
root@arm:~# echo 'ZYOM''HAYYFU'
ZYOMHAYYFU
root@arm:~# MARKER='FXUT''HNABJN' run 'echo 1280000 1280000 > /sys/kernel/mva_tesst/regulators/buck1_set'
FXUTHNABJNFXUTHNABJN 0
root@arm:~# echo 'FWPK''MSEKAL'
FWPKMSEKAL
root@arm:~# MARKER='PWUG''GSBSMQ' run 'i2cget -y -f 1 0x4b 0xd'
PWUGGSBSMQ0x3a
PWUGGSBSMQ 0
root@arm:~# echo 'TFCJ''OLEBHU'
TFCJOLEBHU
root@arm:~# MARKER='BZTY''BOBFEJ' run 'echo 1290000 1290000 > /sys/kernel/mva_tesst/regulators/buck1_set'
BZTYBOBFEJBZTYBOBFEJ 0
root@arm:~# echo 'VJJE''UWOEHW'
VJJEUWOEHW
root@arm:~# MARKER='KAJL''HHHSZE' run 'i2cget -y -f 1 0x4b 0xd'
KAJLHHHSZE0x3b
KAJLHHHSZE 0
root@arm:~# echo 'BMWH''ZNUBBB'
BMWHZNUBBB
root@arm:~# MARKER='HVXK''FBFAKX' run 'echo 1300000 1300000 > /sys/kernel/mva_tesst/regulators/buck1_set'
HVXKFBFAKXHVXKFBFAKX 0
root@arm:~# echo 'QCPX''WFPEGJ'
QCPXWFPEGJ
root@arm:~# MARKER='ACUW''SAGYKH' run 'i2cget -y -f 1 0x4b 0xd'
ACUWSAGYKH0x3c
ACUWSAGYKH 0
root@arm:~# echo 'JGWJ''NSHJAY'
JGWJNSHJAY
root@arm:~# MARKER='CZQJ''EHTHEX' run 'grep -r -l rohm,bd71847 /proc/device-tree  | sed '"'"'s![^/]*$!!'"'"''
CZQJEHTHEX/proc/device-tree/ocp/interconnect@48000000/segment@0/target-module@2a000/i2c@0/pmic@4b/
CZQJEHTHEX 0
root@arm:~# echo 'XWWV''UUVSZL'
XWWVUUVSZL
root@arm:~# MARKER='JQOL''VZWSPS' run 'test -f /proc/device-tree/ocp/interconnectt\@48000000/segment\@0/target-module\@2a000/i2c\@0/pmic\@4b/regulators/BUCK2/rohmm,no-regulator-enable-control ;echo $?'
JQOLVZWSPS1
JQOLVZWSPS 0
root@arm:~# echo 'ESBO''BQHJEC'
ESBOBQHJEC
root@arm:~# MARKER='WZNO''HOUOBS' run 'i2cget -y -f 1 0x4b 0x6'
WZNOHOUOBS0x43
WZNOHOUOBS 0
root@arm:~# echo 'OFQP''GUMKST'
OFQPGUMKST
root@arm:~# MARKER='WEBW''VGHQWY' run 'echo 700000 700000 > /sys/kernel/mva_test//regulators/buck2_set'
WEBWVGHQWYWEBWVGHQWY 0
root@arm:~# echo 'SPWE''JHYCPJ'
SPWEJHYCPJ
root@arm:~# MARKER='GECP''SLMZGH' run 'i2cget -y -f 1 0x4b 0x10'
GECPSLMZGH0x00
GECPSLMZGH 0
root@arm:~# echo 'JKCX''SJTBJC'
JKCXSJTBJC
root@arm:~# MARKER='TUQU''LBYFOE' run 'echo 710000 710000 > /sys/kernel/mva_test//regulators/buck2_set'
TUQULBYFOETUQULBYFOE 0
root@arm:~# echo 'UFKY''ZFBNJT'
UFKYZFBNJT
root@arm:~# MARKER='XWMY''KVQOHJ' run 'i2cget -y -f 1 0x4b 0x10'
XWMYKVQOHJ0x01
XWMYKVQOHJ 0
root@arm:~# echo 'OJUP''UGLEGO'
OJUPUGLEGO
root@arm:~# MARKER='ETWQ''FHWQJK' run 'echo 720000 720000 > /sys/kernel/mva_test//regulators/buck2_set'
ETWQFHWQJKETWQFHWQJK 0
root@arm:~# echo 'SPHA''JJVWPT'
SPHAJJVWPT
root@arm:~# MARKER='TTJN''ZOQYUF' run 'i2cget -y -f 1 0x4b 0x10'
TTJNZOQYUF0x02
TTJNZOQYUF 0
root@arm:~# echo 'LJOZ''TVXZCB'
LJOZTVXZCB
root@arm:~# MARKER='NYVU''PYCLTL' run 'echo 730000 730000 > /sys/kernel/mva_test//regulators/buck2_set'
NYVUPYCLTLNYVUPYCLTL 0
root@arm:~# echo 'EPFU''NEKXSV'
EPFUNEKXSV
root@arm:~# MARKER='AGVH''OFGLHY' run 'i2cget -y -f 1 0x4b 0x10'
AGVHOFGLHY0x03
AGVHOFGLHY 0
root@arm:~# echo 'CBMZ''VSQTWF'
CBMZVSQTWF
root@arm:~# MARKER='MMSN''OHVMLZ' run 'echo 740000 740000 > /sys/kernel/mva_test//regulators/buck2_set'
MMSNOHVMLZMMSNOHVMLZ 0
root@arm:~# echo 'STMK''HATUFN'
STMKHATUFN
root@arm:~# MARKER='EJMH''TKTXCA' run 'i2cget -y -f 1 0x4b 0x10'
EJMHTKTXCA0x04
EJMHTKTXCA 0
root@arm:~# echo 'OXQF''AJOEQO'
OXQFAJOEQO
root@arm:~# MARKER='QHMY''YLWMZT' run 'echo 750000 750000 > /sys/kernel/mva_test//regulators/buck2_set'
QHMYYLWMZTQHMYYLWMZT 0
root@arm:~# echo 'UGAH''OYJGMH'
UGAHOYJGMH
root@arm:~# MARKER='NUQS''UOJSSA' run 'i2cget -y -f 1 0x4b 0x10'
NUQSUOJSSA0x05
NUQSUOJSSA 0
root@arm:~# echo 'HZCA''STNWEO'
HZCASTNWEO
root@arm:~# MARKER='EWAG''NKTTFU' run 'echo 760000 760000 > /sys/kernel/mva_test//regulators/buck2_set'
EWAGNKTTFUEWAGNKTTFU 0
root@arm:~# echo 'CMZY''FZKSXF'
CMZYFZKSXF
root@arm:~# MARKER='UGBG''JPCMBT' run 'i2cget -y -f 1 0x4b 0x10'
UGBGJPCMBT0x06
UGBGJPCMBT 0
root@arm:~# echo 'MOOC''HYTUOG'
MOOCHYTUOG
root@arm:~# MARKER='ENEP''XCNQUO' run 'echo 770000 770000 > /sys/kernel/mva_test//regulators/buck2_set'
ENEPXCNQUOENEPXCNQUO 0
root@arm:~# echo 'ZGJY''CQEMLU'
ZGJYCQEMLU
root@arm:~# MARKER='UXGY''SWFWKS' run 'i2cget -y -f 1 0x4b 0x10'
UXGYSWFWKS0x07
UXGYSWFWKS 0
root@arm:~# echo 'GYSJ''YBKYKJ'
GYSJYBKYKJ
root@arm:~# MARKER='BYFT''LSQAEH' run 'echo 780000 780000 > /sys/kernel/mva_test//regulators/buck2_set'
BYFTLSQAEHBYFTLSQAEH 0
root@arm:~# echo 'NVUV''UZEOTE'
NVUVUZEOTE
root@arm:~# MARKER='CQPG''ZHBAVN' run 'i2cget -y -f 1 0x4b 0x10'
CQPGZHBAVN0x08
CQPGZHBAVN 0
root@arm:~# echo 'SGSQ''JVMGSW'
SGSQJVMGSW
root@arm:~# MARKER='MKQZ''CJJUHK' run 'echo 790000 790000 > /sys/kernel/mva_test//regulators/buck2_set'
MKQZCJJUHKMKQZCJJUHK 0
root@arm:~# echo 'UWMG''UJPAFP'
UWMGUJPAFP
root@arm:~# MARKER='CQQO''QXXENP' run 'i2cget -y -f 1 0x4b 0x10'
CQQOQXXENP0x09
CQQOQXXENP 0
root@arm:~# echo 'KAKM''FZEQNC'
KAKMFZEQNC
root@arm:~# MARKER='QESO''HPFWFL' run 'echo 800000 800000 > /sys/kernel/mva_test//regulators/buck2_set'
QESOHPFWFLQESOHPFWFL 0
root@arm:~# echo 'WHJT''ZPFWBY'
WHJTZPFWBY
root@arm:~# MARKER='TFGZ''VMNTFH' run 'i2cget -y -f 1 0x4b 0x10'
TFGZVMNTFH0x0a
TFGZVMNTFH 0
root@arm:~# echo 'GPHA''FLUBQU'
GPHAFLUBQU
root@arm:~# MARKER='PXYH''OGHMFW' run 'echo 810000 810000 > /sys/kernel/mva_test//regulators/buck2_set'
PXYHOGHMFWPXYHOGHMFW 0
root@arm:~# echo 'LABT''CVBTAO'
LABTCVBTAO
root@arm:~# MARKER='SCWG''PXXXSA' run 'i2cget -y -f 1 0x4b 0x10'
SCWGPXXXSA0x0b
SCWGPXXXSA 0
root@arm:~# echo 'NKXK''VXTMWM'
NKXKVXTMWM
root@arm:~# MARKER='NTSO''BHHHYQ' run 'echo 820000 820000 > /sys/kernel/mva_test//regulators/buck2_set'
NTSOBHHHYQNTSOBHHHYQ 0
root@arm:~# echo 'PYVW''VCTPQC'
PYVWVCTPQC
root@arm:~# MARKER='ZKLC''TTVWLB' run 'i2cget -y -f 1 0x4b 0x10'
ZKLCTTVWLB0x0c
ZKLCTTVWLB 0
root@arm:~# echo 'AZJZ''EYFNAE'
AZJZEYFNAE
root@arm:~# MARKER='NSNG''THOETW' run 'echo 830000 830000 > /sys/kernel/mva_test//regulators/buck2_set'
NSNGTHOETWNSNGTHOETW 0
root@arm:~# echo 'SMXT''EWFXSH'
SMXTEWFXSH
root@arm:~# MARKER='KAAF''SZEJMN' run 'i2cget -y -f 1 0x4b 0x10'
KAAFSZEJMN0x0d
KAAFSZEJMN 0
root@arm:~# echo 'KPJN''UKMMLO'
KPJNUKMMLO
root@arm:~# MARKER='QWEK''WUFYFK' run 'echo 840000 840000 > /sys/kernel/mva_test//regulators/buck2_set'
QWEKWUFYFKQWEKWUFYFK 0
root@arm:~# echo 'LNUQ''UACVAK'
LNUQUACVAK
root@arm:~# MARKER='ZYAO''PUKCUE' run 'i2cget -y -f 1 0x4b 0x10'
ZYAOPUKCUE0x0e
ZYAOPUKCUE 0
root@arm:~# echo 'JJKF''FNXJMJ'
JJKFFNXJMJ
root@arm:~# MARKER='BUTM''KMNPLP' run 'echo 850000 850000 > /sys/kernel/mva_test//regulators/buck2_set'
BUTMKMNPLPBUTMKMNPLP 0
root@arm:~# echo 'GBKZ''KUYVHG'
GBKZKUYVHG
root@arm:~# MARKER='ATMU''WYFOYF' run 'i2cget -y -f 1 0x4b 0x10'
ATMUWYFOYF0x0f
ATMUWYFOYF 0
root@arm:~# echo 'FUGQ''PLEHLW'
FUGQPLEHLW
root@arm:~# MARKER='PNMK''OQEYKZ' run 'echo 860000 860000 > /sys/kernel/mva_test//regulators/buck2_set'
PNMKOQEYKZPNMKOQEYKZ 0
root@arm:~# echo 'YQES''MLKAQZ'
YQESMLKAQZ
root@arm:~# MARKER='VPBJ''ENAQHN' run 'i2cget -y -f 1 0x4b 0x10'
VPBJENAQHN0x10
VPBJENAQHN 0
root@arm:~# echo 'HYNL''NTENYX'
HYNLNTENYX
root@arm:~# MARKER='VKVY''MTWJBL' run 'echo 870000 870000 > /sys/kernel/mva_test//regulators/buck2_set'
VKVYMTWJBLVKVYMTWJBL 0
root@arm:~# echo 'FBQM''XYBBKX'
FBQMXYBBKX
root@arm:~# MARKER='LJCL''VNQQGU' run 'i2cget -y -f 1 0x4b 0x10'
LJCLVNQQGU0x11
LJCLVNQQGU 0
root@arm:~# echo 'NPCF''FBXEPX'
NPCFFBXEPX
root@arm:~# MARKER='NWZZ''ZGMPHP' run 'echo 880000 880000 > /sys/kernel/mva_test//regulators/buck2_set'
NWZZZGMPHPNWZZZGMPHP 0
root@arm:~# echo 'YXOO''MLWUWN'
YXOOMLWUWN
root@arm:~# MARKER='XQUC''BPUTOO' run 'i2cget -y -f 1 0x4b 0x10'
XQUCBPUTOO0x12
XQUCBPUTOO 0
root@arm:~# echo 'JZXQ''TNEGPG'
JZXQTNEGPG
root@arm:~# MARKER='ECUX''HBKLKQ' run 'echo 890000 890000 > /sys/kernel/mva_test//regulators/buck2_set'
ECUXHBKLKQECUXHBKLKQ 0
root@arm:~# echo 'HMJQ''HVCVWY'
HMJQHVCVWY
root@arm:~# MARKER='ZZFP''MHQMPB' run 'i2cget -y -f 1 0x4b 0x10'
ZZFPMHQMPB0x13
ZZFPMHQMPB 0
root@arm:~# echo 'PSKX''EYHHXY'
PSKXEYHHXY
root@arm:~# MARKER='UGZY''WBWMCE' run 'echo 900000 900000 > /sys/kernel/mva_test//regulators/buck2_set'
UGZYWBWMCEUGZYWBWMCE 0
root@arm:~# echo 'MOCS''LGTCSC'
MOCSLGTCSC
root@arm:~# MARKER='ZCBQ''PCFNZL' run 'i2cget -y -f 1 0x4b 0x10'
ZCBQPCFNZL0x14
ZCBQPCFNZL 0
root@arm:~# echo 'AOOZ''PXCOCH'
AOOZPXCOCH
root@arm:~# MARKER='UPQU''KACYAG' run 'echo 910000 910000 > /sys/kernel/mva_test//regulators/buck2_set'
UPQUKACYAGUPQUKACYAG 0
root@arm:~# echo 'FYYK''JZGMEC'
FYYKJZGMEC
root@arm:~# MARKER='GHUQ''AEXSLE' run 'i2cget -y -f 1 0x4b 0x10'
GHUQAEXSLE0x15
GHUQAEXSLE 0
root@arm:~# echo 'LLMG''NBENVO'
LLMGNBENVO
root@arm:~# MARKER='MWXH''WEOEZH' run 'echo 920000 920000 > /sys/kernel/mva_test//regulators/buck2_set'
MWXHWEOEZHMWXHWEOEZH 0
root@arm:~# echo 'OOPN''NMVLJF'
OOPNNMVLJF
root@arm:~# MARKER='YFOQ''CBOMNW' run 'i2cget -y -f 1 0x4b 0x10'
YFOQCBOMNW0x16
YFOQCBOMNW 0
root@arm:~# echo 'FOAH''TSEXCS'
FOAHTSEXCS
root@arm:~# MARKER='UZKG''GPEHFJ' run 'echo 930000 930000 > /sys/kernel/mva_test//regulators/buck2_set'
UZKGGPEHFJUZKGGPEHFJ 0
root@arm:~# echo 'ZOFV''HYZWGP'
ZOFVHYZWGP
root@arm:~# MARKER='XPYF''LNOTFV' run 'i2cget -y -f 1 0x4b 0x10'
XPYFLNOTFV0x17
XPYFLNOTFV 0
root@arm:~# echo 'CMCE''KHZTKL'
CMCEKHZTKL
root@arm:~# MARKER='HMKS''NMOWEN' run 'echo 940000 940000 > /sys/kernel/mva_test//regulators/buck2_set'
HMKSNMOWENHMKSNMOWEN 0
root@arm:~# echo 'ZWLY''NZJTWS'
ZWLYNZJTWS
root@arm:~# MARKER='MYTV''WOCFLW' run 'i2cget -y -f 1 0x4b 0x10'
MYTVWOCFLW0x18
MYTVWOCFLW 0
root@arm:~# echo 'HHVU''CQTANV'
HHVUCQTANV
root@arm:~# MARKER='WYPK''GOFKFG' run 'echo 950000 950000 > /sys/kernel/mva_test//regulators/buck2_set'
WYPKGOFKFGWYPKGOFKFG 0
root@arm:~# echo 'OVUG''GSTKAB'
OVUGGSTKAB
root@arm:~# MARKER='FQUT''KGHEPM' run 'i2cget -y -f 1 0x4b 0x10'
FQUTKGHEPM0x19
FQUTKGHEPM 0
root@arm:~# echo 'YGST''ABVQOZ'
YGSTABVQOZ
root@arm:~# MARKER='YWPN''OCQQYZ' run 'echo 960000 960000 > /sys/kernel/mva_test//regulators/buck2_set'
YWPNOCQQYZYWPNOCQQYZ 0
root@arm:~# echo 'ZQVT''OVZHJK'
ZQVTOVZHJK
root@arm:~# MARKER='YOFU''LGZASU' run 'i2cget -y -f 1 0x4b 0x10'
YOFULGZASU0x1a
YOFULGZASU 0
root@arm:~# echo 'CWCQ''SYAABA'
CWCQSYAABA
root@arm:~# MARKER='BPYU''KGLNWP' run 'echo 970000 970000 > /sys/kernel/mva_test//regulators/buck2_set'
BPYUKGLNWPBPYUKGLNWP 0
root@arm:~# echo 'VQGH''UZFWFY'
VQGHUZFWFY
root@arm:~# MARKER='SSUF''NOGVOZ' run 'i2cget -y -f 1 0x4b 0x10'
SSUFNOGVOZ0x1b
SSUFNOGVOZ 0
root@arm:~# echo 'BNAE''SNPWWL'
BNAESNPWWL
root@arm:~# MARKER='ZGZU''OYGLCW' run 'echo 980000 980000 > /sys/kernel/mva_test//regulators/buck2_set'
ZGZUOYGLCWZGZUOYGLCW 0
root@arm:~# echo 'KSSY''GBMHHB'
KSSYGBMHHB
root@arm:~# MARKER='UHJX''XLWKKU' run 'i2cget -y -f 1 0x4b 0x10'
UHJXXLWKKU0x1c
UHJXXLWKKU 0
root@arm:~# echo 'UEZX''VUKYWL'
UEZXVUKYWL
root@arm:~# MARKER='FSXB''PUOUPU' run 'echo 990000 990000 > /sys/kernel/mva_test//regulators/buck2_set'
FSXBPUOUPUFSXBPUOUPU 0
root@arm:~# echo 'NWAO''GGOVHN'
NWAOGGOVHN
root@arm:~# MARKER='QNTJ''LQSQBO' run 'i2cget -y -f 1 0x4b 0x10'
QNTJLQSQBO0x1d
QNTJLQSQBO 0
root@arm:~# echo 'LBGS''YTUFCA'
LBGSYTUFCA
root@arm:~# MARKER='EWLO''ZSOPLW' run 'echo 1000000 1000000 > /sys/kernel/mva_tesst/regulators/buck2_set'
EWLOZSOPLWEWLOZSOPLW 0
root@arm:~# echo 'BJAM''KAUCEN'
BJAMKAUCEN
root@arm:~# MARKER='VVXK''FXCPOH' run 'i2cget -y -f 1 0x4b 0x10'
VVXKFXCPOH0x1e
VVXKFXCPOH 0
root@arm:~# echo 'UTLF''MZGSQV'
UTLFMZGSQV
root@arm:~# MARKER='JGXM''CNQUAO' run 'echo 1010000 1010000 > /sys/kernel/mva_tesst/regulators/buck2_set'
JGXMCNQUAOJGXMCNQUAO 0
root@arm:~# echo 'BBZF''TQPHBH'
BBZFTQPHBH
root@arm:~# MARKER='JMEH''OOGHOL' run 'i2cget -y -f 1 0x4b 0x10'
JMEHOOGHOL0x1f
JMEHOOGHOL 0
root@arm:~# echo 'ABZJ''LOEUKQ'
ABZJLOEUKQ
root@arm:~# MARKER='YLUL''WEUHHN' run 'echo 1020000 1020000 > /sys/kernel/mva_tesst/regulators/buck2_set'
YLULWEUHHNYLULWEUHHN 0
root@arm:~# echo 'KTHQ''MUXHCF'
KTHQMUXHCF
root@arm:~# MARKER='FVCO''OQSAOT' run 'i2cget -y -f 1 0x4b 0x10'
FVCOOQSAOT0x20
FVCOOQSAOT 0
root@arm:~# echo 'XWON''ABZOJO'
XWONABZOJO
root@arm:~# MARKER='NLFO''EBGQME' run 'echo 1030000 1030000 > /sys/kernel/mva_tesst/regulators/buck2_set'
NLFOEBGQMENLFOEBGQME 0
root@arm:~# echo 'VOYM''NHAUJW'
VOYMNHAUJW
root@arm:~# MARKER='OMMW''QKAMVQ' run 'i2cget -y -f 1 0x4b 0x10'
OMMWQKAMVQ0x21
OMMWQKAMVQ 0
root@arm:~# echo 'HTWU''UUKFQB'
HTWUUUKFQB
root@arm:~# MARKER='HNCU''MCAYTS' run 'echo 1040000 1040000 > /sys/kernel/mva_tesst/regulators/buck2_set'
HNCUMCAYTSHNCUMCAYTS 0
root@arm:~# echo 'AAHO''SUFOEX'
AAHOSUFOEX
root@arm:~# MARKER='BKBL''YJTVHW' run 'i2cget -y -f 1 0x4b 0x10'
BKBLYJTVHW0x22
BKBLYJTVHW 0
root@arm:~# echo 'THNY''LNHHMX'
THNYLNHHMX
root@arm:~# MARKER='SLUY''EMCJHY' run 'echo 1050000 1050000 > /sys/kernel/mva_tesst/regulators/buck2_set'
SLUYEMCJHYSLUYEMCJHY 0
root@arm:~# echo 'CLOB''QBHEPK'
CLOBQBHEPK
root@arm:~# MARKER='EEEA''CKXQLA' run 'i2cget -y -f 1 0x4b 0x10'
EEEACKXQLA0x23
EEEACKXQLA 0
root@arm:~# echo 'AAGF''OGXVHC'
AAGFOGXVHC
root@arm:~# MARKER='NPBQ''TXXVMX' run 'echo 1060000 1060000 > /sys/kernel/mva_tesst/regulators/buck2_set'
NPBQTXXVMXNPBQTXXVMX 0
root@arm:~# echo 'AOPJ''OESKMM'
AOPJOESKMM
root@arm:~# MARKER='YSMX''NWGHCO' run 'i2cget -y -f 1 0x4b 0x10'
YSMXNWGHCO0x24
YSMXNWGHCO 0
root@arm:~# echo 'MYUW''MPNTHZ'
MYUWMPNTHZ
root@arm:~# MARKER='ANPX''PQEGFT' run 'echo 1070000 1070000 > /sys/kernel/mva_tesst/regulators/buck2_set'
ANPXPQEGFTANPXPQEGFT 0
root@arm:~# echo 'MAUG''HWYCFN'
MAUGHWYCFN
root@arm:~# MARKER='XBOL''UMJYWP' run 'i2cget -y -f 1 0x4b 0x10'
XBOLUMJYWP0x25
XBOLUMJYWP 0
root@arm:~# echo 'XUHV''BFVKJF'
XUHVBFVKJF
root@arm:~# MARKER='QSFN''KOQSTZ' run 'echo 1080000 1080000 > /sys/kernel/mva_tesst/regulators/buck2_set'
QSFNKOQSTZQSFNKOQSTZ 0
root@arm:~# echo 'WAAB''MPTYVG'
WAABMPTYVG
root@arm:~# MARKER='MNHN''OOLVGP' run 'i2cget -y -f 1 0x4b 0x10'
MNHNOOLVGP0x26
MNHNOOLVGP 0
root@arm:~# echo 'OVOG''QNQBLF'
OVOGQNQBLF
root@arm:~# MARKER='XUWB''VWOVHQ' run 'echo 1090000 1090000 > /sys/kernel/mva_tesst/regulators/buck2_set'
XUWBVWOVHQXUWBVWOVHQ 0
root@arm:~# echo 'ZEPY''XETPKU'
ZEPYXETPKU
root@arm:~# MARKER='NJGO''KZGKNC' run 'i2cget -y -f 1 0x4b 0x10'
NJGOKZGKNC0x27
NJGOKZGKNC 0
root@arm:~# echo 'MLFU''KVQOYY'
MLFUKVQOYY
root@arm:~# MARKER='JLKE''JELPOK' run 'echo 1100000 1100000 > /sys/kernel/mva_tesst/regulators/buck2_set'
JLKEJELPOKJLKEJELPOK 0
root@arm:~# echo 'FEXF''QEWFCN'
FEXFQEWFCN
root@arm:~# MARKER='HYMY''KGJJFV' run 'i2cget -y -f 1 0x4b 0x10'
HYMYKGJJFV0x28
HYMYKGJJFV 0
root@arm:~# echo 'AHQG''BGEEBQ'
AHQGBGEEBQ
root@arm:~# MARKER='PALU''WULYZZ' run 'echo 1110000 1110000 > /sys/kernel/mva_tesst/regulators/buck2_set'
PALUWULYZZPALUWULYZZ 0
root@arm:~# echo 'THZN''QBTSPA'
THZNQBTSPA
root@arm:~# MARKER='EUFY''WEFSPV' run 'i2cget -y -f 1 0x4b 0x10'
EUFYWEFSPV0x29
EUFYWEFSPV 0
root@arm:~# echo 'LHXQ''CXCZEE'
LHXQCXCZEE
root@arm:~# MARKER='VUTQ''QOFJGK' run 'echo 1120000 1120000 > /sys/kernel/mva_tesst/regulators/buck2_set'
VUTQQOFJGKVUTQQOFJGK 0
root@arm:~# echo 'XMXF''MSGZTM'
XMXFMSGZTM
root@arm:~# MARKER='PFQF''HEQAXP' run 'i2cget -y -f 1 0x4b 0x10'
PFQFHEQAXP0x2a
PFQFHEQAXP 0
root@arm:~# echo 'ENEN''TWKPMH'
ENENTWKPMH
root@arm:~# MARKER='TZQP''LACXHQ' run 'echo 1130000 1130000 > /sys/kernel/mva_tesst/regulators/buck2_set'
TZQPLACXHQTZQPLACXHQ 0
root@arm:~# echo 'XMPV''NMVSBH'
XMPVNMVSBH
root@arm:~# MARKER='JALV''JYLGEC' run 'i2cget -y -f 1 0x4b 0x10'
JALVJYLGEC0x2b
JALVJYLGEC 0
root@arm:~# echo 'OXNS''KGVUWV'
OXNSKGVUWV
root@arm:~# MARKER='ABGB''SBYJZG' run 'echo 1140000 1140000 > /sys/kernel/mva_tesst/regulators/buck2_set'
ABGBSBYJZGABGBSBYJZG 0
root@arm:~# echo 'KJWH''CZJLPW'
KJWHCZJLPW
root@arm:~# MARKER='YAZG''XPETGS' run 'i2cget -y -f 1 0x4b 0x10'
YAZGXPETGS0x2c
YAZGXPETGS 0
root@arm:~# echo 'KJEK''NXLMCG'
KJEKNXLMCG
root@arm:~# MARKER='AMUO''XXWACJ' run 'echo 1150000 1150000 > /sys/kernel/mva_tesst/regulators/buck2_set'
AMUOXXWACJAMUOXXWACJ 0
root@arm:~# echo 'JOJW''BULQXW'
JOJWBULQXW
root@arm:~# MARKER='OGOG''CPHVMG' run 'i2cget -y -f 1 0x4b 0x10'
OGOGCPHVMG0x2d
OGOGCPHVMG 0
root@arm:~# echo 'XUVV''ZQMHMW'
XUVVZQMHMW
root@arm:~# MARKER='TPEV''PGNCMF' run 'echo 1160000 1160000 > /sys/kernel/mva_tesst/regulators/buck2_set'
TPEVPGNCMFTPEVPGNCMF 0
root@arm:~# echo 'BSLS''ACGPBG'
BSLSACGPBG
root@arm:~# MARKER='CTMQ''PWTXHP' run 'i2cget -y -f 1 0x4b 0x10'
CTMQPWTXHP0x2e
CTMQPWTXHP 0
root@arm:~# echo 'MAFU''AJVQGH'
MAFUAJVQGH
root@arm:~# MARKER='TQVZ''JTJGLF' run 'echo 1170000 1170000 > /sys/kernel/mva_tesst/regulators/buck2_set'
TQVZJTJGLFTQVZJTJGLF 0
root@arm:~# echo 'JEQG''FNHKXW'
JEQGFNHKXW
root@arm:~# MARKER='VQBW''PKEUKL' run 'i2cget -y -f 1 0x4b 0x10'
VQBWPKEUKL0x2f
VQBWPKEUKL 0
root@arm:~# echo 'ZUMS''LZTJGT'
ZUMSLZTJGT
root@arm:~# MARKER='ZWWT''SPANPV' run 'echo 1180000 1180000 > /sys/kernel/mva_tesst/regulators/buck2_set'
ZWWTSPANPVZWWTSPANPV 0
root@arm:~# echo 'YPXC''UYHVMY'
YPXCUYHVMY
root@arm:~# MARKER='QFNW''ASKAYX' run 'i2cget -y -f 1 0x4b 0x10'
QFNWASKAYX0x30
QFNWASKAYX 0
root@arm:~# echo 'BJAZ''YSYWGV'
BJAZYSYWGV
root@arm:~# MARKER='PKGU''ZEMWUS' run 'echo 1190000 1190000 > /sys/kernel/mva_tesst/regulators/buck2_set'
PKGUZEMWUSPKGUZEMWUS 0
root@arm:~# echo 'HGLM''QQYSMT'
HGLMQQYSMT
root@arm:~# MARKER='QGJQ''ECPMPJ' run 'i2cget -y -f 1 0x4b 0x10'
QGJQECPMPJ0x31
QGJQECPMPJ 0
root@arm:~# echo 'KCHH''WQEZVH'
KCHHWQEZVH
root@arm:~# MARKER='JPUU''SLSKLM' run 'echo 1200000 1200000 > /sys/kernel/mva_tesst/regulators/buck2_set'
JPUUSLSKLMJPUUSLSKLM 0
root@arm:~# echo 'QCYM''XWHWVN'
QCYMXWHWVN
root@arm:~# MARKER='EXXN''HKLBES' run 'i2cget -y -f 1 0x4b 0x10'
EXXNHKLBES0x32
EXXNHKLBES 0
root@arm:~# echo 'SYKY''SPCEHQ'
SYKYSPCEHQ
root@arm:~# MARKER='FFCO''YECPPP' run 'echo 1210000 1210000 > /sys/kernel/mva_tesst/regulators/buck2_set'
FFCOYECPPPFFCOYECPPP 0
root@arm:~# echo 'CGAC''HKPUJB'
CGACHKPUJB
root@arm:~# MARKER='GSPP''QFJLXX' run 'i2cget -y -f 1 0x4b 0x10'
GSPPQFJLXX0x33
GSPPQFJLXX 0
root@arm:~# echo 'ELFT''GEQKQW'
ELFTGEQKQW
root@arm:~# MARKER='ULCM''NEVMJT' run 'echo 1220000 1220000 > /sys/kernel/mva_tesst/regulators/buck2_set'
ULCMNEVMJTULCMNEVMJT 0
root@arm:~# echo 'TGJG''FWQPZL'
TGJGFWQPZL
root@arm:~# MARKER='FOEK''WOKZQV' run 'i2cget -y -f 1 0x4b 0x10'
FOEKWOKZQV0x34
FOEKWOKZQV 0
root@arm:~# echo 'UGJH''QNZCHP'
UGJHQNZCHP
root@arm:~# MARKER='SJOW''UMPJZN' run 'echo 1230000 1230000 > /sys/kernel/mva_tesst/regulators/buck2_set'
SJOWUMPJZNSJOWUMPJZN 0
root@arm:~# echo 'LQGA''KSLMFY'
LQGAKSLMFY
root@arm:~# MARKER='NPJQ''SPESBS' run 'i2cget -y -f 1 0x4b 0x10'
NPJQSPESBS0x35
NPJQSPESBS 0
root@arm:~# echo 'VEKO''KMBNYP'
VEKOKMBNYP
root@arm:~# MARKER='EHHX''JVKHGQ' run 'echo 1240000 1240000 > /sys/kernel/mva_tesst/regulators/buck2_set'
EHHXJVKHGQEHHXJVKHGQ 0
root@arm:~# echo 'AVFA''CUJVBA'
AVFACUJVBA
root@arm:~# MARKER='XHMQ''OWNJYM' run 'i2cget -y -f 1 0x4b 0x10'
XHMQOWNJYM0x36
XHMQOWNJYM 0
root@arm:~# echo 'XOUO''FCKYUW'
XOUOFCKYUW
root@arm:~# MARKER='KTXP''ECQNTQ' run 'echo 1250000 1250000 > /sys/kernel/mva_tesst/regulators/buck2_set'
KTXPECQNTQKTXPECQNTQ 0
root@arm:~# echo 'KQNW''OAEHBN'
KQNWOAEHBN
root@arm:~# MARKER='TLQH''ZHSZJQ' run 'i2cget -y -f 1 0x4b 0x10'
TLQHZHSZJQ0x37
TLQHZHSZJQ 0
root@arm:~# echo 'GOTE''XNVJEV'
GOTEXNVJEV
root@arm:~# MARKER='UQKM''ZGQTHK' run 'echo 1260000 1260000 > /sys/kernel/mva_tesst/regulators/buck2_set'
UQKMZGQTHKUQKMZGQTHK 0
root@arm:~# echo 'GXFH''CSOPYX'
GXFHCSOPYX
root@arm:~# MARKER='KMZG''LWGWWT' run 'i2cget -y -f 1 0x4b 0x10'
KMZGLWGWWT0x38
KMZGLWGWWT 0
root@arm:~# echo 'ANJU''HJEKNW'
ANJUHJEKNW
root@arm:~# MARKER='VCXB''GABPYF' run 'echo 1270000 1270000 > /sys/kernel/mva_tesst/regulators/buck2_set'
VCXBGABPYFVCXBGABPYF 0
root@arm:~# echo 'UHAQ''QFCKFM'
UHAQQFCKFM
root@arm:~# MARKER='KZKZ''ATAAGO' run 'i2cget -y -f 1 0x4b 0x10'
KZKZATAAGO0x39
KZKZATAAGO 0
root@arm:~# echo 'NETW''WZQMLZ'
NETWWZQMLZ
root@arm:~# MARKER='UJMJ''QMQJYT' run 'echo 1280000 1280000 > /sys/kernel/mva_tesst/regulators/buck2_set'
UJMJQMQJYTUJMJQMQJYT 0
root@arm:~# echo 'XOWH''QETZUE'
XOWHQETZUE
root@arm:~# MARKER='KYAL''PBJWNM' run 'i2cget -y -f 1 0x4b 0x10'
KYALPBJWNM0x3a
KYALPBJWNM 0
root@arm:~# echo 'HKGT''PLXZPU'
HKGTPLXZPU
root@arm:~# MARKER='YWHF''WYNPTS' run 'echo 1290000 1290000 > /sys/kernel/mva_tesst/regulators/buck2_set'
YWHFWYNPTSYWHFWYNPTS 0
root@arm:~# echo 'AXZT''TEZKCC'
AXZTTEZKCC
root@arm:~# MARKER='YLVV''QFGCXF' run 'i2cget -y -f 1 0x4b 0x10'
YLVVQFGCXF0x3b
YLVVQFGCXF 0
root@arm:~# echo 'JTCS''HXXYJJ'
JTCSHXXYJJ
root@arm:~# MARKER='XTGQ''MHKPFA' run 'echo 1300000 1300000 > /sys/kernel/mva_tesst/regulators/buck2_set'
XTGQMHKPFAXTGQMHKPFA 0
root@arm:~# echo 'GTET''POZQOO'
GTETPOZQOO
root@arm:~# MARKER='GBAZ''WNGOEH' run 'i2cget -y -f 1 0x4b 0x10'
GBAZWNGOEH0x3c
GBAZWNGOEH 0
root@arm:~# echo 'LMQG''WEGNWP'
LMQGWEGNWP
root@arm:~# MARKER='YPWX''ZFLFVL' run 'grep -r -l rohm,bd71847 /proc/device-tree  | sed '"'"'s![^/]*$!!'"'"''
YPWXZFLFVL/proc/device-tree/ocp/interconnect@48000000/segment@0/target-module@2a000/i2c@0/pmic@4b/
YPWXZFLFVL 0
root@arm:~# echo 'KLWE''AASLYZ'
KLWEAASLYZ
root@arm:~# MARKER='OWYB''JMHKOY' run 'test -f /proc/device-tree/ocp/interconnectt\@48000000/segment\@0/target-module\@2a000/i2c\@0/pmic\@4b/regulators/BUCK3/rohmm,no-regulator-enable-control ;echo $?'
OWYBJMHKOY0
OWYBJMHKOY 0
root@arm:~# echo 'YKMN''AKMPGH'
YKMNAKMPGH
root@arm:~# MARKER='TUBE''NUYBWO' run 'echo 700000 700000 > /sys/kernel/mva_test//regulators/buck3_set'
TUBENUYBWOTUBENUYBWO 0
root@arm:~# echo 'EUJF''MOWXPP'
EUJFMOWXPP
root@arm:~# MARKER='MLBP''NLEHUV' run 'i2cget -y -f 1 0x4b 0x14'
MLBPNLEHUV0x00
MLBPNLEHUV 0
root@arm:~# echo 'YZGO''APSNWP'
YZGOAPSNWP
root@arm:~# MARKER='FWKX''YWLFNU' run 'echo 800000 800000 > /sys/kernel/mva_test//regulators/buck3_set'
FWKXYWLFNUFWKXYWLFNU 0
root@arm:~# echo 'FTJN''MTXUXB'
FTJNMTXUXB
root@arm:~# MARKER='XLFY''TOXLSC' run 'i2cget -y -f 1 0x4b 0x14'
XLFYTOXLSC0x01
XLFYTOXLSC 0
root@arm:~# echo 'TNCU''VSWZUK'
TNCUVSWZUK
root@arm:~# MARKER='HMQY''GHJMCA' run 'echo 900000 900000 > /sys/kernel/mva_test//regulators/buck3_set'
HMQYGHJMCAHMQYGHJMCA 0
root@arm:~# echo 'ZCTQ''GQWXZO'
ZCTQGQWXZO
root@arm:~# MARKER='ZXTA''YPUUYN' run 'i2cget -y -f 1 0x4b 0x14'
ZXTAYPUUYN0x02
ZXTAYPUUYN 0
root@arm:~# echo 'MCEB''XPNOJH'
MCEBXPNOJH
root@arm:~# MARKER='JLMF''CEFOZJ' run 'echo 1000000 1000000 > /sys/kernel/mva_tesst/regulators/buck3_set'
JLMFCEFOZJJLMFCEFOZJ 0
root@arm:~# echo 'TBYX''YZUYEY'
TBYXYZUYEY
root@arm:~# MARKER='YZLH''JBYFSU' run 'i2cget -y -f 1 0x4b 0x14'
YZLHJBYFSU0x03
YZLHJBYFSU 0
root@arm:~# echo 'ZOTH''NQQKMN'
ZOTHNQQKMN
root@arm:~# MARKER='AASU''JCXXOT' run 'echo 1050000 1050000 > /sys/kernel/mva_tesst/regulators/buck3_set'
AASUJCXXOTAASUJCXXOT 0
root@arm:~# echo 'SLWJ''FCVZNB'
SLWJFCVZNB
root@arm:~# MARKER='MNSZ''JNCTPY' run 'i2cget -y -f 1 0x4b 0x14'
MNSZJNCTPY0x04
MNSZJNCTPY 0
root@arm:~# echo 'SVFK''SJVVSL'
SVFKSJVVSL
root@arm:~# MARKER='BEFL''PGTETN' run 'echo 1100000 1100000 > /sys/kernel/mva_tesst/regulators/buck3_set'
BEFLPGTETNBEFLPGTETN 0
root@arm:~# echo 'TLOG''LKFSLN'
TLOGLKFSLN
root@arm:~# MARKER='TVNK''GCGXMJ' run 'i2cget -y -f 1 0x4b 0x14'
TVNKGCGXMJ0x05
TVNKGCGXMJ 0
root@arm:~# echo 'NABS''QJVALP'
NABSQJVALP
root@arm:~# MARKER='NYUB''PQNMLG' run 'echo 1200000 1200000 > /sys/kernel/mva_tesst/regulators/buck3_set'
NYUBPQNMLGNYUBPQNMLG 0
root@arm:~# echo 'NLKP''YZJFTZ'
NLKPYZJFTZ
root@arm:~# MARKER='ONLU''BBAZHB' run 'i2cget -y -f 1 0x4b 0x14'
ONLUBBAZHB0x06
ONLUBBAZHB 0
root@arm:~# echo 'CBPW''TFAVPL'
CBPWTFAVPL
root@arm:~# MARKER='LNNM''LTFVHX' run 'echo 1350000 1350000 > /sys/kernel/mva_tesst/regulators/buck3_set'
LNNMLTFVHXLNNMLTFVHX 0
root@arm:~# echo 'BKTT''PZTTBX'
BKTTPZTTBX
root@arm:~# MARKER='SXOB''SVTXKA' run 'i2cget -y -f 1 0x4b 0x14'
SXOBSVTXKA0x07
SXOBSVTXKA 0
root@arm:~# echo 'PZJF''XOOWXS'
PZJFXOOWXS
root@arm:~# MARKER='NBTO''CHCQUZ' run 'echo 550000 550000 > /sys/kernel/mva_test//regulators/buck3_set'
NBTOCHCQUZNBTOCHCQUZ 0
root@arm:~# echo 'VVYA''AKUWQC'
VVYAAKUWQC
root@arm:~# MARKER='QLTZ''ZSCATU' run 'i2cget -y -f 1 0x4b 0x14'
QLTZZSCATU0x40
QLTZZSCATU 0
root@arm:~# echo 'GXWM''CZHXLA'
GXWMCZHXLA
root@arm:~# MARKER='QTLX''PANNWO' run 'echo 600000 600000 > /sys/kernel/mva_test//regulators/buck3_set'
QTLXPANNWOQTLXPANNWO 0
root@arm:~# echo 'CBMP''SNXSTS'
CBMPSNXSTS
root@arm:~# MARKER='STFW''PNVALJ' run 'i2cget -y -f 1 0x4b 0x14'
STFWPNVALJ0x41
STFWPNVALJ 0
root@arm:~# echo 'VPZF''VFCENJ'
VPZFVFCENJ
root@arm:~# MARKER='EEJM''GUUXEY' run 'echo 650000 650000 > /sys/kernel/mva_test//regulators/buck3_set'
EEJMGUUXEYEEJMGUUXEY 0
root@arm:~# echo 'GKAW''PKMWHF'
GKAWPKMWHF
root@arm:~# MARKER='FUFZ''KZQJBX' run 'i2cget -y -f 1 0x4b 0x14'
FUFZKZQJBX0x42
FUFZKZQJBX 0
root@arm:~# echo 'QGOP''WYWSFX'
QGOPWYWSFX
root@arm:~# MARKER='WOTL''SGUOCB' run 'echo 700000 700000 > /sys/kernel/mva_test//regulators/buck3_set'
WOTLSGUOCBWOTLSGUOCB 0
root@arm:~# echo 'TWJC''GOMUHB'
TWJCGOMUHB
root@arm:~# MARKER='BZPZ''FOXBHP' run 'i2cget -y -f 1 0x4b 0x14'
BZPZFOXBHP0x00
BZPZFOXBHP 0
root@arm:~# echo 'ATNL''GYWPPV'
ATNLGYWPPV
root@arm:~# MARKER='SJJH''SOXGKG' run 'echo 750000 750000 > /sys/kernel/mva_test//regulators/buck3_set'
SJJHSOXGKGSJJHSOXGKG 0
root@arm:~# echo 'JVEH''OSOSPQ'
JVEHOSOSPQ
root@arm:~# MARKER='SFCV''SYUOMQ' run 'i2cget -y -f 1 0x4b 0x14'
SFCVSYUOMQ0x44
SFCVSYUOMQ 0
root@arm:~# echo 'UEBX''FEMZQV'
UEBXFEMZQV
root@arm:~# MARKER='ZHTC''SNNFEU' run 'echo 800000 800000 > /sys/kernel/mva_test//regulators/buck3_set'
ZHTCSNNFEUZHTCSNNFEU 0
root@arm:~# echo 'LHUC''SJVGKK'
LHUCSJVGKK
root@arm:~# MARKER='QHSA''BGQSMZ' run 'i2cget -y -f 1 0x4b 0x14'
QHSABGQSMZ0x01
QHSABGQSMZ 0
root@arm:~# echo 'LSUC''SZWEJL'
LSUCSZWEJL
root@arm:~# MARKER='GHHH''BBMBJC' run 'echo 850000 850000 > /sys/kernel/mva_test//regulators/buck3_set'
GHHHBBMBJCGHHHBBMBJC 0
root@arm:~# echo 'WHHW''YBNTMK'
WHHWYBNTMK
root@arm:~# MARKER='QOKB''UKYCKG' run 'i2cget -y -f 1 0x4b 0x14'
QOKBUKYCKG0x46
QOKBUKYCKG 0
root@arm:~# echo 'EABF''SQOKFU'
EABFSQOKFU
root@arm:~# MARKER='HTUM''BCQMCW' run 'echo 900000 900000 > /sys/kernel/mva_test//regulators/buck3_set'
HTUMBCQMCWHTUMBCQMCW 0
root@arm:~# echo 'TVQO''GLNBLV'
TVQOGLNBLV
root@arm:~# MARKER='SVLN''EZEOCH' run 'i2cget -y -f 1 0x4b 0x14'
SVLNEZEOCH0x02
SVLNEZEOCH 0
root@arm:~# echo 'HPPQ''NPUVQH'
HPPQNPUVQH
root@arm:~# MARKER='VEAF''HQLWAQ' run 'echo 675000 675000 > /sys/kernel/mva_test//regulators/buck3_set'
VEAFHQLWAQVEAFHQLWAQ 0
root@arm:~# echo 'FEXC''MTPVSO'
FEXCMTPVSO
root@arm:~# MARKER='TSQY''BLVEMW' run 'i2cget -y -f 1 0x4b 0x14'
TSQYBLVEMW0x80
TSQYBLVEMW 0
root@arm:~# echo 'LJAN''PTUNMB'
LJANPTUNMB
root@arm:~# MARKER='THKA''CUOKOV' run 'echo 775000 775000 > /sys/kernel/mva_test//regulators/buck3_set'
THKACUOKOVTHKACUOKOV 0
root@arm:~# echo 'CFAK''APTVPG'
CFAKAPTVPG
root@arm:~# MARKER='COJF''XYYKHC' run 'i2cget -y -f 1 0x4b 0x14'
COJFXYYKHC0x81
COJFXYYKHC 0
root@arm:~# echo 'LNZX''SHQZKP'
LNZXSHQZKP
root@arm:~# MARKER='VWHV''OXLUYH' run 'echo 875000 875000 > /sys/kernel/mva_test//regulators/buck3_set'
VWHVOXLUYHVWHVOXLUYH 0
root@arm:~# echo 'XSFE''HKQHPY'
XSFEHKQHPY
root@arm:~# MARKER='YTAG''EWYHPH' run 'i2cget -y -f 1 0x4b 0x14'
YTAGEWYHPH0x82
YTAGEWYHPH 0
root@arm:~# echo 'PVBX''TBULMC'
PVBXTBULMC
root@arm:~# MARKER='HVAH''ONYOHL' run 'echo 975000 975000 > /sys/kernel/mva_test//regulators/buck3_set'
HVAHONYOHLHVAHONYOHL 0
root@arm:~# echo 'OFJO''VAOSNV'
OFJOVAOSNV
root@arm:~# MARKER='BYMK''BJGYKE' run 'i2cget -y -f 1 0x4b 0x14'
BYMKBJGYKE0x83
BYMKBJGYKE 0
root@arm:~# echo 'WWHK''ZAZJXF'
WWHKZAZJXF
root@arm:~# MARKER='WNKW''NOFAUW' run 'echo 1025000 1025000 > /sys/kernel/mva_tesst/regulators/buck3_set'
WNKWNOFAUWWNKWNOFAUW 0
root@arm:~# echo 'UAPV''XXKOLH'
UAPVXXKOLH
root@arm:~# MARKER='SWUY''YSEAGC' run 'i2cget -y -f 1 0x4b 0x14'
SWUYYSEAGC0x84
SWUYYSEAGC 0
root@arm:~# echo 'XHSO''HFOKWJ'
XHSOHFOKWJ
root@arm:~# MARKER='HNYL''EUVVMM' run 'echo 1075000 1075000 > /sys/kernel/mva_tesst/regulators/buck3_set'
HNYLEUVVMMHNYLEUVVMM 0
root@arm:~# echo 'SGQK''QFKSWM'
SGQKQFKSWM
root@arm:~# MARKER='CPYX''NWWJBE' run 'i2cget -y -f 1 0x4b 0x14'
CPYXNWWJBE0x85
CPYXNWWJBE 0
root@arm:~# echo 'EUQN''CMYCVK'
EUQNCMYCVK
root@arm:~# MARKER='PPKY''KPNWVY' run 'echo 1175000 1175000 > /sys/kernel/mva_tesst/regulators/buck3_set'
PPKYKPNWVYPPKYKPNWVY 0
root@arm:~# echo 'NYEL''BQFZCL'
NYELBQFZCL
root@arm:~# MARKER='VXFC''FGJEBA' run 'i2cget -y -f 1 0x4b 0x14'
VXFCFGJEBA0x86
VXFCFGJEBA 0
root@arm:~# echo 'BFBA''NYFNTC'
BFBANYFNTC
root@arm:~# MARKER='LWTP''MQYBSF' run 'echo 1325000 1325000 > /sys/kernel/mva_tesst/regulators/buck3_set'
LWTPMQYBSFLWTPMQYBSF 0
root@arm:~# echo 'AQQF''NEGSMU'
AQQFNEGSMU
root@arm:~# MARKER='VPYP''UNCTLA' run 'i2cget -y -f 1 0x4b 0x14'
VPYPUNCTLA0x87
VPYPUNCTLA 0
root@arm:~# echo 'SGQN''NGCOYM'
SGQNNGCOYM
root@arm:~# MARKER='YABM''HYOYGK' run 'grep -r -l rohm,bd71847 /proc/device-tree  | sed '"'"'s![^/]*$!!'"'"''
YABMHYOYGK/proc/device-tree/ocp/interconnect@48000000/segment@0/target-module@2a000/i2c@0/pmic@4b/
YABMHYOYGK 0
root@arm:~# echo 'CSKO''FTQGMK'
CSKOFTQGMK
root@arm:~# MARKER='VNBE''WHZNLL' run 'test -f /proc/device-tree/ocp/interconnectt\@48000000/segment\@0/target-module\@2a000/i2c\@0/pmic\@4b/regulators/BUCK4/rohmm,no-regulator-enable-control ;echo $?'
VNBEWHZNLL1
VNBEWHZNLL 0
root@arm:~# echo 'NBKA''ZMESME'
NBKAZMESME
root@arm:~# MARKER='XVSN''HUWWUU' run 'i2cget -y -f 1 0x4b 0xa'
XVSNHUWWUU0x02
XVSNHUWWUU 0
root@arm:~# echo 'LNSN''XJCHMS'
LNSNXJCHMS
root@arm:~# MARKER='ANKP''SCZWSB' run 'echo 3000000 3000000 > /sys/kernel/mva_tesst/regulators/buck4_set'
ANKPSCZWSBANKPSCZWSB 0
root@arm:~# echo 'BZSO''EBCFLY'
BZSOEBCFLY
root@arm:~# MARKER='NMLP''PYLHJV' run 'i2cget -y -f 1 0x4b 0x15'
NMLPPYLHJV0x00
NMLPPYLHJV 0
root@arm:~# echo 'JVLJ''BHYCTH'
JVLJBHYCTH
root@arm:~# MARKER='AYFZ''PEZKBT' run 'echo 3100000 3100000 > /sys/kernel/mva_tesst/regulators/buck4_set'
AYFZPEZKBTAYFZPEZKBT 0
root@arm:~# echo 'ATSQ''MCAJQH'
ATSQMCAJQH
root@arm:~# MARKER='MXVA''XFVFVQ' run 'i2cget -y -f 1 0x4b 0x15'
MXVAXFVFVQ0x01
MXVAXFVFVQ 0
root@arm:~# echo 'MVLK''UWHCXW'
MVLKUWHCXW
root@arm:~# MARKER='SFVL''TPHJWT' run 'echo 3200000 3200000 > /sys/kernel/mva_tesst/regulators/buck4_set'
SFVLTPHJWTSFVLTPHJWT 0
root@arm:~# echo 'JZGY''QEXSCC'
JZGYQEXSCC
root@arm:~# MARKER='NWOZ''BMVSVS' run 'i2cget -y -f 1 0x4b 0x15'
NWOZBMVSVS0x02
NWOZBMVSVS 0
root@arm:~# echo 'GOJQ''JETKWS'
GOJQJETKWS
root@arm:~# MARKER='TPTA''OBZSPB' run 'echo 3300000 3300000 > /sys/kernel/mva_tesst/regulators/buck4_set'
TPTAOBZSPBTPTAOBZSPB 0
root@arm:~# echo 'KLPZ''NYGWJN'
KLPZNYGWJN
root@arm:~# MARKER='JJVB''TTBOGT' run 'i2cget -y -f 1 0x4b 0x15'
JJVBTTBOGT0x03
JJVBTTBOGT 0
root@arm:~# echo 'CLEW''ZEGHEU'
CLEWZEGHEU
root@arm:~# MARKER='YTYZ''GMOZBH' run 'echo 2600000 2600000 > /sys/kernel/mva_tesst/regulators/buck4_set'
YTYZGMOZBHYTYZGMOZBH 0
root@arm:~# echo 'OYPK''MLTZWT'
OYPKMLTZWT
root@arm:~# MARKER='OSAF''YJCHWW' run 'i2cget -y -f 1 0x4b 0x15'
OSAFYJCHWW0x40
OSAFYJCHWW 0
root@arm:~# echo 'YXPM''MPZLPK'
YXPMMPZLPK
root@arm:~# MARKER='BEMZ''QFHVBG' run 'echo 2700000 2700000 > /sys/kernel/mva_tesst/regulators/buck4_set'
BEMZQFHVBGBEMZQFHVBG 0
root@arm:~# echo 'LXHV''GJJBCL'
LXHVGJJBCL
root@arm:~# MARKER='XSUN''SLFEKP' run 'i2cget -y -f 1 0x4b 0x15'
XSUNSLFEKP0x41
XSUNSLFEKP 0
root@arm:~# echo 'QFQP''FKFNOV'
QFQPFKFNOV
root@arm:~# MARKER='UBLS''UYVXAT' run 'echo 2800000 2800000 > /sys/kernel/mva_tesst/regulators/buck4_set'
UBLSUYVXATUBLSUYVXAT 0
root@arm:~# echo 'SPMN''XCVXPM'
SPMNXCVXPM
root@arm:~# MARKER='OTNU''NVCQEJ' run 'i2cget -y -f 1 0x4b 0x15'
OTNUNVCQEJ0x42
OTNUNVCQEJ 0
root@arm:~# echo 'KGSN''UUFWGP'
KGSNUUFWGP
root@arm:~# MARKER='AABN''JOJCYW' run 'echo 2900000 2900000 > /sys/kernel/mva_tesst/regulators/buck4_set'
AABNJOJCYWAABNJOJCYW 0
root@arm:~# echo 'ZPMW''TPWQQX'
ZPMWTPWQQX
root@arm:~# MARKER='NUPK''OATLKC' run 'i2cget -y -f 1 0x4b 0x15'
NUPKOATLKC0x43
NUPKOATLKC 0
root@arm:~# echo 'GBZU''WGCXGJ'
GBZUWGCXGJ
root@arm:~# MARKER='NFWE''ZNOHHB' run 'grep -r -l rohm,bd71847 /proc/device-tree  | sed '"'"'s![^/]*$!!'"'"''
NFWEZNOHHB/proc/device-tree/ocp/interconnect@48000000/segment@0/target-module@2a000/i2c@0/pmic@4b/
NFWEZNOHHB 0
root@arm:~# echo 'YEOK''CNBKEP'
YEOKCNBKEP
root@arm:~# MARKER='KZEV''SZQLNG' run 'test -f /proc/device-tree/ocp/interconnectt\@48000000/segment\@0/target-module\@2a000/i2c\@0/pmic\@4b/regulators/BUCK5/rohmm,no-regulator-enable-control ;echo $?'
KZEVSZQLNG1
KZEVSZQLNG 0
root@arm:~# echo 'OCZY''GKZAVH'
OCZYGKZAVH
root@arm:~# MARKER='XJTM''PZBFVP' run 'i2cget -y -f 1 0x4b 0xb'
XJTMPZBFVP0x02
XJTMPZBFVP 0
root@arm:~# echo 'OXHZ''HCBCHF'
OXHZHCBCHF
root@arm:~# MARKER='JAHV''YBVFWN' run 'echo 1605000 1605000 > /sys/kernel/mva_tesst/regulators/buck5_set'
JAHVYBVFWNJAHVYBVFWN 0
root@arm:~# echo 'BGUO''OYWTBA'
BGUOOYWTBA
root@arm:~# MARKER='LPLA''YZCXZM' run 'i2cget -y -f 1 0x4b 0x16'
LPLAYZCXZM0x00
LPLAYZCXZM 0
root@arm:~# echo 'UPZH''GCMYNA'
UPZHGCMYNA
root@arm:~# MARKER='ACHJ''NJGVFQ' run 'echo 1695000 1695000 > /sys/kernel/mva_tesst/regulators/buck5_set'
ACHJNJGVFQACHJNJGVFQ 0
root@arm:~# echo 'OPPH''SSUCSB'
OPPHSSUCSB
root@arm:~# MARKER='SHQJ''MYUBTQ' run 'i2cget -y -f 1 0x4b 0x16'
SHQJMYUBTQ0x01
SHQJMYUBTQ 0
root@arm:~# echo 'FBXJ''HZBSBT'
FBXJHZBSBT
root@arm:~# MARKER='XACB''ASXSAU' run 'echo 1755000 1755000 > /sys/kernel/mva_tesst/regulators/buck5_set'
XACBASXSAUXACBASXSAU 0
root@arm:~# echo 'XNOZ''OUUSQV'
XNOZOUUSQV
root@arm:~# MARKER='HNYG''LMEPVY' run 'i2cget -y -f 1 0x4b 0x16'
HNYGLMEPVY0x02
HNYGLMEPVY 0
root@arm:~# echo 'NMPY''JVOMOP'
NMPYJVOMOP
root@arm:~# MARKER='QKPG''FLXOEX' run 'echo 1800000 1800000 > /sys/kernel/mva_tesst/regulators/buck5_set'
QKPGFLXOEXQKPGFLXOEX 0
root@arm:~# echo 'WVKQ''HKYEGH'
WVKQHKYEGH
root@arm:~# MARKER='CWSP''AABLGT' run 'i2cget -y -f 1 0x4b 0x16'
CWSPAABLGT0x03
CWSPAABLGT 0
root@arm:~# echo 'VZZB''KWEWNV'
VZZBKWEWNV
root@arm:~# MARKER='FXSS''EYJOUH' run 'echo 1845000 1845000 > /sys/kernel/mva_tesst/regulators/buck5_set'
FXSSEYJOUHFXSSEYJOUH 0
root@arm:~# echo 'EMVT''VHHNTQ'
EMVTVHHNTQ
root@arm:~# MARKER='GGMH''OJSHYT' run 'i2cget -y -f 1 0x4b 0x16'
GGMHOJSHYT0x04
GGMHOJSHYT 0
root@arm:~# echo 'HUSY''UXCBWQ'
HUSYUXCBWQ
root@arm:~# MARKER='XZXS''EPQXCP' run 'echo 1905000 1905000 > /sys/kernel/mva_tesst/regulators/buck5_set'
XZXSEPQXCPXZXSEPQXCP 0
root@arm:~# echo 'GBXL''OKHGBY'
GBXLOKHGBY
root@arm:~# MARKER='WZPM''UBSVGP' run 'i2cget -y -f 1 0x4b 0x16'
WZPMUBSVGP0x05
WZPMUBSVGP 0
root@arm:~# echo 'WNXL''PMOPZP'
WNXLPMOPZP
root@arm:~# MARKER='XPGZ''LZKZTY' run 'echo 1950000 1950000 > /sys/kernel/mva_tesst/regulators/buck5_set'
XPGZLZKZTYXPGZLZKZTY 0
root@arm:~# echo 'TJBC''ZHJGNV'
TJBCZHJGNV
root@arm:~# MARKER='GJZG''HTFULV' run 'i2cget -y -f 1 0x4b 0x16'
GJZGHTFULV0x06
GJZGHTFULV 0
root@arm:~# echo 'GKMF''VKHZVV'
GKMFVKHZVV
root@arm:~# MARKER='PAMK''QLJNXM' run 'echo 1995000 1995000 > /sys/kernel/mva_tesst/regulators/buck5_set'
PAMKQLJNXMPAMKQLJNXM 0
root@arm:~# echo 'APWA''SCEANA'
APWASCEANA
root@arm:~# MARKER='FGGY''JYUJUW' run 'i2cget -y -f 1 0x4b 0x16'
FGGYJYUJUW0x07
FGGYJYUJUW 0
root@arm:~# echo 'XGZU''WXEMHJ'
XGZUWXEMHJ
root@arm:~# MARKER='LLHK''XGUOTX' run 'grep -r -l rohm,bd71847 /proc/device-tree  | sed '"'"'s![^/]*$!!'"'"''
LLHKXGUOTX/proc/device-tree/ocp/interconnect@48000000/segment@0/target-module@2a000/i2c@0/pmic@4b/
LLHKXGUOTX 0
root@arm:~# echo 'QXYA''YYUOTU'
QXYAYYUOTU
root@arm:~# MARKER='XXSA''UWOCOX' run 'test -f /proc/device-tree/ocp/interconnectt\@48000000/segment\@0/target-module\@2a000/i2c\@0/pmic\@4b/regulators/BUCK6/rohmm,no-regulator-enable-control ;echo $?'
XXSAUWOCOX1
XXSAUWOCOX 0
root@arm:~# echo 'JJNE''GELWMP'
JJNEGELWMP
root@arm:~# MARKER='SUSU''ZFUWLW' run 'i2cget -y -f 1 0x4b 0xc'
SUSUZFUWLW0x02
SUSUZFUWLW 0
root@arm:~# echo 'VETC''GWZSJE'
VETCGWZSJE
root@arm:~# MARKER='QOMY''JLKJKN' run 'echo 800000 800000 > /sys/kernel/mva_test//regulators/buck6_set'
QOMYJLKJKNQOMYJLKJKN 0
root@arm:~# echo 'HEPN''SLUGBO'
HEPNSLUGBO
root@arm:~# MARKER='HJFH''JVTMZT' run 'i2cget -y -f 1 0x4b 0x17'
HJFHJVTMZT0x00
HJFHJVTMZT 0
root@arm:~# echo 'CENZ''BZBOGW'
CENZBZBOGW
root@arm:~# MARKER='BOYV''LWYCOE' run 'echo 810000 810000 > /sys/kernel/mva_test//regulators/buck6_set'
BOYVLWYCOEBOYVLWYCOE 0
root@arm:~# echo 'ECOX''SWUSPW'
ECOXSWUSPW
root@arm:~# MARKER='LYBT''YPXKEV' run 'i2cget -y -f 1 0x4b 0x17'
LYBTYPXKEV0x01
LYBTYPXKEV 0
root@arm:~# echo 'ASUP''SWXXZB'
ASUPSWXXZB
root@arm:~# MARKER='QKQE''QHLAPE' run 'echo 820000 820000 > /sys/kernel/mva_test//regulators/buck6_set'
QKQEQHLAPEQKQEQHLAPE 0
root@arm:~# echo 'UOLQ''ZPZTGO'
UOLQZPZTGO
root@arm:~# MARKER='KLVA''CSFYUQ' run 'i2cget -y -f 1 0x4b 0x17'
KLVACSFYUQ0x02
KLVACSFYUQ 0
root@arm:~# echo 'JJYG''WBLYSG'
JJYGWBLYSG
root@arm:~# MARKER='ZUHO''FQBQYJ' run 'echo 830000 830000 > /sys/kernel/mva_test//regulators/buck6_set'
ZUHOFQBQYJZUHOFQBQYJ 0
root@arm:~# echo 'KYQT''XNFKMC'
KYQTXNFKMC
root@arm:~# MARKER='MXEF''KJKECF' run 'i2cget -y -f 1 0x4b 0x17'
MXEFKJKECF0x03
MXEFKJKECF 0
root@arm:~# echo 'YSUL''LMHXFO'
YSULLMHXFO
root@arm:~# MARKER='OXLK''NNLQYH' run 'echo 840000 840000 > /sys/kernel/mva_test//regulators/buck6_set'
OXLKNNLQYHOXLKNNLQYH 0
root@arm:~# echo 'TZCB''YNFYZK'
TZCBYNFYZK
root@arm:~# MARKER='FQLQ''AGGWNJ' run 'i2cget -y -f 1 0x4b 0x17'
FQLQAGGWNJ0x04
FQLQAGGWNJ 0
root@arm:~# echo 'PLMH''UMYHTJ'
PLMHUMYHTJ
root@arm:~# MARKER='KEPB''SLMNQT' run 'echo 850000 850000 > /sys/kernel/mva_test//regulators/buck6_set'
KEPBSLMNQTKEPBSLMNQT 0
root@arm:~# echo 'BFCX''CQTQLL'
BFCXCQTQLL
root@arm:~# MARKER='BVYH''BXBQSP' run 'i2cget -y -f 1 0x4b 0x17'
BVYHBXBQSP0x05
BVYHBXBQSP 0
root@arm:~# echo 'QGTV''LNCVUK'
QGTVLNCVUK
root@arm:~# MARKER='GWJM''GOAUAE' run 'echo 860000 860000 > /sys/kernel/mva_test//regulators/buck6_set'
GWJMGOAUAEGWJMGOAUAE 0
root@arm:~# echo 'ASYU''OJMJCM'
ASYUOJMJCM
root@arm:~# MARKER='PJVQ''WTFVWM' run 'i2cget -y -f 1 0x4b 0x17'
PJVQWTFVWM0x06
PJVQWTFVWM 0
root@arm:~# echo 'BQEG''XYSOCZ'
BQEGXYSOCZ
root@arm:~# MARKER='QMBE''HUOPOA' run 'echo 870000 870000 > /sys/kernel/mva_test//regulators/buck6_set'
QMBEHUOPOAQMBEHUOPOA 0
root@arm:~# echo 'MQGH''BTYCSM'
MQGHBTYCSM
root@arm:~# MARKER='VNPB''YPVTFT' run 'i2cget -y -f 1 0x4b 0x17'
VNPBYPVTFT0x07
VNPBYPVTFT 0
root@arm:~# echo 'VQQQ''FCWFAK'
VQQQFCWFAK
root@arm:~# MARKER='EZGF''GCWQYB' run 'echo 880000 880000 > /sys/kernel/mva_test//regulators/buck6_set'
EZGFGCWQYBEZGFGCWQYB 0
root@arm:~# echo 'NEQQ''BSNHHJ'
NEQQBSNHHJ
root@arm:~# MARKER='TLXL''NKNVUX' run 'i2cget -y -f 1 0x4b 0x17'
TLXLNKNVUX0x08
TLXLNKNVUX 0
root@arm:~# echo 'HUNT''GGOKZV'
HUNTGGOKZV
root@arm:~# MARKER='VTHB''EOULUN' run 'echo 890000 890000 > /sys/kernel/mva_test//regulators/buck6_set'
VTHBEOULUNVTHBEOULUN 0
root@arm:~# echo 'QCGN''AVLQNO'
QCGNAVLQNO
root@arm:~# MARKER='NLJY''HMTCSE' run 'i2cget -y -f 1 0x4b 0x17'
NLJYHMTCSE0x09
NLJYHMTCSE 0
root@arm:~# echo 'OPLQ''NBQXON'
OPLQNBQXON
root@arm:~# MARKER='OHCG''OGEAGQ' run 'echo 900000 900000 > /sys/kernel/mva_test//regulators/buck6_set'
OHCGOGEAGQOHCGOGEAGQ 0
root@arm:~# echo 'CXNT''MVTZCL'
CXNTMVTZCL
root@arm:~# MARKER='WHYE''LSVHWX' run 'i2cget -y -f 1 0x4b 0x17'
WHYELSVHWX0x0a
WHYELSVHWX 0
root@arm:~# echo 'NZBZ''UTOJNY'
NZBZUTOJNY
root@arm:~# MARKER='AKVO''OUPANJ' run 'echo 910000 910000 > /sys/kernel/mva_test//regulators/buck6_set'
AKVOOUPANJAKVOOUPANJ 0
root@arm:~# echo 'QYZX''WCSGXX'
QYZXWCSGXX
root@arm:~# MARKER='HKNA''LHTJAB' run 'i2cget -y -f 1 0x4b 0x17'
HKNALHTJAB0x0b
HKNALHTJAB 0
root@arm:~# echo 'TTZJ''YJOYCX'
TTZJYJOYCX
root@arm:~# MARKER='JUBM''UXLUJA' run 'echo 920000 920000 > /sys/kernel/mva_test//regulators/buck6_set'
JUBMUXLUJAJUBMUXLUJA 0
root@arm:~# echo 'QSBT''UPTUAA'
QSBTUPTUAA
root@arm:~# MARKER='TBJG''ZOMQKW' run 'i2cget -y -f 1 0x4b 0x17'
TBJGZOMQKW0x0c
TBJGZOMQKW 0
root@arm:~# echo 'LUFQ''WFNLCP'
LUFQWFNLCP
root@arm:~# MARKER='OLMP''HUQOKT' run 'echo 930000 930000 > /sys/kernel/mva_test//regulators/buck6_set'
OLMPHUQOKTOLMPHUQOKT 0
root@arm:~# echo 'PYNJ''UFGFUN'
PYNJUFGFUN
root@arm:~# MARKER='HSEQ''AFJJAB' run 'i2cget -y -f 1 0x4b 0x17'
HSEQAFJJAB0x0d
HSEQAFJJAB 0
root@arm:~# echo 'FWLM''TFZTQZ'
FWLMTFZTQZ
root@arm:~# MARKER='UBHQ''MPTYUF' run 'echo 940000 940000 > /sys/kernel/mva_test//regulators/buck6_set'
UBHQMPTYUFUBHQMPTYUF 0
root@arm:~# echo 'NABS''VFBSOG'
NABSVFBSOG
root@arm:~# MARKER='VJHL''EVYWYG' run 'i2cget -y -f 1 0x4b 0x17'
VJHLEVYWYG0x0e
VJHLEVYWYG 0
root@arm:~# echo 'KJFE''UNZXAC'
KJFEUNZXAC
root@arm:~# MARKER='HYGJ''UVMQGE' run 'echo 950000 950000 > /sys/kernel/mva_test//regulators/buck6_set'
HYGJUVMQGEHYGJUVMQGE 0
root@arm:~# echo 'GPCN''WLTABV'
GPCNWLTABV
root@arm:~# MARKER='GGET''EYKCAO' run 'i2cget -y -f 1 0x4b 0x17'
GGETEYKCAO0x0f
GGETEYKCAO 0
root@arm:~# echo 'QYQM''CPTGWH'
QYQMCPTGWH
root@arm:~# MARKER='HYBJ''LZJCMO' run 'echo 960000 960000 > /sys/kernel/mva_test//regulators/buck6_set'
HYBJLZJCMOHYBJLZJCMO 0
root@arm:~# echo 'LUZL''PPUHWY'
LUZLPPUHWY
root@arm:~# MARKER='NTWY''MQHVBC' run 'i2cget -y -f 1 0x4b 0x17'
NTWYMQHVBC0x10
NTWYMQHVBC 0
root@arm:~# echo 'GTUC''WKQVXT'
GTUCWKQVXT
root@arm:~# MARKER='VECH''YHFKBJ' run 'echo 970000 970000 > /sys/kernel/mva_test//regulators/buck6_set'
VECHYHFKBJVECHYHFKBJ 0
root@arm:~# echo 'GCLN''QSBKWQ'
GCLNQSBKWQ
root@arm:~# MARKER='UVKE''HQZXCZ' run 'i2cget -y -f 1 0x4b 0x17'
UVKEHQZXCZ0x11
UVKEHQZXCZ 0
root@arm:~# echo 'AYJJ''EKTTGC'
AYJJEKTTGC
root@arm:~# MARKER='AJEF''WHJUQF' run 'echo 980000 980000 > /sys/kernel/mva_test//regulators/buck6_set'
AJEFWHJUQFAJEFWHJUQF 0
root@arm:~# echo 'YXAB''ZGYGVK'
YXABZGYGVK
root@arm:~# MARKER='YFNG''NWNQFL' run 'i2cget -y -f 1 0x4b 0x17'
YFNGNWNQFL0x12
YFNGNWNQFL 0
root@arm:~# echo 'JLTF''XUYKJL'
JLTFXUYKJL
root@arm:~# MARKER='ACVO''YBJVOC' run 'echo 990000 990000 > /sys/kernel/mva_test//regulators/buck6_set'
ACVOYBJVOCACVOYBJVOC 0
root@arm:~# echo 'VNFZ''ZZCESK'
VNFZZZCESK
root@arm:~# MARKER='XWSN''CMBVTZ' run 'i2cget -y -f 1 0x4b 0x17'
XWSNCMBVTZ0x13
XWSNCMBVTZ 0
root@arm:~# echo 'KBWY''YWYJAQ'
KBWYYWYJAQ
root@arm:~# MARKER='JZQP''GBWWTV' run 'echo 1000000 1000000 > /sys/kernel/mva_tesst/regulators/buck6_set'
JZQPGBWWTVJZQPGBWWTV 0
root@arm:~# echo 'ACAA''ETPHBZ'
ACAAETPHBZ
root@arm:~# MARKER='YKVX''TSXOBX' run 'i2cget -y -f 1 0x4b 0x17'
YKVXTSXOBX0x14
YKVXTSXOBX 0
root@arm:~# echo 'GUTJ''KMPZYN'
GUTJKMPZYN
root@arm:~# MARKER='TZCA''AZBAZC' run 'echo 1010000 1010000 > /sys/kernel/mva_tesst/regulators/buck6_set'
TZCAAZBAZCTZCAAZBAZC 0
root@arm:~# echo 'NGYK''BOGHPG'
NGYKBOGHPG
root@arm:~# MARKER='QCVZ''NFAULF' run 'i2cget -y -f 1 0x4b 0x17'
QCVZNFAULF0x15
QCVZNFAULF 0
root@arm:~# echo 'UXTH''GGKGXP'
UXTHGGKGXP
root@arm:~# MARKER='KENZ''PQASSN' run 'echo 1020000 1020000 > /sys/kernel/mva_tesst/regulators/buck6_set'
KENZPQASSNKENZPQASSN 0
root@arm:~# echo 'HCKM''QCHKOX'
HCKMQCHKOX
root@arm:~# MARKER='PLMW''JQNNSF' run 'i2cget -y -f 1 0x4b 0x17'
PLMWJQNNSF0x16
PLMWJQNNSF 0
root@arm:~# echo 'TWCN''WOWWZJ'
TWCNWOWWZJ
root@arm:~# MARKER='ZUKU''QQBYQE' run 'echo 1030000 1030000 > /sys/kernel/mva_tesst/regulators/buck6_set'
ZUKUQQBYQEZUKUQQBYQE 0
root@arm:~# echo 'FMGU''SYOOGN'
FMGUSYOOGN
root@arm:~# MARKER='OOTM''ATJMHZ' run 'i2cget -y -f 1 0x4b 0x17'
OOTMATJMHZ0x17
OOTMATJMHZ 0
root@arm:~# echo 'VBUX''NXHMAK'
VBUXNXHMAK
root@arm:~# MARKER='ZUBV''QSQSCC' run 'echo 1040000 1040000 > /sys/kernel/mva_tesst/regulators/buck6_set'
ZUBVQSQSCCZUBVQSQSCC 0
root@arm:~# echo 'PJPM''AKQQCQ'
PJPMAKQQCQ
root@arm:~# MARKER='FYKZ''CUWNVT' run 'i2cget -y -f 1 0x4b 0x17'
FYKZCUWNVT0x18
FYKZCUWNVT 0
root@arm:~# echo 'PLWG''WTFFYJ'
PLWGWTFFYJ
root@arm:~# MARKER='QKFE''KZMZVB' run 'echo 1050000 1050000 > /sys/kernel/mva_tesst/regulators/buck6_set'
QKFEKZMZVBQKFEKZMZVB 0
root@arm:~# echo 'VOLS''EXNLSC'
VOLSEXNLSC
root@arm:~# MARKER='UULQ''AJALWP' run 'i2cget -y -f 1 0x4b 0x17'
UULQAJALWP0x19
UULQAJALWP 0
root@arm:~# echo 'THVS''MHHUWJ'
THVSMHHUWJ
root@arm:~# MARKER='CFZO''MHFGEV' run 'echo 1060000 1060000 > /sys/kernel/mva_tesst/regulators/buck6_set'
CFZOMHFGEVCFZOMHFGEV 0
root@arm:~# echo 'YHLX''JHCJYX'
YHLXJHCJYX
root@arm:~# MARKER='JOJE''PHBZLQ' run 'i2cget -y -f 1 0x4b 0x17'
JOJEPHBZLQ0x1a
JOJEPHBZLQ 0
root@arm:~# echo 'SPCV''LTKSYC'
SPCVLTKSYC
root@arm:~# MARKER='UJHQ''FTBXMU' run 'echo 1070000 1070000 > /sys/kernel/mva_tesst/regulators/buck6_set'
UJHQFTBXMUUJHQFTBXMU 0
root@arm:~# echo 'NEMC''WCCJSM'
NEMCWCCJSM
root@arm:~# MARKER='BZKU''APNSYW' run 'i2cget -y -f 1 0x4b 0x17'
BZKUAPNSYW0x1b
BZKUAPNSYW 0
root@arm:~# echo 'JJTZ''PAXVQT'
JJTZPAXVQT
root@arm:~# MARKER='FNLJ''VGKVYO' run 'echo 1080000 1080000 > /sys/kernel/mva_tesst/regulators/buck6_set'
FNLJVGKVYOFNLJVGKVYO 0
root@arm:~# echo 'QVZV''SNVAAN'
QVZVSNVAAN
root@arm:~# MARKER='FMUX''LCKLZO' run 'i2cget -y -f 1 0x4b 0x17'
FMUXLCKLZO0x1c
FMUXLCKLZO 0
root@arm:~# echo 'WOAA''GYBKGU'
WOAAGYBKGU
root@arm:~# MARKER='XNCU''NNKFUV' run 'echo 1090000 1090000 > /sys/kernel/mva_tesst/regulators/buck6_set'
XNCUNNKFUVXNCUNNKFUV 0
root@arm:~# echo 'SXHQ''FZACQT'
SXHQFZACQT
root@arm:~# MARKER='SLHV''EYGLQZ' run 'i2cget -y -f 1 0x4b 0x17'
SLHVEYGLQZ0x1d
SLHVEYGLQZ 0
root@arm:~# echo 'KVJS''AEVFOH'
KVJSAEVFOH
root@arm:~# MARKER='VGPO''TUOWWL' run 'echo 1100000 1100000 > /sys/kernel/mva_tesst/regulators/buck6_set'
VGPOTUOWWLVGPOTUOWWL 0
root@arm:~# echo 'EALM''JPEEKX'
EALMJPEEKX
root@arm:~# MARKER='EEUZ''QHMHQM' run 'i2cget -y -f 1 0x4b 0x17'
EEUZQHMHQM0x1e
EEUZQHMHQM 0
root@arm:~# echo 'KNKH''OFYLJL'
KNKHOFYLJL
root@arm:~# MARKER='FVLS''MZCGNE' run 'echo 1110000 1110000 > /sys/kernel/mva_tesst/regulators/buck6_set'
FVLSMZCGNEFVLSMZCGNE 0
root@arm:~# echo 'KKPE''TFPABY'
KKPETFPABY
root@arm:~# MARKER='VVBZ''ESEVYN' run 'i2cget -y -f 1 0x4b 0x17'
VVBZESEVYN0x1f
VVBZESEVYN 0
root@arm:~# echo 'TSJT''EECNXJ'
TSJTEECNXJ
root@arm:~# MARKER='KAMC''HGMYZK' run 'echo 1120000 1120000 > /sys/kernel/mva_tesst/regulators/buck6_set'
KAMCHGMYZKKAMCHGMYZK 0
root@arm:~# echo 'TYWY''YQMONX'
TYWYYQMONX
root@arm:~# MARKER='KWJS''JPMKYJ' run 'i2cget -y -f 1 0x4b 0x17'
KWJSJPMKYJ0x20
KWJSJPMKYJ 0
root@arm:~# echo 'OUJM''OXFTCL'
OUJMOXFTCL
root@arm:~# MARKER='GFCJ''AJOVKG' run 'echo 1130000 1130000 > /sys/kernel/mva_tesst/regulators/buck6_set'
GFCJAJOVKGGFCJAJOVKG 0
root@arm:~# echo 'GNEE''XHQHLO'
GNEEXHQHLO
root@arm:~# MARKER='PTLH''XPYPUB' run 'i2cget -y -f 1 0x4b 0x17'
PTLHXPYPUB0x21
PTLHXPYPUB 0
root@arm:~# echo 'OUJP''UYTHWV'
OUJPUYTHWV
root@arm:~# MARKER='TQLH''JSLQQT' run 'echo 1140000 1140000 > /sys/kernel/mva_tesst/regulators/buck6_set'
TQLHJSLQQTTQLHJSLQQT 0
root@arm:~# echo 'WZAM''GAFHBJ'
WZAMGAFHBJ
root@arm:~# MARKER='SYTG''KPHBSK' run 'i2cget -y -f 1 0x4b 0x17'
SYTGKPHBSK0x22
SYTGKPHBSK 0
root@arm:~# echo 'UMGU''VBLSTJ'
UMGUVBLSTJ
root@arm:~# MARKER='XUAV''WMKGAC' run 'echo 1150000 1150000 > /sys/kernel/mva_tesst/regulators/buck6_set'
XUAVWMKGACXUAVWMKGAC 0
root@arm:~# echo 'XTOX''MGVMVQ'
XTOXMGVMVQ
root@arm:~# MARKER='KMYN''SAUZSP' run 'i2cget -y -f 1 0x4b 0x17'
KMYNSAUZSP0x23
KMYNSAUZSP 0
root@arm:~# echo 'YKEN''USGBXP'
YKENUSGBXP
root@arm:~# MARKER='UBZS''YUYALM' run 'echo 1160000 1160000 > /sys/kernel/mva_tesst/regulators/buck6_set'
UBZSYUYALMUBZSYUYALM 0
root@arm:~# echo 'PJZX''QQMZYJ'
PJZXQQMZYJ
root@arm:~# MARKER='LKLF''XNPBTX' run 'i2cget -y -f 1 0x4b 0x17'
LKLFXNPBTX0x24
LKLFXNPBTX 0
root@arm:~# echo 'XBNX''EQZVMZ'
XBNXEQZVMZ
root@arm:~# MARKER='EZHB''QPMGZE' run 'echo 1170000 1170000 > /sys/kernel/mva_tesst/regulators/buck6_set'
EZHBQPMGZEEZHBQPMGZE 0
root@arm:~# echo 'MAGB''XLZACP'
MAGBXLZACP
root@arm:~# MARKER='OTLM''PUXLAZ' run 'i2cget -y -f 1 0x4b 0x17'
OTLMPUXLAZ0x25
OTLMPUXLAZ 0
root@arm:~# echo 'BHYB''GHZPFU'
BHYBGHZPFU
root@arm:~# MARKER='CLWB''TZLLCH' run 'echo 1180000 1180000 > /sys/kernel/mva_tesst/regulators/buck6_set'
CLWBTZLLCHCLWBTZLLCH 0
root@arm:~# echo 'PAQW''UGGTFH'
PAQWUGGTFH
root@arm:~# MARKER='PJFH''WSCHNK' run 'i2cget -y -f 1 0x4b 0x17'
PJFHWSCHNK0x26
PJFHWSCHNK 0
root@arm:~# echo 'QXEX''VVPAYA'
QXEXVVPAYA
root@arm:~# MARKER='WVZS''JEPKVB' run 'echo 1190000 1190000 > /sys/kernel/mva_tesst/regulators/buck6_set'
WVZSJEPKVBWVZSJEPKVB 0
root@arm:~# echo 'VJXU''OLNAQY'
VJXUOLNAQY
root@arm:~# MARKER='EFPS''PAZGAO' run 'i2cget -y -f 1 0x4b 0x17'
EFPSPAZGAO0x27
EFPSPAZGAO 0
root@arm:~# echo 'XVEU''LNASJB'
XVEULNASJB
root@arm:~# MARKER='OGVA''EZKQME' run 'echo 1200000 1200000 > /sys/kernel/mva_tesst/regulators/buck6_set'
OGVAEZKQMEOGVAEZKQME 0
root@arm:~# echo 'GVEY''HVPPAB'
GVEYHVPPAB
root@arm:~# MARKER='TBZH''YGAOKW' run 'i2cget -y -f 1 0x4b 0x17'
TBZHYGAOKW0x28
TBZHYGAOKW 0
root@arm:~# echo 'ASBM''WNJKKN'
ASBMWNJKKN
root@arm:~# MARKER='AJJO''ZFPMSU' run 'echo 1210000 1210000 > /sys/kernel/mva_tesst/regulators/buck6_set'
AJJOZFPMSUAJJOZFPMSU 0
root@arm:~# echo 'ZGNH''WXGHMU'
ZGNHWXGHMU
root@arm:~# MARKER='BCOS''LOYQXS' run 'i2cget -y -f 1 0x4b 0x17'
BCOSLOYQXS0x29
BCOSLOYQXS 0
root@arm:~# echo 'EAXB''FPUOYV'
EAXBFPUOYV
root@arm:~# MARKER='OSBG''YCZXLW' run 'echo 1220000 1220000 > /sys/kernel/mva_tesst/regulators/buck6_set'
OSBGYCZXLWOSBGYCZXLW 0
root@arm:~# echo 'NZHW''BQKNEF'
NZHWBQKNEF
root@arm:~# MARKER='WWEL''JTGHUG' run 'i2cget -y -f 1 0x4b 0x17'
WWELJTGHUG0x2a
WWELJTGHUG 0
root@arm:~# echo 'OCLT''XLYCVH'
OCLTXLYCVH
root@arm:~# MARKER='BBJM''CPFUKO' run 'echo 1230000 1230000 > /sys/kernel/mva_tesst/regulators/buck6_set'
BBJMCPFUKOBBJMCPFUKO 0
root@arm:~# echo 'NBJL''SWOUJZ'
NBJLSWOUJZ
root@arm:~# MARKER='VQXE''ZNPQFK' run 'i2cget -y -f 1 0x4b 0x17'
VQXEZNPQFK0x2b
VQXEZNPQFK 0
root@arm:~# echo 'TZZO''SLMFXZ'
TZZOSLMFXZ
root@arm:~# MARKER='WAKT''CNCKMC' run 'echo 1240000 1240000 > /sys/kernel/mva_tesst/regulators/buck6_set'
WAKTCNCKMCWAKTCNCKMC 0
root@arm:~# echo 'EMLT''BKGJLY'
EMLTBKGJLY
root@arm:~# MARKER='HJSQ''EPMXYL' run 'i2cget -y -f 1 0x4b 0x17'
HJSQEPMXYL0x2c
HJSQEPMXYL 0
root@arm:~# echo 'YBNG''UYLMWY'
YBNGUYLMWY
root@arm:~# MARKER='UHSN''ULAYTV' run 'echo 1250000 1250000 > /sys/kernel/mva_tesst/regulators/buck6_set'
UHSNULAYTVUHSNULAYTV 0
root@arm:~# echo 'XSEE''EUNYJQ'
XSEEEUNYJQ
root@arm:~# MARKER='PKJZ''WWKKEY' run 'i2cget -y -f 1 0x4b 0x17'
PKJZWWKKEY0x2d
PKJZWWKKEY 0
root@arm:~# echo 'EXAN''MEHFQZ'
EXANMEHFQZ
root@arm:~# MARKER='ZXJJ''VYHFHX' run 'echo 1260000 1260000 > /sys/kernel/mva_tesst/regulators/buck6_set'
ZXJJVYHFHXZXJJVYHFHX 0
root@arm:~# echo 'NAUQ''EEMGLQ'
NAUQEEMGLQ
root@arm:~# MARKER='ENMA''YEELUZ' run 'i2cget -y -f 1 0x4b 0x17'
ENMAYEELUZ0x2e
ENMAYEELUZ 0
root@arm:~# echo 'TNKB''QGKLZV'
TNKBQGKLZV
root@arm:~# MARKER='VYYQ''FVWEXE' run 'echo 1270000 1270000 > /sys/kernel/mva_tesst/regulators/buck6_set'
VYYQFVWEXEVYYQFVWEXE 0
root@arm:~# echo 'WSOM''STQJNJ'
WSOMSTQJNJ
root@arm:~# MARKER='SPSP''CBPHQQ' run 'i2cget -y -f 1 0x4b 0x17'
SPSPCBPHQQ0x2f
SPSPCBPHQQ 0
root@arm:~# echo 'MOLT''AKTXLH'
MOLTAKTXLH
root@arm:~# MARKER='LZQC''SUEXWT' run 'echo 1280000 1280000 > /sys/kernel/mva_tesst/regulators/buck6_set'
LZQCSUEXWTLZQCSUEXWT 0
root@arm:~# echo 'GEUQ''VLJQFC'
GEUQVLJQFC
root@arm:~# MARKER='CTQE''ZTBQXL' run 'i2cget -y -f 1 0x4b 0x17'
CTQEZTBQXL0x30
CTQEZTBQXL 0
root@arm:~# echo 'SZVN''GGWMPT'
SZVNGGWMPT
root@arm:~# MARKER='UHFM''QABHYQ' run 'echo 1290000 1290000 > /sys/kernel/mva_tesst/regulators/buck6_set'
UHFMQABHYQUHFMQABHYQ 0
root@arm:~# echo 'UTQH''LWHTBC'
UTQHLWHTBC
root@arm:~# MARKER='GNEK''QSFOOX' run 'i2cget -y -f 1 0x4b 0x17'
GNEKQSFOOX0x31
GNEKQSFOOX 0
root@arm:~# echo 'HQOT''ZTEMFK'
HQOTZTEMFK
root@arm:~# MARKER='HZBN''TMJWUK' run 'echo 1300000 1300000 > /sys/kernel/mva_tesst/regulators/buck6_set'
HZBNTMJWUKHZBNTMJWUK 0
root@arm:~# echo 'YCFN''BMMMGF'
YCFNBMMMGF
root@arm:~# MARKER='CEYK''MZUQTY' run 'i2cget -y -f 1 0x4b 0x17'
CEYKMZUQTY0x32
CEYKMZUQTY 0
root@arm:~# echo 'TYFA''CSCTVH'
TYFACSCTVH
root@arm:~# MARKER='ZCVM''MZGSVU' run 'echo 1310000 1310000 > /sys/kernel/mva_tesst/regulators/buck6_set'
ZCVMMZGSVUZCVMMZGSVU 0
root@arm:~# echo 'OHTT''PAOOAE'
OHTTPAOOAE
root@arm:~# MARKER='EJXC''WOSWYN' run 'i2cget -y -f 1 0x4b 0x17'
EJXCWOSWYN0x33
EJXCWOSWYN 0
root@arm:~# echo 'YZYE''PUJKVG'
YZYEPUJKVG
root@arm:~# MARKER='YKFX''SYELVF' run 'echo 1320000 1320000 > /sys/kernel/mva_tesst/regulators/buck6_set'
YKFXSYELVFYKFXSYELVF 0
root@arm:~# echo 'ELYZ''BYYZAN'
ELYZBYYZAN
root@arm:~# MARKER='KVNO''CLEPQC' run 'i2cget -y -f 1 0x4b 0x17'
KVNOCLEPQC0x34
KVNOCLEPQC 0
root@arm:~# echo 'PYZG''YFQJCB'
PYZGYFQJCB
root@arm:~# MARKER='XBKH''AHKEAO' run 'echo 1330000 1330000 > /sys/kernel/mva_tesst/regulators/buck6_set'
XBKHAHKEAOXBKHAHKEAO 0
root@arm:~# echo 'XMCN''NFNUSF'
XMCNNFNUSF
root@arm:~# MARKER='OWZE''SFVUTT' run 'i2cget -y -f 1 0x4b 0x17'
OWZESFVUTT0x35
OWZESFVUTT 0
root@arm:~# echo 'GBQF''LJTUTG'
GBQFLJTUTG
root@arm:~# MARKER='YNTF''QXCUYC' run 'echo 1340000 1340000 > /sys/kernel/mva_tesst/regulators/buck6_set'
YNTFQXCUYCYNTFQXCUYC 0
root@arm:~# echo 'GZZN''HEZWYK'
GZZNHEZWYK
root@arm:~# MARKER='GFQQ''GBAZCO' run 'i2cget -y -f 1 0x4b 0x17'
GFQQGBAZCO0x36
GFQQGBAZCO 0
root@arm:~# echo 'WBSV''ZMYZCC'
WBSVZMYZCC
root@arm:~# MARKER='WTTH''PCWPQK' run 'echo 1350000 1350000 > /sys/kernel/mva_tesst/regulators/buck6_set'
WTTHPCWPQKWTTHPCWPQK 0
root@arm:~# echo 'GLHX''PHCFXJ'
GLHXPHCFXJ
root@arm:~# MARKER='YWAQ''QBOPQC' run 'i2cget -y -f 1 0x4b 0x17'
YWAQQBOPQC0x37
YWAQQBOPQC 0
root@arm:~# echo 'MUYH''EFKVOB'
MUYHEFKVOB
root@arm:~# MARKER='KOYV''NXKWZK' run 'echo 1360000 1360000 > /sys/kernel/mva_tesst/regulators/buck6_set'
KOYVNXKWZKKOYVNXKWZK 0
root@arm:~# echo 'AYLE''TBSAHB'
AYLETBSAHB
root@arm:~# MARKER='JJOF''XBBMMV' run 'i2cget -y -f 1 0x4b 0x17'
JJOFXBBMMV0x38
JJOFXBBMMV 0
root@arm:~# echo 'YWHZ''UNMBKZ'
YWHZUNMBKZ
root@arm:~# MARKER='JVVS''MFZUJZ' run 'echo 1370000 1370000 > /sys/kernel/mva_tesst/regulators/buck6_set'
JVVSMFZUJZJVVSMFZUJZ 0
root@arm:~# echo 'PAGX''XHYZVP'
PAGXXHYZVP
root@arm:~# MARKER='QPPV''CGVWSQ' run 'i2cget -y -f 1 0x4b 0x17'
QPPVCGVWSQ0x39
QPPVCGVWSQ 0
root@arm:~# echo 'KFZC''XEQHLY'
KFZCXEQHLY
root@arm:~# MARKER='KOAF''ECTBFH' run 'echo 1380000 1380000 > /sys/kernel/mva_tesst/regulators/buck6_set'
KOAFECTBFHKOAFECTBFH 0
root@arm:~# echo 'AEGM''HEULPJ'
AEGMHEULPJ
root@arm:~# MARKER='MGLC''AMWZJT' run 'i2cget -y -f 1 0x4b 0x17'
MGLCAMWZJT0x3a
MGLCAMWZJT 0
root@arm:~# echo 'MKSQ''WTFYNC'
MKSQWTFYNC
root@arm:~# MARKER='EJQC''PYTSMV' run 'echo 1390000 1390000 > /sys/kernel/mva_tesst/regulators/buck6_set'
EJQCPYTSMVEJQCPYTSMV 0
root@arm:~# echo 'PQVV''KAZNFJ'
PQVVKAZNFJ
root@arm:~# MARKER='XZBV''TWYLNM' run 'i2cget -y -f 1 0x4b 0x17'
XZBVTWYLNM0x3b
XZBVTWYLNM 0
root@arm:~# echo 'VBWN''FZCOZM'
VBWNFZCOZM
root@arm:~# MARKER='HBGL''LLGVSX' run 'echo 1400000 1400000 > /sys/kernel/mva_tesst/regulators/buck6_set'
HBGLLLGVSXHBGLLLGVSX 0
root@arm:~# echo 'EUCU''KKEQTX'
EUCUKKEQTX
root@arm:~# MARKER='AKVV''MJKJYA' run 'i2cget -y -f 1 0x4b 0x17'
AKVVMJKJYA0x3c
AKVVMJKJYA 0
root@arm:~# echo 'PAXW''GXVGPJ'
PAXWGXVGPJ
root@arm:~# MARKER='LJMO''HBSPUB' run 'grep -r -l rohm,bd71847 /proc/device-tree  | sed '"'"'s![^/]*$!!'"'"''
LJMOHBSPUB/proc/device-tree/ocp/interconnect@48000000/segment@0/target-module@2a000/i2c@0/pmic@4b/
LJMOHBSPUB 0
root@arm:~# echo 'WXNN''WYFZGH'
WXNNWYFZGH
root@arm:~# MARKER='OYAO''KNHTKG' run 'test -f /proc/device-tree/ocp/interconnectt\@48000000/segment\@0/target-module\@2a000/i2c\@0/pmic\@4b/regulators/LDO1/rohm,,no-regulator-enable-control ;echo $?'
OYAOKNHTKG1
OYAOKNHTKG 0
root@arm:~# echo 'WMHM''XTQKEU'
WMHMXTQKEU
root@arm:~# MARKER='UZLF''LPBAPU' run 'i2cget -y -f 1 0x4b 0x18'
UZLFLPBAPU0xa2
UZLFLPBAPU 0
root@arm:~# echo 'KAQP''YWVPZS'
KAQPYWVPZS
