Labgrid Console Logfile for main
Logfile started at 2024-12-19 09:40:32.185285
=== Log starts here ===

root@arm:~# run() { echo -n "$MARKER"; sh -c "$@"; echo "$MARKER $?"; }
root@arm:~# echo 'JJFO''GYCHSF'
JJFOGYCHSF
root@arm:~# MARKER='MLWJ''ZQUJGB' run 'grep -r -l rohm,bd71847 /proc/device-tree  | sed '"'"'s![^/]*$!!'"'"''
MLWJZQUJGB/proc/device-tree/ocp/interconnect@48000000/segment@0/target-module@2a000/i2c@0/pmic@4b/
MLWJZQUJGB 0
root@arm:~# echo 'JCFW''MCTZGG'
JCFWMCTZGG
root@arm:~# MARKER='KSVA''JKGMZV' run 'test -f /proc/device-tree/ocp/interconnectt\@48000000/segment\@0/target-module\@2a000/i2c\@0/pmic\@4b/regulators/BUCK1/rohmm,no-regulator-enable-control ;echo $?'
KSVAJKGMZV1
KSVAJKGMZV 0
root@arm:~# echo 'FBTN''HHUCFA'
FBTNHHUCFA
root@arm:~# MARKER='SKWM''CLZKXF' run 'echo 1 > /sys/kernel/mva_test/regulators/bbuck1_en'
SKWMCLZKXFSKWMCLZKXF 0
root@arm:~# echo 'OGJM''LGJYYX'
OGJMLGJYYX
root@arm:~# MARKER='WOVP''JFHJGG' run 'i2cget -y -f 1 0x4b 0x5'
WOVPJFHJGG0x03
WOVPJFHJGG 0
root@arm:~# echo 'KHNS''CKBMQN'
KHNSCKBMQN
root@arm:~# MARKER='VPFG''BKVZFL' run 'grep -r -l rohm,bd71847 /proc/device-tree  | sed '"'"'s![^/]*$!!'"'"''
VPFGBKVZFL/proc/device-tree/ocp/interconnect@48000000/segment@0/target-module@2a000/i2c@0/pmic@4b/
VPFGBKVZFL 0
root@arm:~# echo 'VOMV''BVLMML'
VOMVBVLMML
root@arm:~# MARKER='CHLJ''HUHNYE' run 'test -f /proc/device-tree/ocp/interconnectt\@48000000/segment\@0/target-module\@2a000/i2c\@0/pmic\@4b/regulators/BUCK1/rohmm,no-regulator-enable-control ;echo $?'
CHLJHUHNYE1
CHLJHUHNYE 0
root@arm:~# echo 'ZHKM''SPANVE'
ZHKMSPANVE
root@arm:~# MARKER='GWAB''QGXHEG' run 'grep -r -l rohm,bd71847 /proc/device-tree  | sed '"'"'s![^/]*$!!'"'"''
GWABQGXHEG/proc/device-tree/ocp/interconnect@48000000/segment@0/target-module@2a000/i2c@0/pmic@4b/
GWABQGXHEG 0
root@arm:~# echo 'NCXK''XMLCQO'
NCXKXMLCQO
root@arm:~# MARKER='XNQE''KBLGKO' run 'test -f /proc/device-tree/ocp/interconnectt\@48000000/segment\@0/target-module\@2a000/i2c\@0/pmic\@4b/regulators/BUCK1/reg ulator-always-on ;echo $?'
XNQEKBLGKO1
XNQEKBLGKO 0
root@arm:~# echo 'MCQA''VVESHB'
MCQAVVESHB
root@arm:~# MARKER='TZVN''HUYOHH' run 'echo 0 > /sys/kernel/mva_test/regulators/bbuck1_en'
TZVNHUYOHHTZVNHUYOHH 0
root@arm:~# echo 'GUHU''UFPVLU'
GUHUUFPVLU
root@arm:~# MARKER='UAZL''VFZEXG' run 'i2cget -y -f 1 0x4b 0x5'
UAZLVFZEXG0x02
UAZLVFZEXG 0
root@arm:~# echo 'BQVP''YAGWGO'
BQVPYAGWGO
root@arm:~# MARKER='QBCT''ZCJNKK' run 'grep -r -l rohm,bd71847 /proc/device-tree  | sed '"'"'s![^/]*$!!'"'"''
QBCTZCJNKK/proc/device-tree/ocp/interconnect@48000000/segment@0/target-module@2a000/i2c@0/pmic@4b/
QBCTZCJNKK 0
root@arm:~# echo 'QYEJ''AAZBLO'
QYEJAAZBLO
root@arm:~# MARKER='AKXM''UAVOBA' run 'test -f /proc/device-tree/ocp/interconnectt\@48000000/segment\@0/target-module\@2a000/i2c\@0/pmic\@4b/regulators/BUCK2/rohmm,no-regulator-enable-control ;echo $?'
AKXMUAVOBA1
AKXMUAVOBA 0
root@arm:~# echo 'OQWJ''OPPJXH'
OQWJOPPJXH
root@arm:~# MARKER='KLVC''HYFUHZ' run 'echo 1 > /sys/kernel/mva_test/regulators/bbuck2_en'
KLVCHYFUHZKLVCHYFUHZ 0
root@arm:~# echo 'WKCV''SYAUSF'
WKCVSYAUSF
root@arm:~# MARKER='VEEL''EEHFYK' run 'i2cget -y -f 1 0x4b 0x6'
VEELEEHFYK0x43
VEELEEHFYK 0
root@arm:~# echo 'GPKE''ENUMPW'
GPKEENUMPW
root@arm:~# MARKER='LVFV''FEOJHW' run 'grep -r -l rohm,bd71847 /proc/device-tree  | sed '"'"'s![^/]*$!!'"'"''
LVFVFEOJHW/proc/device-tree/ocp/interconnect@48000000/segment@0/target-module@2a000/i2c@0/pmic@4b/
LVFVFEOJHW 0
root@arm:~# echo 'TPAY''MLEASQ'
TPAYMLEASQ
root@arm:~# MARKER='ZMQZ''VOKSVS' run 'test -f /proc/device-tree/ocp/interconnectt\@48000000/segment\@0/target-module\@2a000/i2c\@0/pmic\@4b/regulators/BUCK2/rohmm,no-regulator-enable-control ;echo $?'
ZMQZVOKSVS1
ZMQZVOKSVS 0
root@arm:~# echo 'MFUP''FWCMAP'
MFUPFWCMAP
root@arm:~# MARKER='VHJZ''MFMEMC' run 'grep -r -l rohm,bd71847 /proc/device-tree  | sed '"'"'s![^/]*$!!'"'"''
VHJZMFMEMC/proc/device-tree/ocp/interconnect@48000000/segment@0/target-module@2a000/i2c@0/pmic@4b/
VHJZMFMEMC 0
root@arm:~# echo 'NGFK''XZJJFK'
NGFKXZJJFK
root@arm:~# MARKER='AFXA''GOAUXN' run 'test -f /proc/device-tree/ocp/interconnectt\@48000000/segment\@0/target-module\@2a000/i2c\@0/pmic\@4b/regulators/BUCK2/reguulator-always-on ;echo $?'
AFXAGOAUXN0
AFXAGOAUXN 0
root@arm:~# echo 'SSEY''JFZCTF'
SSEYJFZCTF
root@arm:~# MARKER='JVOA''EKXNKC' run 'grep -r -l rohm,bd71847 /proc/device-tree  | sed '"'"'s![^/]*$!!'"'"''
JVOAEKXNKC/proc/device-tree/ocp/interconnect@48000000/segment@0/target-module@2a000/i2c@0/pmic@4b/
JVOAEKXNKC 0
root@arm:~# echo 'LBOV''EJOWSB'
LBOVEJOWSB
root@arm:~# MARKER='KNKH''ZWQKAC' run 'test -f /proc/device-tree/ocp/interconnectt\@48000000/segment\@0/target-module\@2a000/i2c\@0/pmic\@4b/regulators/BUCK3/rohmm,no-regulator-enable-control ;echo $?'
KNKHZWQKAC0
KNKHZWQKAC 0
root@arm:~# echo 'WVLW''VUHBNE'
WVLWVUHBNE
root@arm:~# MARKER='EYVT''ATZXUF' run 'grep -r -l rohm,bd71847 /proc/device-tree  | sed '"'"'s![^/]*$!!'"'"''
EYVTATZXUF/proc/device-tree/ocp/interconnect@48000000/segment@0/target-module@2a000/i2c@0/pmic@4b/
EYVTATZXUF 0
root@arm:~# echo 'EVZX''SMZPZQ'
EVZXSMZPZQ
root@arm:~# MARKER='LUBS''XMTZKJ' run 'test -f /proc/device-tree/ocp/interconnectt\@48000000/segment\@0/target-module\@2a000/i2c\@0/pmic\@4b/regulators/BUCK3/rohmm,no-regulator-enable-control ;echo $?'
LUBSXMTZKJ0
LUBSXMTZKJ 0
root@arm:~# echo 'QYYH''KFNJVT'
QYYHKFNJVT
root@arm:~# MARKER='FBCU''FKZSVQ' run 'grep -r -l rohm,bd71847 /proc/device-tree  | sed '"'"'s![^/]*$!!'"'"''
FBCUFKZSVQ/proc/device-tree/ocp/interconnect@48000000/segment@0/target-module@2a000/i2c@0/pmic@4b/
FBCUFKZSVQ 0
root@arm:~# echo 'GYHJ''VZCNXB'
GYHJVZCNXB
root@arm:~# MARKER='YUZX''QXQVBT' run 'test -f /proc/device-tree/ocp/interconnectt\@48000000/segment\@0/target-module\@2a000/i2c\@0/pmic\@4b/regulators/BUCK4/rohmm,no-regulator-enable-control ;echo $?'
YUZXQXQVBT1
YUZXQXQVBT 0
root@arm:~# echo 'YOXK''UAALYS'
YOXKUAALYS
root@arm:~# MARKER='UTHA''XHEPBO' run 'echo 1 > /sys/kernel/mva_test/regulators/bbuck4_en'
UTHAXHEPBOUTHAXHEPBO 0
root@arm:~# echo 'ATJK''FZGYLU'
ATJKFZGYLU
root@arm:~# MARKER='FNEQ''GHWTYJ' run 'i2cget -y -f 1 0x4b 0xa'
FNEQGHWTYJ0x03
FNEQGHWTYJ 0
root@arm:~# echo 'GKWC''LXEQVO'
GKWCLXEQVO
root@arm:~# MARKER='MNLO''WAWYEG' run 'grep -r -l rohm,bd71847 /proc/device-tree  | sed '"'"'s![^/]*$!!'"'"''
MNLOWAWYEG/proc/device-tree/ocp/interconnect@48000000/segment@0/target-module@2a000/i2c@0/pmic@4b/
MNLOWAWYEG 0
root@arm:~# echo 'QAWK''SUBUSK'
QAWKSUBUSK
root@arm:~# MARKER='LVKO''NCQJWG' run 'test -f /proc/device-tree/ocp/interconnectt\@48000000/segment\@0/target-module\@2a000/i2c\@0/pmic\@4b/regulators/BUCK4/rohmm,no-regulator-enable-control ;echo $?'
LVKONCQJWG1
LVKONCQJWG 0
root@arm:~# echo 'YWKW''CMCOBN'
YWKWCMCOBN
root@arm:~# MARKER='NNVV''YMKMQF' run 'grep -r -l rohm,bd71847 /proc/device-tree  | sed '"'"'s![^/]*$!!'"'"''
NNVVYMKMQF/proc/device-tree/ocp/interconnect@48000000/segment@0/target-module@2a000/i2c@0/pmic@4b/
NNVVYMKMQF 0
root@arm:~# echo 'ATWV''ESTBTL'
ATWVESTBTL
root@arm:~# MARKER='YHGX''APOAXQ' run 'test -f /proc/device-tree/ocp/interconnectt\@48000000/segment\@0/target-module\@2a000/i2c\@0/pmic\@4b/regulators/BUCK4/reguulator-always-on ;echo $?'
YHGXAPOAXQ1
YHGXAPOAXQ 0
root@arm:~# echo 'SUNT''BTCNMF'
SUNTBTCNMF
root@arm:~# MARKER='OQAO''XKNXMT' run 'echo 0 > /sys/kernel/mva_test/regulators/bbuck4_en'
OQAOXKNXMTOQAOXKNXMT 0
root@arm:~# echo 'CTGG''XVBJKX'
CTGGXVBJKX
root@arm:~# MARKER='JEOY''GKACPC' run 'i2cget -y -f 1 0x4b 0xa'
JEOYGKACPC0x02
JEOYGKACPC 0
root@arm:~# echo 'SNBK''UJKESY'
SNBKUJKESY
root@arm:~# MARKER='EJQT''LNUPZN' run 'grep -r -l rohm,bd71847 /proc/device-tree  | sed '"'"'s![^/]*$!!'"'"''
EJQTLNUPZN/proc/device-tree/ocp/interconnect@48000000/segment@0/target-module@2a000/i2c@0/pmic@4b/
EJQTLNUPZN 0
root@arm:~# echo 'TSXH''BMLJCC'
TSXHBMLJCC
root@arm:~# MARKER='XWXT''WXCBAC' run 'test -f /proc/device-tree/ocp/interconnectt\@48000000/segment\@0/target-module\@2a000/i2c\@0/pmic\@4b/regulators/BUCK5/rohmm,no-regulator-enable-control ;echo $?'
XWXTWXCBAC1
XWXTWXCBAC 0
root@arm:~# echo 'QWVS''UYBEVV'
QWVSUYBEVV
root@arm:~# MARKER='JLGM''LNLBCF' run 'echo 1 > /sys/kernel/mva_test/regulators/bbuck5_en'
JLGMLNLBCFJLGMLNLBCF 0
root@arm:~# echo 'XVYE''NFQZPV'
XVYENFQZPV
root@arm:~# MARKER='HEEE''VZVQVS' run 'i2cget -y -f 1 0x4b 0xb'
HEEEVZVQVS0x03
HEEEVZVQVS 0
root@arm:~# echo 'TWNT''KUEELY'
TWNTKUEELY
root@arm:~# MARKER='VWUN''BNMSET' run 'grep -r -l rohm,bd71847 /proc/device-tree  | sed '"'"'s![^/]*$!!'"'"''
VWUNBNMSET/proc/device-tree/ocp/interconnect@48000000/segment@0/target-module@2a000/i2c@0/pmic@4b/
VWUNBNMSET 0
root@arm:~# echo 'ZHOZ''JBYMGJ'
ZHOZJBYMGJ
root@arm:~# MARKER='AUFE''CXPKXP' run 'test -f /proc/device-tree/ocp/interconnectt\@48000000/segment\@0/target-module\@2a000/i2c\@0/pmic\@4b/regulators/BUCK5/rohmm,no-regulator-enable-control ;echo $?'
AUFECXPKXP1
AUFECXPKXP 0
root@arm:~# echo 'GSNO''WAXUEB'
GSNOWAXUEB
root@arm:~# MARKER='SCSC''NQJXPQ' run 'grep -r -l rohm,bd71847 /proc/device-tree  | sed '"'"'s![^/]*$!!'"'"''
SCSCNQJXPQ/proc/device-tree/ocp/interconnect@48000000/segment@0/target-module@2a000/i2c@0/pmic@4b/
SCSCNQJXPQ 0
root@arm:~# echo 'AEXZ''OJGYZG'
AEXZOJGYZG
root@arm:~# MARKER='QHMF''FLKAMG' run 'test -f /proc/device-tree/ocp/interconnectt\@48000000/segment\@0/target-module\@2a000/i2c\@0/pmic\@4b/regulators/BUCK5/reguulator-always-on ;echo $?'
QHMFFLKAMG1
QHMFFLKAMG 0
root@arm:~# echo 'SZZJ''UJZYMJ'
SZZJUJZYMJ
root@arm:~# MARKER='OESM''TEOBNT' run 'echo 0 > /sys/kernel/mva_test/regulators/bbuck5_en'
OESMTEOBNTOESMTEOBNT 0
root@arm:~# echo 'TXAB''NUSCPQ'
TXABNUSCPQ
root@arm:~# MARKER='LBTK''NCAYFY' run 'i2cget -y -f 1 0x4b 0xb'
LBTKNCAYFY0x02
LBTKNCAYFY 0
root@arm:~# echo 'OCXG''ZXUJHN'
OCXGZXUJHN
root@arm:~# MARKER='KEQW''ZQSPQQ' run 'grep -r -l rohm,bd71847 /proc/device-tree  | sed '"'"'s![^/]*$!!'"'"''
KEQWZQSPQQ/proc/device-tree/ocp/interconnect@48000000/segment@0/target-module@2a000/i2c@0/pmic@4b/
KEQWZQSPQQ 0
root@arm:~# echo 'OTSB''VAZHJH'
OTSBVAZHJH
root@arm:~# MARKER='SVOO''GOKYNM' run 'test -f /proc/device-tree/ocp/interconnectt\@48000000/segment\@0/target-module\@2a000/i2c\@0/pmic\@4b/regulators/BUCK6/rohmm,no-regulator-enable-control ;echo $?'
SVOOGOKYNM1
SVOOGOKYNM 0
root@arm:~# echo 'HSGO''ZJJZEL'
HSGOZJJZEL
root@arm:~# MARKER='UKLF''FSEWQL' run 'echo 1 > /sys/kernel/mva_test/regulators/bbuck6_en'
UKLFFSEWQLUKLFFSEWQL 0
root@arm:~# echo 'GEVM''NPYOOQ'
GEVMNPYOOQ
root@arm:~# MARKER='TWKU''OASKGH' run 'i2cget -y -f 1 0x4b 0xc'
TWKUOASKGH0x03
TWKUOASKGH 0
root@arm:~# echo 'EMJH''JAJKST'
EMJHJAJKST
root@arm:~# MARKER='GLTL''YHMZXW' run 'grep -r -l rohm,bd71847 /proc/device-tree  | sed '"'"'s![^/]*$!!'"'"''
GLTLYHMZXW/proc/device-tree/ocp/interconnect@48000000/segment@0/target-module@2a000/i2c@0/pmic@4b/
GLTLYHMZXW 0
root@arm:~# echo 'JUGA''XSOOMZ'
JUGAXSOOMZ
root@arm:~# MARKER='KGGA''GGKBAP' run 'test -f /proc/device-tree/ocp/interconnectt\@48000000/segment\@0/target-module\@2a000/i2c\@0/pmic\@4b/regulators/BUCK6/rohmm,no-regulator-enable-control ;echo $?'
KGGAGGKBAP1
KGGAGGKBAP 0
root@arm:~# echo 'HEBB''XSEJEJ'
HEBBXSEJEJ
root@arm:~# MARKER='MJXV''PLQNBL' run 'grep -r -l rohm,bd71847 /proc/device-tree  | sed '"'"'s![^/]*$!!'"'"''
MJXVPLQNBL/proc/device-tree/ocp/interconnect@48000000/segment@0/target-module@2a000/i2c@0/pmic@4b/
MJXVPLQNBL 0
root@arm:~# echo 'SOQL''VHCKSN'
SOQLVHCKSN
root@arm:~# MARKER='BZNT''USPMMG' run 'test -f /proc/device-tree/ocp/interconnectt\@48000000/segment\@0/target-module\@2a000/i2c\@0/pmic\@4b/regulators/BUCK6/reguulator-always-on ;echo $?'
BZNTUSPMMG1
BZNTUSPMMG 0
root@arm:~# echo 'LCPW''NPBJAN'
LCPWNPBJAN
root@arm:~# MARKER='VWKF''ZAVOAA' run 'echo 0 > /sys/kernel/mva_test/regulators/bbuck6_en'
VWKFZAVOAAVWKFZAVOAA 0
root@arm:~# echo 'YFVF''KLNJNA'
YFVFKLNJNA
root@arm:~# MARKER='YOYP''MNXAGJ' run 'i2cget -y -f 1 0x4b 0xc'
YOYPMNXAGJ0x02
YOYPMNXAGJ 0
root@arm:~# echo 'GTGF''ZVCUGQ'
GTGFZVCUGQ
root@arm:~# MARKER='EOUL''LHJXLJ' run 'grep -r -l rohm,bd71847 /proc/device-tree  | sed '"'"'s![^/]*$!!'"'"''
EOULLHJXLJ/proc/device-tree/ocp/interconnect@48000000/segment@0/target-module@2a000/i2c@0/pmic@4b/
EOULLHJXLJ 0
root@arm:~# echo 'MOJO''OKKGWC'
MOJOOKKGWC
root@arm:~# MARKER='XBGP''LCJEFP' run 'test -f /proc/device-tree/ocp/interconnectt\@48000000/segment\@0/target-module\@2a000/i2c\@0/pmic\@4b/regulators/LDO1/rohm,,no-regulator-enable-control ;echo $?'
XBGPLCJEFP1
XBGPLCJEFP 0
root@arm:~# echo 'MMQM''XSANKB'
MMQMXSANKB
root@arm:~# MARKER='HMPK''XMMLUA' run 'echo 1 > /sys/kernel/mva_test/regulators/bbuck7_en'
HMPKXMMLUAHMPKXMMLUA 0
root@arm:~# echo 'UHQJ''WULOVU'
UHQJWULOVU
root@arm:~# MARKER='GAVK''HEXSQM' run 'i2cget -y -f 1 0x4b 0x18'
GAVKHEXSQM0xe2
GAVKHEXSQM 0
root@arm:~# echo 'NHLH''GGOQYE'
NHLHGGOQYE
root@arm:~# MARKER='UEHU''LBMZVP' run 'grep -r -l rohm,bd71847 /proc/device-tree  | sed '"'"'s![^/]*$!!'"'"''
UEHULBMZVP/proc/device-tree/ocp/interconnect@48000000/segment@0/target-module@2a000/i2c@0/pmic@4b/
UEHULBMZVP 0
root@arm:~# echo 'FBVO''FWJWBF'
FBVOFWJWBF
root@arm:~# MARKER='ZMEQ''ZPWWOC' run 'test -f /proc/device-tree/ocp/interconnectt\@48000000/segment\@0/target-module\@2a000/i2c\@0/pmic\@4b/regulators/LDO1/rohm,,no-regulator-enable-control ;echo $?'
ZMEQZPWWOC1
ZMEQZPWWOC 0
root@arm:~# echo 'VMHU''NTSWMB'
VMHUNTSWMB
root@arm:~# MARKER='BLNC''HKSBPJ' run 'grep -r -l rohm,bd71847 /proc/device-tree  | sed '"'"'s![^/]*$!!'"'"''
BLNCHKSBPJ/proc/device-tree/ocp/interconnect@48000000/segment@0/target-module@2a000/i2c@0/pmic@4b/
BLNCHKSBPJ 0
root@arm:~# echo 'WBQU''EFWGYF'
WBQUEFWGYF
root@arm:~# MARKER='ZEWV''JEUBEC' run 'test -f /proc/device-tree/ocp/interconnectt\@48000000/segment\@0/target-module\@2a000/i2c\@0/pmic\@4b/regulators/LDO1/regu lator-always-on ;echo $?'
ZEWVJEUBEC1
ZEWVJEUBEC 0
root@arm:~# echo 'GNHO''YLVKYM'
GNHOYLVKYM
root@arm:~# MARKER='OWZU''ZBAAYX' run 'echo 0 > /sys/kernel/mva_test/regulators/bbuck7_en'
OWZUZBAAYXOWZUZBAAYX 0
root@arm:~# echo 'ETYZ''OWNXAN'
ETYZOWNXAN
root@arm:~# MARKER='EFUB''NSTHFG' run 'i2cget -y -f 1 0x4b 0x18'
EFUBNSTHFG0xa2
EFUBNSTHFG 0
root@arm:~# echo 'GJZV''WHZKNO'
GJZVWHZKNO
root@arm:~# MARKER='YVCG''NXFFHM' run 'grep -r -l rohm,bd71847 /proc/device-tree  | sed '"'"'s![^/]*$!!'"'"''
YVCGNXFFHM/proc/device-tree/ocp/interconnect@48000000/segment@0/target-module@2a000/i2c@0/pmic@4b/
YVCGNXFFHM 0
root@arm:~# echo 'UNES''JSGBYP'
UNESJSGBYP
root@arm:~# MARKER='ZZPB''ZEZSPJ' run 'test -f /proc/device-tree/ocp/interconnectt\@48000000/segment\@0/target-module\@2a000/i2c\@0/pmic\@4b/regulators/LDO2/rohm ,no-regulator-enable-control ;echo $?'
ZZPBZEZSPJ1
ZZPBZEZSPJ 0
root@arm:~# echo 'KYOT''UKGUVF'
KYOTUKGUVF
root@arm:~# MARKER='LKAC''PZKCVX' run 'echo 1 > /sys/kernel/mva_test/regulators/bbuck8_en'
LKACPZKCVXLKACPZKCVX 0
root@arm:~# echo 'QOAW''AVVWEP'
QOAWAVVWEP
root@arm:~# MARKER='CSPV''NFKOOV' run 'i2cget -y -f 1 0x4b 0x19'
CSPVNFKOOV0xe0
CSPVNFKOOV 0
root@arm:~# echo 'YPCH''SMLNLM'
YPCHSMLNLM
root@arm:~# MARKER='XUOE''ULVFYN' run 'grep -r -l rohm,bd71847 /proc/device-tree  | sed '"'"'s![^/]*$!!'"'"''
XUOEULVFYN/proc/device-tree/ocp/interconnect@48000000/segment@0/target-module@2a000/i2c@0/pmic@4b/
XUOEULVFYN 0
root@arm:~# echo 'HAGV''KSMZCC'
HAGVKSMZCC
root@arm:~# MARKER='LNHG''YEJXCM' run 'test -f /proc/device-tree/ocp/interconnectt\@48000000/segment\@0/target-module\@2a000/i2c\@0/pmic\@4b/regulators/LDO2/rohm,,no-regulator-enable-control ;echo $?'
LNHGYEJXCM1
LNHGYEJXCM 0
root@arm:~# echo 'ZSAP''PVJGPA'
ZSAPPVJGPA
root@arm:~# MARKER='LKLL''JCAZCX' run 'grep -r -l rohm,bd71847 /proc/device-tree  | sed '"'"'s![^/]*$!!'"'"''
LKLLJCAZCX/proc/device-tree/ocp/interconnect@48000000/segment@0/target-module@2a000/i2c@0/pmic@4b/
LKLLJCAZCX 0
root@arm:~# echo 'LXMB''OSZBEV'
LXMBOSZBEV
root@arm:~# MARKER='XPHU''HHLKQH' run 'test -f /proc/device-tree/ocp/interconnectt\@48000000/segment\@0/target-module\@2a000/i2c\@0/pmic\@4b/regulators/LDO2/regullator-always-on ;echo $?'
XPHUHHLKQH1
XPHUHHLKQH 0
root@arm:~# echo 'TKLO''MGNQKP'
TKLOMGNQKP
root@arm:~# MARKER='SCNV''ZOQTNE' run 'echo 0 > /sys/kernel/mva_test/regulators/bbuck8_en'
SCNVZOQTNESCNVZOQTNE 0
root@arm:~# echo 'JSYO''SEKTQP'
JSYOSEKTQP
root@arm:~# MARKER='JPXW''JKCUJM' run 'i2cget -y -f 1 0x4b 0x19'
JPXWJKCUJM0xa0
JPXWJKCUJM 0
root@arm:~# echo 'EABV''CHSPGN'
EABVCHSPGN
root@arm:~# MARKER='ZXGV''BXTHQP' run 'grep -r -l rohm,bd71847 /proc/device-tree  | sed '"'"'s![^/]*$!!'"'"''
ZXGVBXTHQP/proc/device-tree/ocp/interconnect@48000000/segment@0/target-module@2a000/i2c@0/pmic@4b/
ZXGVBXTHQP 0
root@arm:~# echo 'UOGF''UPTMLT'
UOGFUPTMLT
root@arm:~# MARKER='NMOG''ZYNQVB' run 'test -f /proc/device-tree/ocp/interconnectt\@48000000/segment\@0/target-module\@2a000/i2c\@0/pmic\@4b/regulators/LDO3/rohm,,no-regulator-enable-control ;echo $?'
NMOGZYNQVB1
NMOGZYNQVB 0
root@arm:~# echo 'QJLZ''VQZKZB'
QJLZVQZKZB
root@arm:~# MARKER='PSOK''GAJPLJ' run 'echo 1 > /sys/kernel/mva_test/regulators/bbuck9_en'
PSOKGAJPLJPSOKGAJPLJ 0
root@arm:~# echo 'ZNMA''YJFJWS'
ZNMAYJFJWS
root@arm:~# MARKER='ZPGB''SPYMPF' run 'i2cget -y -f 1 0x4b 0x1a'
ZPGBSPYMPF0xc0
ZPGBSPYMPF 0
root@arm:~# echo 'PQCS''TQPMZO'
PQCSTQPMZO
root@arm:~# MARKER='MBJB''SUPEOF' run 'grep -r -l rohm,bd71847 /proc/device-tree  | sed '"'"'s![^/]*$!!'"'"''
MBJBSUPEOF/proc/device-tree/ocp/interconnect@48000000/segment@0/target-module@2a000/i2c@0/pmic@4b/
MBJBSUPEOF 0
root@arm:~# echo 'EVSW''NLSXPU'
EVSWNLSXPU
root@arm:~# MARKER='KCCC''PPKSYV' run 'test -f /proc/device-tree/ocp/interconnectt\@48000000/segment\@0/target-module\@2a000/i2c\@0/pmic\@4b/regulators/LDO3/rohm,,no-regulator-enable-control ;echo $?'
KCCCPPKSYV1
KCCCPPKSYV 0
root@arm:~# echo 'TUXG''EJOQEJ'
TUXGEJOQEJ
root@arm:~# MARKER='LPLP''WTOCEX' run 'grep -r -l rohm,bd71847 /proc/device-tree  | sed '"'"'s![^/]*$!!'"'"''
LPLPWTOCEX/proc/device-tree/ocp/interconnect@48000000/segment@0/target-module@2a000/i2c@0/pmic@4b/
LPLPWTOCEX 0
root@arm:~# echo 'NGFT''SGOLQU'
NGFTSGOLQU
root@arm:~# MARKER='UJBT''CKBFFW' run 'test -f /proc/device-tree/ocp/interconnectt\@48000000/segment\@0/target-module\@2a000/i2c\@0/pmic\@4b/regulators/LDO3/regullator-always-on ;echo $?'
UJBTCKBFFW1
UJBTCKBFFW 0
root@arm:~# echo 'VPGT''GMNOSC'
VPGTGMNOSC
root@arm:~# MARKER='TZAA''CKVGAK' run 'echo 0 > /sys/kernel/mva_test/regulators/bbuck9_en'
TZAACKVGAKTZAACKVGAK 0
root@arm:~# echo 'ZEKT''GLVANW'
ZEKTGLVANW
root@arm:~# MARKER='BWFC''QYWFLU' run 'i2cget -y -f 1 0x4b 0x1a'
BWFCQYWFLU0x80
BWFCQYWFLU 0
root@arm:~# echo 'HPFL''ASECAF'
HPFLASECAF
root@arm:~# MARKER='TBJN''ZMAGTL' run 'grep -r -l rohm,bd71847 /proc/device-tree  | sed '"'"'s![^/]*$!!'"'"''
TBJNZMAGTL/proc/device-tree/ocp/interconnect@48000000/segment@0/target-module@2a000/i2c@0/pmic@4b/
TBJNZMAGTL 0
root@arm:~# echo 'OMXC''WFCTYS'
OMXCWFCTYS
root@arm:~# MARKER='TVOQ''MAHCOB' run 'test -f /proc/device-tree/ocp/interconnectt\@48000000/segment\@0/target-module\@2a000/i2c\@0/pmic\@4b/regulators/LDO4/rohm,,no-regulator-enable-control ;echo $?'
TVOQMAHCOB1
TVOQMAHCOB 0
root@arm:~# echo 'EOUB''UZATNX'
EOUBUZATNX
root@arm:~# MARKER='NAAC''PJGLFZ' run 'echo 1 > /sys/kernel/mva_test/regulators/bbuck10_en'
NAACPJGLFZNAACPJGLFZ 0
root@arm:~# echo 'QTQP''MWTHTT'
QTQPMWTHTT
root@arm:~# MARKER='EAHH''JULTCG' run 'i2cget -y -f 1 0x4b 0x1b'
EAHHJULTCG0xc0
EAHHJULTCG 0
root@arm:~# echo 'MWVE''XGKJZE'
MWVEXGKJZE
root@arm:~# MARKER='QTHL''GWUXHN' run 'grep -r -l rohm,bd71847 /proc/device-tree  | sed '"'"'s![^/]*$!!'"'"''
QTHLGWUXHN/proc/device-tree/ocp/interconnect@48000000/segment@0/target-module@2a000/i2c@0/pmic@4b/
QTHLGWUXHN 0
root@arm:~# echo 'ZNXY''AGSPCB'
ZNXYAGSPCB
root@arm:~# MARKER='QPZM''PWXWOL' run 'test -f /proc/device-tree/ocp/interconnectt\@48000000/segment\@0/target-module\@2a000/i2c\@0/pmic\@4b/regulators/LDO4/rohm,,no-regulator-enable-control ;echo $?'
QPZMPWXWOL1
QPZMPWXWOL 0
root@arm:~# echo 'ZJTS''BHTKJG'
ZJTSBHTKJG
root@arm:~# MARKER='JPZX''KHBMPA' run 'grep -r -l rohm,bd71847 /proc/device-tree  | sed '"'"'s![^/]*$!!'"'"''
JPZXKHBMPA/proc/device-tree/ocp/interconnect@48000000/segment@0/target-module@2a000/i2c@0/pmic@4b/
JPZXKHBMPA 0
root@arm:~# echo 'BHHS''TGNCEX'
BHHSTGNCEX
root@arm:~# MARKER='UPVU''KCKYNS' run 'test -f /proc/device-tree/ocp/interconnectt\@48000000/segment\@0/target-module\@2a000/i2c\@0/pmic\@4b/regulators/LDO4/regullator-always-on ;echo $?'
UPVUKCKYNS1
UPVUKCKYNS 0
root@arm:~# echo 'NFYQ''MPZGLC'
NFYQMPZGLC
root@arm:~# MARKER='EOVU''PMCCSJ' run 'echo 0 > /sys/kernel/mva_test/regulators/bbuck10_en'
EOVUPMCCSJEOVUPMCCSJ 0
root@arm:~# echo 'HCEX''NSEXVZ'
HCEXNSEXVZ
root@arm:~# MARKER='YAQF''YCGYHC' run 'i2cget -y -f 1 0x4b 0x1b'
YAQFYCGYHC0x80
YAQFYCGYHC 0
root@arm:~# echo 'UZGP''CTWOVA'
UZGPCTWOVA
root@arm:~# MARKER='MZLN''NPXOZB' run 'grep -r -l rohm,bd71847 /proc/device-tree  | sed '"'"'s![^/]*$!!'"'"''
MZLNNPXOZB/proc/device-tree/ocp/interconnect@48000000/segment@0/target-module@2a000/i2c@0/pmic@4b/
MZLNNPXOZB 0
root@arm:~# echo 'VABE''YENPQZ'
VABEYENPQZ
root@arm:~# MARKER='KWOZ''YOWKXY' run 'test -f /proc/device-tree/ocp/interconnectt\@48000000/segment\@0/target-module\@2a000/i2c\@0/pmic\@4b/regulators/LDO5/rohm,,no-regulator-enable-control ;echo $?'
KWOZYOWKXY0
KWOZYOWKXY 0
root@arm:~# echo 'AZKT''TEGOWE'
AZKTTEGOWE
root@arm:~# MARKER='NAOU''FPGQQP' run 'grep -r -l rohm,bd71847 /proc/device-tree  | sed '"'"'s![^/]*$!!'"'"''
NAOUFPGQQP/proc/device-tree/ocp/interconnect@48000000/segment@0/target-module@2a000/i2c@0/pmic@4b/
NAOUFPGQQP 0
root@arm:~# echo 'AHGK''VVVESZ'
AHGKVVVESZ
root@arm:~# MARKER='GCLA''VXNQSU' run 'test -f /proc/device-tree/ocp/interconnectt\@48000000/segment\@0/target-module\@2a000/i2c\@0/pmic\@4b/regulators/LDO5/rohm,,no-regulator-enable-control ;echo $?'
GCLAVXNQSU0
GCLAVXNQSU 0
root@arm:~# echo 'XGGG''OMFFYA'
XGGGOMFFYA
root@arm:~# MARKER='AFTG''FMLUOZ' run 'grep -r -l rohm,bd71847 /proc/device-tree  | sed '"'"'s![^/]*$!!'"'"''
AFTGFMLUOZ/proc/device-tree/ocp/interconnect@48000000/segment@0/target-module@2a000/i2c@0/pmic@4b/
AFTGFMLUOZ 0
root@arm:~# echo 'LTQK''QMUNVG'
LTQKQMUNVG
root@arm:~# MARKER='UTVG''YQJHSE' run 'test -f /proc/device-tree/ocp/interconnectt\@48000000/segment\@0/target-module\@2a000/i2c\@0/pmic\@4b/regulators/LDO6/rohm,,no-regulator-enable-control ;echo $?'
UTVGYQJHSE1
UTVGYQJHSE 0
root@arm:~# echo 'EMYV''EEZTTY'
EMYVEEZTTY
root@arm:~# MARKER='JEMA''EFUENE' run 'echo 1 > /sys/kernel/mva_test/regulators/bbuck12_en'
JEMAEFUENEJEMAEFUENE 0
root@arm:~# echo 'PVXA''OWGLQA'
PVXAOWGLQA
root@arm:~# MARKER='BGXB''NLWEYH' run 'i2cget -y -f 1 0x4b 0x1d'
BGXBNLWEYH0xc3
BGXBNLWEYH 0
root@arm:~# echo 'VQET''YLMMNZ'
VQETYLMMNZ
root@arm:~# MARKER='YESM''AGUOUQ' run 'grep -r -l rohm,bd71847 /proc/device-tree  | sed '"'"'s![^/]*$!!'"'"''
YESMAGUOUQ/proc/device-tree/ocp/interconnect@48000000/segment@0/target-module@2a000/i2c@0/pmic@4b/
YESMAGUOUQ 0
root@arm:~# echo 'MWJA''SUCWJZ'
MWJASUCWJZ
root@arm:~# MARKER='UWUN''BBUJUU' run 'test -f /proc/device-tree/ocp/interconnectt\@48000000/segment\@0/target-module\@2a000/i2c\@0/pmic\@4b/regulators/LDO6/rohm,,no-regulator-enable-control ;echo $?'
UWUNBBUJUU1
UWUNBBUJUU 0
root@arm:~# echo 'FBGJ''LAMLJG'
FBGJLAMLJG
root@arm:~# MARKER='JUBM''FGWGMV' run 'grep -r -l rohm,bd71847 /proc/device-tree  | sed '"'"'s![^/]*$!!'"'"''
JUBMFGWGMV/proc/device-tree/ocp/interconnect@48000000/segment@0/target-module@2a000/i2c@0/pmic@4b/
JUBMFGWGMV 0
root@arm:~# echo 'SXAA''EBUOGH'
SXAAEBUOGH
root@arm:~# MARKER='PGAL''XZUPCW' run 'test -f /proc/device-tree/ocp/interconnectt\@48000000/segment\@0/target-module\@2a000/i2c\@0/pmic\@4b/regulators/LDO6/regullator-always-on ;echo $?'
PGALXZUPCW1
PGALXZUPCW 0
root@arm:~# echo 'CALS''MTOQNZ'
CALSMTOQNZ
root@arm:~# MARKER='KVLY''POQYZL' run 'echo 0 > /sys/kernel/mva_test/regulators/bbuck12_en'
KVLYPOQYZLKVLYPOQYZL 0
root@arm:~# echo 'TLGV''WBYPBA'
TLGVWBYPBA
root@arm:~# MARKER='NPEV''FOJOZW' run 'i2cget -y -f 1 0x4b 0x1d'
NPEVFOJOZW0x83
NPEVFOJOZW 0
root@arm:~# Labgrid Console Logfile for main
Logfile started at 2024-12-19 09:41:00.032880
=== Log starts here ===

root@arm:~# run() { echo -n "$MARKER"; sh -c "$@"; echo "$MARKER $?"; }
root@arm:~# echo 'JNVB''QHNSZF'
JNVBQHNSZF
root@arm:~# MARKER='NUBK''UXMMWQ' run 'grep -r -l rohm,bd71847 /proc/device-tree  | sed '"'"'s![^/]*$!!'"'"''
NUBKUXMMWQ/proc/device-tree/ocp/interconnect@48000000/segment@0/target-module@2a000/i2c@0/pmic@4b/
NUBKUXMMWQ 0
root@arm:~# echo 'BWLX''LKMOKS'
BWLXLKMOKS
root@arm:~# MARKER='CGXA''LQSPAF' run 'test -f /proc/device-tree/ocp/interconnectt\@48000000/segment\@0/target-module\@2a000/i2c\@0/pmic\@4b/regulators/BUCK1/rohmm,no-regulator-enable-control ;echo $?'
CGXALQSPAF1
CGXALQSPAF 0
root@arm:~# echo 'LKQB''LPVCYV'
LKQBLPVCYV
root@arm:~# MARKER='TNJV''KTCYLL' run 'i2cget -y -f 1 0x4b 0x5'
TNJVKTCYLL0x02
TNJVKTCYLL 0
root@arm:~# echo 'ZZNQ''USBEKY'
ZZNQUSBEKY
root@arm:~# MARKER='CTNT''FZUCEG' run 'echo 700000 700000 > /sys/kernel/mva_test//regulators/buck1_set'
CTNTFZUCEGCTNTFZUCEG 0
root@arm:~# echo 'EJQT''KUSZAG'
EJQTKUSZAG
root@arm:~# MARKER='CMKM''KKLJGS' run 'i2cget -y -f 1 0x4b 0xd'
CMKMKKLJGS0x00
CMKMKKLJGS 0
root@arm:~# echo 'JABT''BBNYJJ'
JABTBBNYJJ
root@arm:~# MARKER='TYXP''ASHAAB' run 'echo 710000 710000 > /sys/kernel/mva_test//regulators/buck1_set'
TYXPASHAABTYXPASHAAB 0
root@arm:~# echo 'AZZQ''BEPLZC'
AZZQBEPLZC
root@arm:~# MARKER='HCUO''SCCKAC' run 'i2cget -y -f 1 0x4b 0xd'
HCUOSCCKAC0x01
HCUOSCCKAC 0
root@arm:~# echo 'VSTS''HFPLKP'
VSTSHFPLKP
root@arm:~# MARKER='FAUZ''TJKZGY' run 'echo 720000 720000 > /sys/kernel/mva_test//regulators/buck1_set'
FAUZTJKZGYFAUZTJKZGY 0
root@arm:~# echo 'QEFC''AHXUFA'
QEFCAHXUFA
root@arm:~# MARKER='MLGH''WHEWBK' run 'i2cget -y -f 1 0x4b 0xd'
MLGHWHEWBK0x02
MLGHWHEWBK 0
root@arm:~# echo 'JNAV''OLGWMB'
JNAVOLGWMB
root@arm:~# MARKER='FOBS''FGQFPY' run 'echo 730000 730000 > /sys/kernel/mva_test//regulators/buck1_set'
FOBSFGQFPYFOBSFGQFPY 0
root@arm:~# echo 'LOLQ''CSLOYK'
LOLQCSLOYK
root@arm:~# MARKER='KWNO''JKBFGE' run 'i2cget -y -f 1 0x4b 0xd'
KWNOJKBFGE0x03
KWNOJKBFGE 0
root@arm:~# echo 'SPVP''SJCSWZ'
SPVPSJCSWZ
root@arm:~# MARKER='KFAK''WHKGNN' run 'echo 740000 740000 > /sys/kernel/mva_test//regulators/buck1_set'
KFAKWHKGNNKFAKWHKGNN 0
root@arm:~# echo 'VCXU''MSHLPN'
VCXUMSHLPN
root@arm:~# MARKER='VCCM''ZGAMLW' run 'i2cget -y -f 1 0x4b 0xd'
VCCMZGAMLW0x04
VCCMZGAMLW 0
root@arm:~# echo 'OOET''HYNGHE'
OOETHYNGHE
root@arm:~# MARKER='XOAY''SYZHTS' run 'echo 750000 750000 > /sys/kernel/mva_test//regulators/buck1_set'
XOAYSYZHTSXOAYSYZHTS 0
root@arm:~# echo 'FVEY''OFGGKB'
FVEYOFGGKB
root@arm:~# MARKER='AOZB''PQFCSW' run 'i2cget -y -f 1 0x4b 0xd'
AOZBPQFCSW0x05
AOZBPQFCSW 0
root@arm:~# echo 'JCBM''YKUJMK'
JCBMYKUJMK
root@arm:~# MARKER='WCHE''PULLBP' run 'echo 760000 760000 > /sys/kernel/mva_test//regulators/buck1_set'
WCHEPULLBPWCHEPULLBP 0
root@arm:~# echo 'ESHT''BQBZOA'
ESHTBQBZOA
root@arm:~# MARKER='LAHJ''ZHKOUE' run 'i2cget -y -f 1 0x4b 0xd'
LAHJZHKOUE0x06
LAHJZHKOUE 0
root@arm:~# echo 'FZBL''XEMXLP'
FZBLXEMXLP
root@arm:~# MARKER='HXHM''USNBMG' run 'echo 770000 770000 > /sys/kernel/mva_test//regulators/buck1_set'
HXHMUSNBMGHXHMUSNBMG 0
root@arm:~# echo 'ZKNC''ZHVTYU'
ZKNCZHVTYU
root@arm:~# MARKER='NUPZ''CEPHNH' run 'i2cget -y -f 1 0x4b 0xd'
NUPZCEPHNH0x07
NUPZCEPHNH 0
root@arm:~# echo 'ZXTP''HNOLLH'
ZXTPHNOLLH
root@arm:~# MARKER='JUSW''BXALYB' run 'echo 780000 780000 > /sys/kernel/mva_test//regulators/buck1_set'
JUSWBXALYBJUSWBXALYB 0
root@arm:~# echo 'JNCZ''TTBBJQ'
JNCZTTBBJQ
root@arm:~# MARKER='ENCB''WKNFLE' run 'i2cget -y -f 1 0x4b 0xd'
ENCBWKNFLE0x08
ENCBWKNFLE 0
root@arm:~# echo 'OSUQ''YTWWVQ'
OSUQYTWWVQ
root@arm:~# MARKER='ACCU''XQFLKN' run 'echo 790000 790000 > /sys/kernel/mva_test//regulators/buck1_set'
ACCUXQFLKNACCUXQFLKN 0
root@arm:~# echo 'LVGL''PHFFXQ'
LVGLPHFFXQ
root@arm:~# MARKER='GGPU''SYQSZH' run 'i2cget -y -f 1 0x4b 0xd'
GGPUSYQSZH0x09
GGPUSYQSZH 0
root@arm:~# echo 'XTMV''GJFAWO'
XTMVGJFAWO
root@arm:~# MARKER='KTPY''LAYCAC' run 'echo 800000 800000 > /sys/kernel/mva_test//regulators/buck1_set'
KTPYLAYCACKTPYLAYCAC 0
root@arm:~# echo 'ZUQY''NTJFSK'
ZUQYNTJFSK
root@arm:~# MARKER='WSMF''TFAPNN' run 'i2cget -y -f 1 0x4b 0xd'
WSMFTFAPNN0x0a
WSMFTFAPNN 0
root@arm:~# echo 'JKBA''BALXZG'
JKBABALXZG
root@arm:~# MARKER='LGYS''MXSQHE' run 'echo 810000 810000 > /sys/kernel/mva_test//regulators/buck1_set'
LGYSMXSQHELGYSMXSQHE 0
root@arm:~# echo 'HKMB''SCZMFC'
HKMBSCZMFC
root@arm:~# MARKER='NZXJ''GHGLML' run 'i2cget -y -f 1 0x4b 0xd'
NZXJGHGLML0x0b
NZXJGHGLML 0
root@arm:~# echo 'VBST''AUSWBM'
VBSTAUSWBM
root@arm:~# MARKER='OYHL''WGOHAP' run 'echo 820000 820000 > /sys/kernel/mva_test//regulators/buck1_set'
OYHLWGOHAPOYHLWGOHAP 0
root@arm:~# echo 'ZPFV''FOAGBU'
ZPFVFOAGBU
root@arm:~# MARKER='YMXM''APKEYK' run 'i2cget -y -f 1 0x4b 0xd'
YMXMAPKEYK0x0c
YMXMAPKEYK 0
root@arm:~# echo 'OUXB''GWPNFN'
OUXBGWPNFN
root@arm:~# MARKER='EMQB''FZWLKQ' run 'echo 830000 830000 > /sys/kernel/mva_test//regulators/buck1_set'
EMQBFZWLKQEMQBFZWLKQ 0
root@arm:~# echo 'MYBQ''WEJGFM'
MYBQWEJGFM
root@arm:~# MARKER='KLMF''OOGCYJ' run 'i2cget -y -f 1 0x4b 0xd'
KLMFOOGCYJ0x0d
KLMFOOGCYJ 0
root@arm:~# echo 'BABG''ACTATW'
BABGACTATW
root@arm:~# MARKER='XOEX''EJAPUM' run 'echo 840000 840000 > /sys/kernel/mva_test//regulators/buck1_set'
XOEXEJAPUMXOEXEJAPUM 0
root@arm:~# echo 'UJEN''UTXZBK'
UJENUTXZBK
root@arm:~# MARKER='ECAT''SKTFAB' run 'i2cget -y -f 1 0x4b 0xd'
ECATSKTFAB0x0e
ECATSKTFAB 0
root@arm:~# echo 'NWKU''QTTEET'
NWKUQTTEET
root@arm:~# MARKER='TLMF''QTQLXU' run 'echo 850000 850000 > /sys/kernel/mva_test//regulators/buck1_set'
TLMFQTQLXUTLMFQTQLXU 0
root@arm:~# echo 'HCLW''BKFXKX'
HCLWBKFXKX
root@arm:~# MARKER='OZUS''AQJBPT' run 'i2cget -y -f 1 0x4b 0xd'
OZUSAQJBPT0x0f
OZUSAQJBPT 0
root@arm:~# echo 'YHBF''FMGZAC'
YHBFFMGZAC
root@arm:~# MARKER='CFXK''EFOLYQ' run 'echo 860000 860000 > /sys/kernel/mva_test//regulators/buck1_set'
CFXKEFOLYQCFXKEFOLYQ 0
root@arm:~# echo 'YCNJ''SHBAKU'
YCNJSHBAKU
root@arm:~# MARKER='WEUL''EMYSUV' run 'i2cget -y -f 1 0x4b 0xd'
WEULEMYSUV0x10
WEULEMYSUV 0
root@arm:~# echo 'CCGB''CJYFYA'
CCGBCJYFYA
root@arm:~# MARKER='TKNO''SLNEPT' run 'echo 870000 870000 > /sys/kernel/mva_test//regulators/buck1_set'
TKNOSLNEPTTKNOSLNEPT 0
root@arm:~# echo 'NLQV''JKYWKO'
NLQVJKYWKO
root@arm:~# MARKER='FYMZ''SSKMFT' run 'i2cget -y -f 1 0x4b 0xd'
FYMZSSKMFT0x11
FYMZSSKMFT 0
root@arm:~# echo 'PTWN''FOUUYU'
PTWNFOUUYU
root@arm:~# MARKER='NHON''WJQJXC' run 'echo 880000 880000 > /sys/kernel/mva_test//regulators/buck1_set'
NHONWJQJXCNHONWJQJXC 0
root@arm:~# echo 'WNSW''FVNEGA'
WNSWFVNEGA
root@arm:~# MARKER='ENEL''EFAEBX' run 'i2cget -y -f 1 0x4b 0xd'
ENELEFAEBX0x12
ENELEFAEBX 0
root@arm:~# echo 'LNJA''SPVXNZ'
LNJASPVXNZ
root@arm:~# MARKER='JASK''MXMZHA' run 'echo 890000 890000 > /sys/kernel/mva_test//regulators/buck1_set'
JASKMXMZHAJASKMXMZHA 0
root@arm:~# echo 'YPHB''PGEGEY'
YPHBPGEGEY
root@arm:~# MARKER='TZWC''WBEAVO' run 'i2cget -y -f 1 0x4b 0xd'
TZWCWBEAVO0x13
TZWCWBEAVO 0
root@arm:~# echo 'WGPC''TQLKLA'
WGPCTQLKLA
root@arm:~# MARKER='LWCE''JCQXML' run 'echo 900000 900000 > /sys/kernel/mva_test//regulators/buck1_set'
LWCEJCQXMLLWCEJCQXML 0
root@arm:~# echo 'GMQC''LHWTLC'
GMQCLHWTLC
root@arm:~# MARKER='QSVZ''WXFJLL' run 'i2cget -y -f 1 0x4b 0xd'
QSVZWXFJLL0x14
QSVZWXFJLL 0
root@arm:~# echo 'AGAM''GLEBOJ'
AGAMGLEBOJ
root@arm:~# MARKER='WZBP''WJOGWY' run 'echo 910000 910000 > /sys/kernel/mva_test//regulators/buck1_set'
WZBPWJOGWYWZBPWJOGWY 0
root@arm:~# echo 'FAPV''MBUTKU'
FAPVMBUTKU
root@arm:~# MARKER='MOLV''XEONCX' run 'i2cget -y -f 1 0x4b 0xd'
MOLVXEONCX0x15
MOLVXEONCX 0
root@arm:~# echo 'YNTL''CGHBPE'
YNTLCGHBPE
root@arm:~# MARKER='ZNQS''LUBBYY' run 'echo 920000 920000 > /sys/kernel/mva_test//regulators/buck1_set'
ZNQSLUBBYYZNQSLUBBYY 0
root@arm:~# echo 'PYOO''ZMJQEU'
PYOOZMJQEU
root@arm:~# MARKER='MCEA''VKFLAS' run 'i2cget -y -f 1 0x4b 0xd'
MCEAVKFLAS0x16
MCEAVKFLAS 0
root@arm:~# echo 'VOWL''SVZFEM'
VOWLSVZFEM
root@arm:~# MARKER='OSVM''UBAKKS' run 'echo 930000 930000 > /sys/kernel/mva_test//regulators/buck1_set'
OSVMUBAKKSOSVMUBAKKS 0
root@arm:~# echo 'WFHK''JHVKHT'
WFHKJHVKHT
root@arm:~# MARKER='FSLT''AGZEZW' run 'i2cget -y -f 1 0x4b 0xd'
FSLTAGZEZW0x17
FSLTAGZEZW 0
root@arm:~# echo 'CNFU''HGFQSP'
CNFUHGFQSP
root@arm:~# MARKER='NELA''TGBKNQ' run 'echo 940000 940000 > /sys/kernel/mva_test//regulators/buck1_set'
NELATGBKNQNELATGBKNQ 0
root@arm:~# echo 'NGHG''PWJEVQ'
NGHGPWJEVQ
root@arm:~# MARKER='UQAA''CUALTS' run 'i2cget -y -f 1 0x4b 0xd'
UQAACUALTS0x18
UQAACUALTS 0
root@arm:~# echo 'ZYBZ''OVMQWU'
ZYBZOVMQWU
root@arm:~# MARKER='XCJQ''NCONJY' run 'echo 950000 950000 > /sys/kernel/mva_test//regulators/buck1_set'
XCJQNCONJYXCJQNCONJY 0
root@arm:~# echo 'JXMJ''LSHFZC'
JXMJLSHFZC
root@arm:~# MARKER='KXYL''JOLWWG' run 'i2cget -y -f 1 0x4b 0xd'
KXYLJOLWWG0x19
KXYLJOLWWG 0
root@arm:~# echo 'LFBK''OOBEWN'
LFBKOOBEWN
root@arm:~# MARKER='GZNV''GEWJJM' run 'echo 960000 960000 > /sys/kernel/mva_test//regulators/buck1_set'
GZNVGEWJJMGZNVGEWJJM 0
root@arm:~# echo 'QULU''BWVSUZ'
QULUBWVSUZ
root@arm:~# MARKER='ZLVQ''ABKYPU' run 'i2cget -y -f 1 0x4b 0xd'
ZLVQABKYPU0x1a
ZLVQABKYPU 0
root@arm:~# echo 'VZAE''QUBSYU'
VZAEQUBSYU
root@arm:~# MARKER='VACB''EGFPJO' run 'echo 970000 970000 > /sys/kernel/mva_test//regulators/buck1_set'
VACBEGFPJOVACBEGFPJO 0
root@arm:~# echo 'JPGP''LZBNBT'
JPGPLZBNBT
root@arm:~# MARKER='QXQE''XPZEJX' run 'i2cget -y -f 1 0x4b 0xd'
QXQEXPZEJX0x1b
QXQEXPZEJX 0
root@arm:~# echo 'ZAOX''TVFWUK'
ZAOXTVFWUK
root@arm:~# MARKER='SAXL''XUGZUH' run 'echo 980000 980000 > /sys/kernel/mva_test//regulators/buck1_set'
SAXLXUGZUHSAXLXUGZUH 0
root@arm:~# echo 'BGVX''PZHFCH'
BGVXPZHFCH
root@arm:~# MARKER='YYPW''HQEMEV' run 'i2cget -y -f 1 0x4b 0xd'
YYPWHQEMEV0x1c
YYPWHQEMEV 0
root@arm:~# echo 'UZCZ''OJEFEJ'
UZCZOJEFEJ
root@arm:~# MARKER='XCQJ''CAUOEV' run 'echo 990000 990000 > /sys/kernel/mva_test//regulators/buck1_set'
XCQJCAUOEVXCQJCAUOEV 0
root@arm:~# echo 'ZEJP''VJGYTN'
ZEJPVJGYTN
root@arm:~# MARKER='HYTQ''TLJOPL' run 'i2cget -y -f 1 0x4b 0xd'
HYTQTLJOPL0x1d
HYTQTLJOPL 0
root@arm:~# echo 'GKUL''LYGWHL'
GKULLYGWHL
root@arm:~# MARKER='BUHJ''SYEOOF' run 'echo 1000000 1000000 > /sys/kernel/mva_tesst/regulators/buck1_set'
BUHJSYEOOFBUHJSYEOOF 0
root@arm:~# echo 'XZCO''SHXCGC'
XZCOSHXCGC
root@arm:~# MARKER='WNZZ''UYMHSQ' run 'i2cget -y -f 1 0x4b 0xd'
WNZZUYMHSQ0x1e
WNZZUYMHSQ 0
root@arm:~# echo 'UZEK''SZTFSA'
UZEKSZTFSA
root@arm:~# MARKER='FUWE''VLWEPS' run 'echo 1010000 1010000 > /sys/kernel/mva_tesst/regulators/buck1_set'
FUWEVLWEPSFUWEVLWEPS 0
root@arm:~# echo 'LFZJ''KQHZFL'
LFZJKQHZFL
root@arm:~# MARKER='XQVT''ZGQSYN' run 'i2cget -y -f 1 0x4b 0xd'
XQVTZGQSYN0x1f
XQVTZGQSYN 0
root@arm:~# echo 'PBEZ''ONOQHS'
PBEZONOQHS
root@arm:~# MARKER='GLJK''HQCJYL' run 'echo 1020000 1020000 > /sys/kernel/mva_tesst/regulators/buck1_set'
GLJKHQCJYLGLJKHQCJYL 0
root@arm:~# echo 'FQBU''MNGUCA'
FQBUMNGUCA
root@arm:~# MARKER='GUCU''GUNUOT' run 'i2cget -y -f 1 0x4b 0xd'
GUCUGUNUOT0x20
GUCUGUNUOT 0
root@arm:~# echo 'YGNP''LOUQQT'
YGNPLOUQQT
root@arm:~# MARKER='JZUW''AKOBTC' run 'echo 1030000 1030000 > /sys/kernel/mva_tesst/regulators/buck1_set'
JZUWAKOBTCJZUWAKOBTC 0
root@arm:~# echo 'GLBQ''QXSVFB'
GLBQQXSVFB
root@arm:~# MARKER='XXWB''JSPZGC' run 'i2cget -y -f 1 0x4b 0xd'
XXWBJSPZGC0x21
XXWBJSPZGC 0
root@arm:~# echo 'EAAQ''LLJPQS'
EAAQLLJPQS
root@arm:~# MARKER='HCSW''QTLXYF' run 'echo 1040000 1040000 > /sys/kernel/mva_tesst/regulators/buck1_set'
HCSWQTLXYFHCSWQTLXYF 0
root@arm:~# echo 'WGKJ''FUFMKH'
WGKJFUFMKH
root@arm:~# MARKER='WBMX''LVBOGP' run 'i2cget -y -f 1 0x4b 0xd'
WBMXLVBOGP0x22
WBMXLVBOGP 0
root@arm:~# echo 'JXAY''LFKBXJ'
JXAYLFKBXJ
root@arm:~# MARKER='PEFV''PGQPPQ' run 'echo 1050000 1050000 > /sys/kernel/mva_tesst/regulators/buck1_set'
PEFVPGQPPQPEFVPGQPPQ 0
root@arm:~# echo 'HTQF''NMXCAX'
HTQFNMXCAX
root@arm:~# MARKER='GOSM''AJCHVB' run 'i2cget -y -f 1 0x4b 0xd'
GOSMAJCHVB0x23
GOSMAJCHVB 0
root@arm:~# echo 'QXGJ''YBYOQW'
QXGJYBYOQW
root@arm:~# MARKER='QTVS''UQNVPS' run 'echo 1060000 1060000 > /sys/kernel/mva_tesst/regulators/buck1_set'
QTVSUQNVPSQTVSUQNVPS 0
root@arm:~# echo 'NVXM''WQBJQS'
NVXMWQBJQS
root@arm:~# MARKER='ZTFY''KSEJZX' run 'i2cget -y -f 1 0x4b 0xd'
ZTFYKSEJZX0x24
ZTFYKSEJZX 0
root@arm:~# echo 'AMUE''HSBESN'
AMUEHSBESN
root@arm:~# MARKER='MTEA''BVNETL' run 'echo 1070000 1070000 > /sys/kernel/mva_tesst/regulators/buck1_set'
MTEABVNETLMTEABVNETL 0
root@arm:~# echo 'HBQV''OOWAPB'
HBQVOOWAPB
root@arm:~# MARKER='ZBUS''JCFJNC' run 'i2cget -y -f 1 0x4b 0xd'
ZBUSJCFJNC0x25
ZBUSJCFJNC 0
root@arm:~# echo 'EQCP''AXSLQH'
EQCPAXSLQH
root@arm:~# MARKER='MVQW''CHVWXU' run 'echo 1080000 1080000 > /sys/kernel/mva_tesst/regulators/buck1_set'
MVQWCHVWXUMVQWCHVWXU 0
root@arm:~# echo 'SANB''NAUKTB'
SANBNAUKTB
root@arm:~# MARKER='OQZZ''GPUYJQ' run 'i2cget -y -f 1 0x4b 0xd'
OQZZGPUYJQ0x26
OQZZGPUYJQ 0
root@arm:~# echo 'SBCZ''ZFEJMB'
SBCZZFEJMB
root@arm:~# MARKER='ANYK''OUBYVE' run 'echo 1090000 1090000 > /sys/kernel/mva_tesst/regulators/buck1_set'
ANYKOUBYVEANYKOUBYVE 0
root@arm:~# echo 'SGFQ''JTTGTX'
SGFQJTTGTX
root@arm:~# MARKER='ZQTT''TALPZF' run 'i2cget -y -f 1 0x4b 0xd'
ZQTTTALPZF0x27
ZQTTTALPZF 0
root@arm:~# echo 'KPXP''HUSWNC'
KPXPHUSWNC
root@arm:~# MARKER='QCAU''ZXVVCY' run 'echo 1100000 1100000 > /sys/kernel/mva_tesst/regulators/buck1_set'
QCAUZXVVCYQCAUZXVVCY 0
root@arm:~# echo 'USQQ''QTEHNE'
USQQQTEHNE
root@arm:~# MARKER='CLME''FKZOHW' run 'i2cget -y -f 1 0x4b 0xd'
CLMEFKZOHW0x28
CLMEFKZOHW 0
root@arm:~# echo 'UCVU''OTJBJZ'
UCVUOTJBJZ
root@arm:~# MARKER='MXAJ''NKQAMX' run 'echo 1110000 1110000 > /sys/kernel/mva_tesst/regulators/buck1_set'
MXAJNKQAMXMXAJNKQAMX 0
root@arm:~# echo 'ZQNM''GYOFNC'
ZQNMGYOFNC
root@arm:~# MARKER='PSYW''PAAVOH' run 'i2cget -y -f 1 0x4b 0xd'
PSYWPAAVOH0x29
PSYWPAAVOH 0
root@arm:~# echo 'FLFN''MKXHWU'
FLFNMKXHWU
root@arm:~# MARKER='XGUA''LPSOSL' run 'echo 1120000 1120000 > /sys/kernel/mva_tesst/regulators/buck1_set'
XGUALPSOSLXGUALPSOSL 0
root@arm:~# echo 'OFWO''XJVWLC'
OFWOXJVWLC
root@arm:~# MARKER='BXUZ''FKGJCB' run 'i2cget -y -f 1 0x4b 0xd'
BXUZFKGJCB0x2a
BXUZFKGJCB 0
root@arm:~# echo 'QZNB''ATTTKO'
QZNBATTTKO
root@arm:~# MARKER='XPSW''ELPCHO' run 'echo 1130000 1130000 > /sys/kernel/mva_tesst/regulators/buck1_set'
XPSWELPCHOXPSWELPCHO 0
root@arm:~# echo 'QTYZ''ZZCTUV'
QTYZZZCTUV
root@arm:~# MARKER='MGNS''HFZTGV' run 'i2cget -y -f 1 0x4b 0xd'
MGNSHFZTGV0x2b
MGNSHFZTGV 0
root@arm:~# echo 'CFMO''ESTHGB'
CFMOESTHGB
root@arm:~# MARKER='KMLC''HSZMMO' run 'echo 1140000 1140000 > /sys/kernel/mva_tesst/regulators/buck1_set'
KMLCHSZMMOKMLCHSZMMO 0
root@arm:~# echo 'FFLZ''GVGONQ'
FFLZGVGONQ
root@arm:~# MARKER='PTGO''ZHZPZV' run 'i2cget -y -f 1 0x4b 0xd'
PTGOZHZPZV0x2c
PTGOZHZPZV 0
root@arm:~# echo 'NNOS''QGVEWY'
NNOSQGVEWY
root@arm:~# MARKER='WEEQ''NPVYQN' run 'echo 1150000 1150000 > /sys/kernel/mva_tesst/regulators/buck1_set'
WEEQNPVYQNWEEQNPVYQN 0
root@arm:~# echo 'MKOB''WJYGZG'
MKOBWJYGZG
root@arm:~# MARKER='KZHY''TNOHMF' run 'i2cget -y -f 1 0x4b 0xd'
KZHYTNOHMF0x2d
KZHYTNOHMF 0
root@arm:~# echo 'GFTO''ANXCPL'
GFTOANXCPL
root@arm:~# MARKER='QULZ''LKBKBG' run 'echo 1160000 1160000 > /sys/kernel/mva_tesst/regulators/buck1_set'
QULZLKBKBGQULZLKBKBG 0
root@arm:~# echo 'MOHT''ZLXXVT'
MOHTZLXXVT
root@arm:~# MARKER='LZFE''OEJQNA' run 'i2cget -y -f 1 0x4b 0xd'
LZFEOEJQNA0x2e
LZFEOEJQNA 0
root@arm:~# echo 'UOZG''PLNVTW'
UOZGPLNVTW
root@arm:~# MARKER='BGLU''LXWWFM' run 'echo 1170000 1170000 > /sys/kernel/mva_tesst/regulators/buck1_set'
BGLULXWWFMBGLULXWWFM 0
root@arm:~# echo 'XLTO''OWXNJK'
XLTOOWXNJK
root@arm:~# MARKER='ONOA''XZQQMC' run 'i2cget -y -f 1 0x4b 0xd'
ONOAXZQQMC0x2f
ONOAXZQQMC 0
root@arm:~# echo 'HPPH''YLLAKE'
HPPHYLLAKE
root@arm:~# MARKER='LMPZ''MMWSOF' run 'echo 1180000 1180000 > /sys/kernel/mva_tesst/regulators/buck1_set'
LMPZMMWSOFLMPZMMWSOF 0
root@arm:~# echo 'OMAM''KLEQXS'
OMAMKLEQXS
root@arm:~# MARKER='OFLA''HXGUSE' run 'i2cget -y -f 1 0x4b 0xd'
OFLAHXGUSE0x30
OFLAHXGUSE 0
root@arm:~# echo 'UWSG''JFNJZU'
UWSGJFNJZU
root@arm:~# MARKER='ZLMB''NXBEGQ' run 'echo 1190000 1190000 > /sys/kernel/mva_tesst/regulators/buck1_set'
ZLMBNXBEGQZLMBNXBEGQ 0
root@arm:~# echo 'YHHH''UHXZBG'
YHHHUHXZBG
root@arm:~# MARKER='JKUQ''PHSYEC' run 'i2cget -y -f 1 0x4b 0xd'
JKUQPHSYEC0x31
JKUQPHSYEC 0
root@arm:~# echo 'VCTC''MMXNYC'
VCTCMMXNYC
root@arm:~# MARKER='MLNF''XTCJVS' run 'echo 1200000 1200000 > /sys/kernel/mva_tesst/regulators/buck1_set'
MLNFXTCJVSMLNFXTCJVS 0
root@arm:~# echo 'QAHY''JNPXGZ'
QAHYJNPXGZ
root@arm:~# MARKER='HYOF''FYPKMO' run 'i2cget -y -f 1 0x4b 0xd'
HYOFFYPKMO0x32
HYOFFYPKMO 0
root@arm:~# echo 'AOFV''VHCPLB'
AOFVVHCPLB
root@arm:~# MARKER='ESHY''OGNKAP' run 'echo 1210000 1210000 > /sys/kernel/mva_tesst/regulators/buck1_set'
ESHYOGNKAPESHYOGNKAP 0
root@arm:~# echo 'ABTZ''OPTEKN'
ABTZOPTEKN
root@arm:~# MARKER='BWEJ''PAKXZH' run 'i2cget -y -f 1 0x4b 0xd'
BWEJPAKXZH0x33
BWEJPAKXZH 0
root@arm:~# echo 'UWTC''CVUVYU'
UWTCCVUVYU
root@arm:~# MARKER='KOLS''EWWWCE' run 'echo 1220000 1220000 > /sys/kernel/mva_tesst/regulators/buck1_set'
KOLSEWWWCEKOLSEWWWCE 0
root@arm:~# echo 'PBMC''AQKTMS'
PBMCAQKTMS
root@arm:~# MARKER='UNHU''FQCYNY' run 'i2cget -y -f 1 0x4b 0xd'
UNHUFQCYNY0x34
UNHUFQCYNY 0
root@arm:~# echo 'ZNMO''FBEHJQ'
ZNMOFBEHJQ
root@arm:~# MARKER='AHNJ''YLYVES' run 'echo 1230000 1230000 > /sys/kernel/mva_tesst/regulators/buck1_set'
AHNJYLYVESAHNJYLYVES 0
root@arm:~# echo 'FLSG''QNLFQP'
FLSGQNLFQP
root@arm:~# MARKER='VSLW''KGFPMO' run 'i2cget -y -f 1 0x4b 0xd'
VSLWKGFPMO0x35
VSLWKGFPMO 0
root@arm:~# echo 'XYEG''MPOBLU'
XYEGMPOBLU
root@arm:~# MARKER='NSOK''SHLZYA' run 'echo 1240000 1240000 > /sys/kernel/mva_tesst/regulators/buck1_set'
NSOKSHLZYANSOKSHLZYA 0
root@arm:~# echo 'CHSE''WEEOEK'
CHSEWEEOEK
root@arm:~# MARKER='PPWB''MLVAFF' run 'i2cget -y -f 1 0x4b 0xd'
PPWBMLVAFF0x36
PPWBMLVAFF 0
root@arm:~# echo 'NPBV''ASUVHU'
NPBVASUVHU
root@arm:~# MARKER='JZMY''NMPSPM' run 'echo 1250000 1250000 > /sys/kernel/mva_tesst/regulators/buck1_set'
JZMYNMPSPMJZMYNMPSPM 0
root@arm:~# echo 'MJEA''AAMGEY'
MJEAAAMGEY
root@arm:~# MARKER='MVBC''OCWECN' run 'i2cget -y -f 1 0x4b 0xd'
MVBCOCWECN0x37
MVBCOCWECN 0
root@arm:~# echo 'WZJU''FAHOJQ'
WZJUFAHOJQ
root@arm:~# MARKER='QTXH''HZMQSO' run 'echo 1260000 1260000 > /sys/kernel/mva_tesst/regulators/buck1_set'
QTXHHZMQSOQTXHHZMQSO 0
root@arm:~# echo 'MATM''WJQUYK'
MATMWJQUYK
root@arm:~# MARKER='LXCF''ZJPFVO' run 'i2cget -y -f 1 0x4b 0xd'
LXCFZJPFVO0x38
LXCFZJPFVO 0
root@arm:~# echo 'WLGF''YVPNTA'
WLGFYVPNTA
root@arm:~# MARKER='YKEV''HWHTAX' run 'echo 1270000 1270000 > /sys/kernel/mva_tesst/regulators/buck1_set'
YKEVHWHTAXYKEVHWHTAX 0
root@arm:~# echo 'ZGKG''MGVXSU'
ZGKGMGVXSU
root@arm:~# MARKER='UFEK''GWPSVP' run 'i2cget -y -f 1 0x4b 0xd'
UFEKGWPSVP0x39
UFEKGWPSVP 0
root@arm:~# echo 'LWVP''BLHKLS'
LWVPBLHKLS
root@arm:~# MARKER='YBMU''CZYJUS' run 'echo 1280000 1280000 > /sys/kernel/mva_tesst/regulators/buck1_set'
YBMUCZYJUSYBMUCZYJUS 0
root@arm:~# echo 'COYE''VVBPXQ'
COYEVVBPXQ
root@arm:~# MARKER='UQZV''SNAAZF' run 'i2cget -y -f 1 0x4b 0xd'
UQZVSNAAZF0x3a
UQZVSNAAZF 0
root@arm:~# echo 'PTNT''WVTFTP'
PTNTWVTFTP
root@arm:~# MARKER='YVGZ''KTETGZ' run 'echo 1290000 1290000 > /sys/kernel/mva_tesst/regulators/buck1_set'
YVGZKTETGZYVGZKTETGZ 0
root@arm:~# echo 'TAKS''ZCNLKN'
TAKSZCNLKN
root@arm:~# MARKER='JXSF''LYVYCZ' run 'i2cget -y -f 1 0x4b 0xd'
JXSFLYVYCZ0x3b
JXSFLYVYCZ 0
root@arm:~# echo 'SJBE''AMVALH'
SJBEAMVALH
root@arm:~# MARKER='HGQP''NPAVPX' run 'echo 1300000 1300000 > /sys/kernel/mva_tesst/regulators/buck1_set'
HGQPNPAVPXHGQPNPAVPX 0
root@arm:~# echo 'ELMX''JGQTLK'
ELMXJGQTLK
root@arm:~# MARKER='TYOO''CFUJVE' run 'i2cget -y -f 1 0x4b 0xd'
TYOOCFUJVE0x3c
TYOOCFUJVE 0
root@arm:~# echo 'JBQC''FOCCZC'
JBQCFOCCZC
root@arm:~# MARKER='LLUZ''VKHNKP' run 'grep -r -l rohm,bd71847 /proc/device-tree  | sed '"'"'s![^/]*$!!'"'"''
LLUZVKHNKP/proc/device-tree/ocp/interconnect@48000000/segment@0/target-module@2a000/i2c@0/pmic@4b/
LLUZVKHNKP 0
root@arm:~# echo 'WACL''TYTLJF'
WACLTYTLJF
root@arm:~# MARKER='LBYX''CSUXJX' run 'test -f /proc/device-tree/ocp/interconnectt\@48000000/segment\@0/target-module\@2a000/i2c\@0/pmic\@4b/regulators/BUCK2/rohmm,no-regulator-enable-control ;echo $?'
LBYXCSUXJX1
LBYXCSUXJX 0
root@arm:~# echo 'EOBM''ZEEMHX'
EOBMZEEMHX
root@arm:~# MARKER='YQBX''HSTQFH' run 'i2cget -y -f 1 0x4b 0x6'
YQBXHSTQFH0x43
YQBXHSTQFH 0
root@arm:~# echo 'MCLW''VQFLMA'
MCLWVQFLMA
root@arm:~# MARKER='PUAY''LJUZNS' run 'echo 700000 700000 > /sys/kernel/mva_test//regulators/buck2_set'
PUAYLJUZNSPUAYLJUZNS 0
root@arm:~# echo 'EZAF''SEBKUL'
EZAFSEBKUL
root@arm:~# MARKER='ZKOH''KPUEYJ' run 'i2cget -y -f 1 0x4b 0x10'
ZKOHKPUEYJ0x00
ZKOHKPUEYJ 0
root@arm:~# echo 'PVNY''XSBYYW'
PVNYXSBYYW
root@arm:~# MARKER='KFBO''UVEVJT' run 'echo 710000 710000 > /sys/kernel/mva_test//regulators/buck2_set'
KFBOUVEVJTKFBOUVEVJT 0
root@arm:~# echo 'SHGC''PENZPU'
SHGCPENZPU
root@arm:~# MARKER='ZMFB''OKGNHX' run 'i2cget -y -f 1 0x4b 0x10'
ZMFBOKGNHX0x01
ZMFBOKGNHX 0
root@arm:~# echo 'YKHT''GLAAOB'
YKHTGLAAOB
root@arm:~# MARKER='OSYU''NBVQKY' run 'echo 720000 720000 > /sys/kernel/mva_test//regulators/buck2_set'
OSYUNBVQKYOSYUNBVQKY 0
root@arm:~# echo 'FTBK''KSNHLA'
FTBKKSNHLA
root@arm:~# MARKER='SVUU''ZYJWQF' run 'i2cget -y -f 1 0x4b 0x10'
SVUUZYJWQF0x02
SVUUZYJWQF 0
root@arm:~# echo 'LAKO''YNNWPB'
LAKOYNNWPB
root@arm:~# MARKER='EYEV''OZJZSP' run 'echo 730000 730000 > /sys/kernel/mva_test//regulators/buck2_set'
EYEVOZJZSPEYEVOZJZSP 0
root@arm:~# echo 'HNMF''CCUNPK'
HNMFCCUNPK
root@arm:~# MARKER='MTZK''NCCQWK' run 'i2cget -y -f 1 0x4b 0x10'
MTZKNCCQWK0x03
MTZKNCCQWK 0
root@arm:~# echo 'CQPV''JECFPS'
CQPVJECFPS
root@arm:~# MARKER='JAUS''PTUJJW' run 'echo 740000 740000 > /sys/kernel/mva_test//regulators/buck2_set'
JAUSPTUJJWJAUSPTUJJW 0
root@arm:~# echo 'XHWJ''AGKNTC'
XHWJAGKNTC
root@arm:~# MARKER='CJEF''FQUSQM' run 'i2cget -y -f 1 0x4b 0x10'
CJEFFQUSQM0x04
CJEFFQUSQM 0
root@arm:~# echo 'XOUF''GKOUQN'
XOUFGKOUQN
root@arm:~# MARKER='NFYK''LQUHEP' run 'echo 750000 750000 > /sys/kernel/mva_test//regulators/buck2_set'
NFYKLQUHEPNFYKLQUHEP 0
root@arm:~# echo 'SBAJ''QHZFUN'
SBAJQHZFUN
root@arm:~# MARKER='SJLT''WWFOAQ' run 'i2cget -y -f 1 0x4b 0x10'
SJLTWWFOAQ0x05
SJLTWWFOAQ 0
root@arm:~# echo 'ENWL''OVBUGP'
ENWLOVBUGP
root@arm:~# MARKER='CBCC''MMTPEN' run 'echo 760000 760000 > /sys/kernel/mva_test//regulators/buck2_set'
CBCCMMTPENCBCCMMTPEN 0
root@arm:~# echo 'KHFF''ZVSSJZ'
KHFFZVSSJZ
root@arm:~# MARKER='GCUB''AASYUG' run 'i2cget -y -f 1 0x4b 0x10'
GCUBAASYUG0x06
GCUBAASYUG 0
root@arm:~# echo 'PXVS''NQMFKB'
PXVSNQMFKB
root@arm:~# MARKER='MQVF''VXFZKE' run 'echo 770000 770000 > /sys/kernel/mva_test//regulators/buck2_set'
MQVFVXFZKEMQVFVXFZKE 0
root@arm:~# echo 'QCJB''HWEFSK'
QCJBHWEFSK
root@arm:~# MARKER='ZMNT''ZMUYAL' run 'i2cget -y -f 1 0x4b 0x10'
ZMNTZMUYAL0x07
ZMNTZMUYAL 0
root@arm:~# echo 'OWZO''CECGSG'
OWZOCECGSG
root@arm:~# MARKER='GBVW''ZFYOQN' run 'echo 780000 780000 > /sys/kernel/mva_test//regulators/buck2_set'
GBVWZFYOQNGBVWZFYOQN 0
root@arm:~# echo 'LQEZ''NBUQSL'
LQEZNBUQSL
root@arm:~# MARKER='XLPW''HHCOXW' run 'i2cget -y -f 1 0x4b 0x10'
XLPWHHCOXW0x08
XLPWHHCOXW 0
root@arm:~# echo 'XLLT''KPYYHU'
XLLTKPYYHU
root@arm:~# MARKER='TUXX''KANQHH' run 'echo 790000 790000 > /sys/kernel/mva_test//regulators/buck2_set'
TUXXKANQHHTUXXKANQHH 0
root@arm:~# echo 'WZJC''MFNKCT'
WZJCMFNKCT
root@arm:~# MARKER='XVHC''AZOMUQ' run 'i2cget -y -f 1 0x4b 0x10'
XVHCAZOMUQ0x09
XVHCAZOMUQ 0
root@arm:~# echo 'GAUB''LOAXQF'
GAUBLOAXQF
root@arm:~# MARKER='UCAG''ZSHSYM' run 'echo 800000 800000 > /sys/kernel/mva_test//regulators/buck2_set'
UCAGZSHSYMUCAGZSHSYM 0
root@arm:~# echo 'HCUK''LHKFJO'
HCUKLHKFJO
root@arm:~# MARKER='JBGN''OCQEQK' run 'i2cget -y -f 1 0x4b 0x10'
JBGNOCQEQK0x0a
JBGNOCQEQK 0
root@arm:~# echo 'EXEC''BNNAXZ'
EXECBNNAXZ
root@arm:~# MARKER='BYGA''WFXYXE' run 'echo 810000 810000 > /sys/kernel/mva_test//regulators/buck2_set'
BYGAWFXYXEBYGAWFXYXE 0
root@arm:~# echo 'OXQH''CCAUYJ'
OXQHCCAUYJ
root@arm:~# MARKER='ABYV''HUFWOU' run 'i2cget -y -f 1 0x4b 0x10'
ABYVHUFWOU0x0b
ABYVHUFWOU 0
root@arm:~# echo 'JNJN''JPTYTP'
JNJNJPTYTP
root@arm:~# MARKER='HOPL''XJTJWZ' run 'echo 820000 820000 > /sys/kernel/mva_test//regulators/buck2_set'
HOPLXJTJWZHOPLXJTJWZ 0
root@arm:~# echo 'QJMV''QTCXJB'
QJMVQTCXJB
root@arm:~# MARKER='GNMB''SBBSNK' run 'i2cget -y -f 1 0x4b 0x10'
GNMBSBBSNK0x0c
GNMBSBBSNK 0
root@arm:~# echo 'EESA''QNNWCL'
EESAQNNWCL
root@arm:~# MARKER='SZXO''OGTVOH' run 'echo 830000 830000 > /sys/kernel/mva_test//regulators/buck2_set'
SZXOOGTVOHSZXOOGTVOH 0
root@arm:~# echo 'JLMS''ZLAPMN'
JLMSZLAPMN
root@arm:~# MARKER='QCTK''NWNWQX' run 'i2cget -y -f 1 0x4b 0x10'
QCTKNWNWQX0x0d
QCTKNWNWQX 0
root@arm:~# echo 'BTGO''XBUYWY'
BTGOXBUYWY
root@arm:~# MARKER='EVYM''MSKWOF' run 'echo 840000 840000 > /sys/kernel/mva_test//regulators/buck2_set'
EVYMMSKWOFEVYMMSKWOF 0
root@arm:~# echo 'OQBC''CVTQJH'
OQBCCVTQJH
root@arm:~# MARKER='SQVS''VNASXM' run 'i2cget -y -f 1 0x4b 0x10'
SQVSVNASXM0x0e
SQVSVNASXM 0
root@arm:~# echo 'YCSV''LAHUUQ'
YCSVLAHUUQ
root@arm:~# MARKER='SBFA''WHNQST' run 'echo 850000 850000 > /sys/kernel/mva_test//regulators/buck2_set'
SBFAWHNQSTSBFAWHNQST 0
root@arm:~# echo 'XCSW''XKPHAB'
XCSWXKPHAB
root@arm:~# MARKER='SNNC''AUYJZL' run 'i2cget -y -f 1 0x4b 0x10'
SNNCAUYJZL0x0f
SNNCAUYJZL 0
root@arm:~# echo 'KQLF''UFSXBE'
KQLFUFSXBE
root@arm:~# MARKER='PMOY''MZLOUS' run 'echo 860000 860000 > /sys/kernel/mva_test//regulators/buck2_set'
PMOYMZLOUSPMOYMZLOUS 0
root@arm:~# echo 'ZUSG''PZQYMH'
ZUSGPZQYMH
root@arm:~# MARKER='NYNH''TUQBTY' run 'i2cget -y -f 1 0x4b 0x10'
NYNHTUQBTY0x10
NYNHTUQBTY 0
root@arm:~# echo 'SPUJ''UVGGUZ'
SPUJUVGGUZ
root@arm:~# MARKER='AGZQ''LAGBMN' run 'echo 870000 870000 > /sys/kernel/mva_test//regulators/buck2_set'
AGZQLAGBMNAGZQLAGBMN 0
root@arm:~# echo 'JNJH''NNSZVB'
JNJHNNSZVB
root@arm:~# MARKER='ABFY''OLHYCC' run 'i2cget -y -f 1 0x4b 0x10'
ABFYOLHYCC0x11
ABFYOLHYCC 0
root@arm:~# echo 'SAOT''KWSAJY'
SAOTKWSAJY
root@arm:~# MARKER='GTUH''FWCWMN' run 'echo 880000 880000 > /sys/kernel/mva_test//regulators/buck2_set'
GTUHFWCWMNGTUHFWCWMN 0
root@arm:~# echo 'TZHB''JJZTOT'
TZHBJJZTOT
root@arm:~# MARKER='TOYK''XZHMHN' run 'i2cget -y -f 1 0x4b 0x10'
TOYKXZHMHN0x12
TOYKXZHMHN 0
root@arm:~# echo 'XYNF''OYMWTO'
XYNFOYMWTO
root@arm:~# MARKER='EKLL''LFLGWP' run 'echo 890000 890000 > /sys/kernel/mva_test//regulators/buck2_set'
EKLLLFLGWPEKLLLFLGWP 0
root@arm:~# echo 'JCNT''OSOPPM'
JCNTOSOPPM
root@arm:~# MARKER='NJXX''JJYKFO' run 'i2cget -y -f 1 0x4b 0x10'
NJXXJJYKFO0x13
NJXXJJYKFO 0
root@arm:~# echo 'WNOG''KHQLBW'
WNOGKHQLBW
root@arm:~# MARKER='YOTK''UEOWQG' run 'echo 900000 900000 > /sys/kernel/mva_test//regulators/buck2_set'
YOTKUEOWQGYOTKUEOWQG 0
root@arm:~# echo 'XGMT''LJSAWU'
XGMTLJSAWU
root@arm:~# MARKER='FGAO''BAACFG' run 'i2cget -y -f 1 0x4b 0x10'
FGAOBAACFG0x14
FGAOBAACFG 0
root@arm:~# echo 'YZPU''LBUQZH'
YZPULBUQZH
root@arm:~# MARKER='ELAM''SHVMAZ' run 'echo 910000 910000 > /sys/kernel/mva_test//regulators/buck2_set'
ELAMSHVMAZELAMSHVMAZ 0
root@arm:~# echo 'UMCT''QUKLMV'
UMCTQUKLMV
root@arm:~# MARKER='XLTL''BQUFXE' run 'i2cget -y -f 1 0x4b 0x10'
XLTLBQUFXE0x15
XLTLBQUFXE 0
root@arm:~# echo 'TMXF''KMACFB'
TMXFKMACFB
root@arm:~# MARKER='XUSQ''PBEGNF' run 'echo 920000 920000 > /sys/kernel/mva_test//regulators/buck2_set'
XUSQPBEGNFXUSQPBEGNF 0
root@arm:~# echo 'CGGV''UPCNYG'
CGGVUPCNYG
root@arm:~# MARKER='EBSJ''NJKNNM' run 'i2cget -y -f 1 0x4b 0x10'
EBSJNJKNNM0x16
EBSJNJKNNM 0
root@arm:~# echo 'THZQ''PQGPVW'
THZQPQGPVW
root@arm:~# MARKER='HMMT''HJHWQG' run 'echo 930000 930000 > /sys/kernel/mva_test /regulators/buck2_set'
HMMTHJHWQGHMMTHJHWQG 0
root@arm:~# echo 'SCEX''QPYJSL'
SCEXQPYJSL
root@arm:~# MARKER='CJAH''UGQHHJ' run 'i2cget -y -f 1 0x4b 0x10'
CJAHUGQHHJ0x17
CJAHUGQHHJ 0
root@arm:~# echo 'MQQT''AUHQUK'
MQQTAUHQUK
root@arm:~# MARKER='VYQF''EOHUGK' run 'echo 940000 940000 > /sys/kernel/mva_test//regulators/buck2_set'
VYQFEOHUGKVYQFEOHUGK 0
root@arm:~# echo 'CUNV''OYCHTB'
CUNVOYCHTB
root@arm:~# MARKER='YFYE''QHCYJX' run 'i2cget -y -f 1 0x4b 0x10'
YFYEQHCYJX0x18
YFYEQHCYJX 0
root@arm:~# echo 'ATTT''MFNYBB'
ATTTMFNYBB
root@arm:~# MARKER='MCCG''PHBCAQ' run 'echo 950000 950000 > /sys/kernel/mva_test//regulators/buck2_set'
MCCGPHBCAQMCCGPHBCAQ 0
root@arm:~# echo 'TLXB''NMHLQG'
TLXBNMHLQG
root@arm:~# MARKER='VCNH''UHAGXN' run 'i2cget -y -f 1 0x4b 0x10'
VCNHUHAGXN0x19
VCNHUHAGXN 0
root@arm:~# echo 'YXSS''BYBEGX'
YXSSBYBEGX
root@arm:~# MARKER='UGCG''MJBXTA' run 'echo 960000 960000 > /sys/kernel/mva_test//regulators/buck2_set'
UGCGMJBXTAUGCGMJBXTA 0
root@arm:~# echo 'VLKM''NSJVAL'
VLKMNSJVAL
root@arm:~# MARKER='PJYX''XHLSQX' run 'i2cget -y -f 1 0x4b 0x10'
PJYXXHLSQX0x1a
PJYXXHLSQX 0
root@arm:~# echo 'AGXA''UJGAMU'
AGXAUJGAMU
root@arm:~# MARKER='ZGZA''QVLXUX' run 'echo 970000 970000 > /sys/kernel/mva_test//regulators/buck2_set'
ZGZAQVLXUXZGZAQVLXUX 0
root@arm:~# echo 'MBGL''SKAELN'
MBGLSKAELN
root@arm:~# MARKER='GEZF''WHVOYL' run 'i2cget -y -f 1 0x4b 0x10'
GEZFWHVOYL0x1b
GEZFWHVOYL 0
root@arm:~# echo 'PUHL''XCSQTP'
PUHLXCSQTP
root@arm:~# MARKER='AHMZ''BOOJGS' run 'echo 980000 980000 > /sys/kernel/mva_test//regulators/buck2_set'
AHMZBOOJGSAHMZBOOJGS 0
root@arm:~# echo 'FEFC''AMNNOP'
FEFCAMNNOP
root@arm:~# MARKER='GULC''UYVXQS' run 'i2cget -y -f 1 0x4b 0x10'
GULCUYVXQS0x1c
GULCUYVXQS 0
root@arm:~# echo 'AXOP''LNJSZO'
AXOPLNJSZO
root@arm:~# MARKER='PLGF''AEWAQF' run 'echo 990000 990000 > /sys/kernel/mva_test//regulators/buck2_set'
PLGFAEWAQFPLGFAEWAQF 0
root@arm:~# echo 'GZJW''WNPCTG'
GZJWWNPCTG
root@arm:~# MARKER='OCLU''JKFTKK' run 'i2cget -y -f 1 0x4b 0x10'
OCLUJKFTKK0x1d
OCLUJKFTKK 0
root@arm:~# echo 'BTPY''TXSLQS'
BTPYTXSLQS
root@arm:~# MARKER='MWTK''JNUXQK' run 'echo 1000000 1000000 > /sys/kernel/mva_tesst/regulators/buck2_set'
MWTKJNUXQKMWTKJNUXQK 0
root@arm:~# echo 'WHNA''VQEBMM'
WHNAVQEBMM
root@arm:~# MARKER='VTSH''FCUYTB' run 'i2cget -y -f 1 0x4b 0x10'
VTSHFCUYTB0x1e
VTSHFCUYTB 0
root@arm:~# echo 'YFVK''EFWSGW'
YFVKEFWSGW
root@arm:~# MARKER='AQQE''QNEYSK' run 'echo 1010000 1010000 > /sys/kernel/mva_tesst/regulators/buck2_set'
AQQEQNEYSKAQQEQNEYSK 0
root@arm:~# echo 'BGEZ''FWFHFA'
BGEZFWFHFA
root@arm:~# MARKER='WEFG''PYLYOW' run 'i2cget -y -f 1 0x4b 0x10'
WEFGPYLYOW0x1f
WEFGPYLYOW 0
root@arm:~# echo 'SFQT''QWKLPG'
SFQTQWKLPG
root@arm:~# MARKER='TSTU''VCGEFY' run 'echo 1020000 1020000 > /sys/kernel/mva_tesst/regulators/buck2_set'
TSTUVCGEFYTSTUVCGEFY 0
root@arm:~# echo 'BGFX''LJYQVJ'
BGFXLJYQVJ
root@arm:~# MARKER='VQJZ''XLMYVF' run 'i2cget -y -f 1 0x4b 0x10'
VQJZXLMYVF0x20
VQJZXLMYVF 0
root@arm:~# echo 'BNHG''GPJCXP'
BNHGGPJCXP
root@arm:~# MARKER='NPUF''KOOMGU' run 'echo 1030000 1030000 > /sys/kernel/mva_tesst/regulators/buck2_set'
NPUFKOOMGUNPUFKOOMGU 0
root@arm:~# echo 'MSYF''LMXBST'
MSYFLMXBST
root@arm:~# MARKER='XEGO''BQMZAT' run 'i2cget -y -f 1 0x4b 0x10'
XEGOBQMZAT0x21
XEGOBQMZAT 0
root@arm:~# echo 'MPOS''PUWNFC'
MPOSPUWNFC
root@arm:~# MARKER='TVFT''HEJJYA' run 'echo 1040000 1040000 > /sys/kernel/mva_tesst/regulators/buck2_set'
TVFTHEJJYATVFTHEJJYA 0
root@arm:~# echo 'PYXB''BNCENC'
PYXBBNCENC
root@arm:~# MARKER='CJJV''EVAFHY' run 'i2cget -y -f 1 0x4b 0x10'
CJJVEVAFHY0x22
CJJVEVAFHY 0
root@arm:~# echo 'BPUO''LKQUGT'
BPUOLKQUGT
root@arm:~# MARKER='ZAXF''ONCXLM' run 'echo 1050000 1050000 > /sys/kernel/mva_tesst/regulators/buck2_set'
ZAXFONCXLMZAXFONCXLM 0
root@arm:~# echo 'ZCSM''AFEWWY'
ZCSMAFEWWY
root@arm:~# MARKER='HJYH''HUPMQS' run 'i2cget -y -f 1 0x4b 0x10'
HJYHHUPMQS0x23
HJYHHUPMQS 0
root@arm:~# echo 'UGPL''MGCYZX'
UGPLMGCYZX
root@arm:~# MARKER='FFSH''WYFVMJ' run 'echo 1060000 1060000 > /sys/kernel/mva_tesst/regulators/buck2_set'
FFSHWYFVMJFFSHWYFVMJ 0
root@arm:~# echo 'CFBJ''GXGEML'
CFBJGXGEML
root@arm:~# MARKER='NANH''BCZBUC' run 'i2cget -y -f 1 0x4b 0x10'
NANHBCZBUC0x24
NANHBCZBUC 0
root@arm:~# echo 'CCQL''GSSLTT'
CCQLGSSLTT
root@arm:~# MARKER='KMTX''ZPUBHG' run 'echo 1070000 1070000 > /sys/kernel/mva_tesst/regulators/buck2_set'
KMTXZPUBHGKMTXZPUBHG 0
root@arm:~# echo 'EUMQ''KWYZEG'
EUMQKWYZEG
root@arm:~# MARKER='PHOU''KSCZUO' run 'i2cget -y -f 1 0x4b 0x10'
PHOUKSCZUO0x25
PHOUKSCZUO 0
root@arm:~# echo 'ATEU''QAWHLW'
ATEUQAWHLW
root@arm:~# MARKER='PAVQ''PTVYGF' run 'echo 1080000 1080000 > /sys/kernel/mva_tesst/regulators/buck2_set'
PAVQPTVYGFPAVQPTVYGF 0
root@arm:~# echo 'FKJX''SJUBCB'
FKJXSJUBCB
root@arm:~# MARKER='MEOY''TXPJCU' run 'i2cget -y -f 1 0x4b 0x10'
MEOYTXPJCU0x26
MEOYTXPJCU 0
root@arm:~# echo 'BYKA''KQNGVP'
BYKAKQNGVP
root@arm:~# MARKER='YTNF''UBAEMX' run 'echo 1090000 1090000 > /sys/kernel/mva_tesst/regulators/buck2_set'
YTNFUBAEMXYTNFUBAEMX 0
root@arm:~# echo 'HFBB''SOJQOL'
HFBBSOJQOL
root@arm:~# MARKER='TUKG''FSMKOY' run 'i2cget -y -f 1 0x4b 0x10'
TUKGFSMKOY0x27
TUKGFSMKOY 0
root@arm:~# echo 'NYUF''XFOLYH'
NYUFXFOLYH
root@arm:~# MARKER='ZFOC''MLVECK' run 'echo 1100000 1100000 > /sys/kernel/mva_tesst/regulators/buck2_set'
ZFOCMLVECKZFOCMLVECK 0
root@arm:~# echo 'ENKP''ENPTPF'
ENKPENPTPF
root@arm:~# MARKER='ACPZ''ZCNSWV' run 'i2cget -y -f 1 0x4b 0x10'
ACPZZCNSWV0x28
ACPZZCNSWV 0
root@arm:~# echo 'ZPBV''UHNLYE'
ZPBVUHNLYE
root@arm:~# MARKER='WQTP''ONEKHC' run 'echo 1110000 1110000 > /sys/kernel/mva_tesst/regulators/buck2_set'
WQTPONEKHCWQTPONEKHC 0
root@arm:~# echo 'ECJP''JHCVLF'
ECJPJHCVLF
root@arm:~# MARKER='GWXZ''THVQNZ' run 'i2cget -y -f 1 0x4b 0x10'
GWXZTHVQNZ0x29
GWXZTHVQNZ 0
root@arm:~# echo 'GCLF''ZWGMKW'
GCLFZWGMKW
root@arm:~# MARKER='JYWG''PETOLX' run 'echo 1120000 1120000 > /sys/kernel/mva_tesst/regulators/buck2_set'
JYWGPETOLXJYWGPETOLX 0
root@arm:~# echo 'WGYQ''EMPCQM'
WGYQEMPCQM
root@arm:~# MARKER='VJFB''CTQLTE' run 'i2cget -y -f 1 0x4b 0x10'
VJFBCTQLTE0x2a
VJFBCTQLTE 0
root@arm:~# echo 'TXGW''ZELNNX'
TXGWZELNNX
root@arm:~# MARKER='GVQF''MBCYBW' run 'echo 1130000 1130000 > /sys/kernel/mva_tesst/regulators/buck2_set'
GVQFMBCYBWGVQFMBCYBW 0
root@arm:~# echo 'AYHZ''FLGOXE'
AYHZFLGOXE
root@arm:~# MARKER='SCTZ''WKVYQC' run 'i2cget -y -f 1 0x4b 0x10'
SCTZWKVYQC0x2b
SCTZWKVYQC 0
root@arm:~# echo 'GPZZ''KKMATH'
GPZZKKMATH
root@arm:~# MARKER='VHJB''SHYGFW' run 'echo 1140000 1140000 > /sys/kernel/mva_tesst/regulators/buck2_set'
VHJBSHYGFWVHJBSHYGFW 0
root@arm:~# echo 'CBBF''GLJJKE'
CBBFGLJJKE
root@arm:~# MARKER='EGGP''ZNKEOC' run 'i2cget -y -f 1 0x4b 0x10'
EGGPZNKEOC0x2c
EGGPZNKEOC 0
root@arm:~# echo 'ACYS''WYGLEM'
ACYSWYGLEM
root@arm:~# MARKER='PSJF''OYVAAK' run 'echo 1150000 1150000 > /sys/kernel/mva_tesst/regulators/buck2_set'
PSJFOYVAAKPSJFOYVAAK 0
root@arm:~# echo 'JUCV''KVJKQG'
JUCVKVJKQG
root@arm:~# MARKER='VCTW''SQFKSM' run 'i2cget -y -f 1 0x4b 0x10'
VCTWSQFKSM0x2d
VCTWSQFKSM 0
root@arm:~# echo 'BMTY''JMSFKM'
BMTYJMSFKM
root@arm:~# MARKER='ZLXL''QBEHEG' run 'echo 1160000 1160000 > /sys/kernel/mva_tesst/regulators/buck2_set'
ZLXLQBEHEGZLXLQBEHEG 0
root@arm:~# echo 'BAAU''OEBOHC'
BAAUOEBOHC
root@arm:~# MARKER='WUPT''KKLWCQ' run 'i2cget -y -f 1 0x4b 0x10'
WUPTKKLWCQ0x2e
WUPTKKLWCQ 0
root@arm:~# echo 'SWJF''KWVEJM'
SWJFKWVEJM
root@arm:~# MARKER='SBMF''XWXNPQ' run 'echo 1170000 1170000 > /sys/kernel/mva_tesst/regulators/buck2_set'
SBMFXWXNPQSBMFXWXNPQ 0
root@arm:~# echo 'LVGY''COOPAQ'
LVGYCOOPAQ
root@arm:~# MARKER='HQXN''TZPZSM' run 'i2cget -y -f 1 0x4b 0x10'
HQXNTZPZSM0x2f
HQXNTZPZSM 0
root@arm:~# echo 'XWBB''VAUWKY'
XWBBVAUWKY
root@arm:~# MARKER='OWTK''AMJZGA' run 'echo 1180000 1180000 > /sys/kernel/mva_tesst/regulators/buck2_set'
OWTKAMJZGAOWTKAMJZGA 0
root@arm:~# echo 'XAJZ''XCSVCM'
XAJZXCSVCM
root@arm:~# MARKER='GVXS''JHXEPB' run 'i2cget -y -f 1 0x4b 0x10'
GVXSJHXEPB0x30
GVXSJHXEPB 0
root@arm:~# echo 'EAQP''YPCTWP'
EAQPYPCTWP
root@arm:~# MARKER='UAWQ''UYNTXP' run 'echo 1190000 1190000 > /sys/kernel/mva_tesst/regulators/buck2_set'
UAWQUYNTXPUAWQUYNTXP 0
root@arm:~# echo 'BUZA''MEHFFC'
BUZAMEHFFC
root@arm:~# MARKER='YNQY''SMETTE' run 'i2cget -y -f 1 0x4b 0x10'
YNQYSMETTE0x31
YNQYSMETTE 0
root@arm:~# echo 'AYLG''BSVHEZ'
AYLGBSVHEZ
root@arm:~# MARKER='OEVY''NKCLAG' run 'echo 1200000 1200000 > /sys/kernel/mva_tesst/regulators/buck2_set'
OEVYNKCLAGOEVYNKCLAG 0
root@arm:~# echo 'ZFVE''QAXWNN'
ZFVEQAXWNN
root@arm:~# MARKER='GCHT''HGULOY' run 'i2cget -y -f 1 0x4b 0x10'
GCHTHGULOY0x32
GCHTHGULOY 0
root@arm:~# echo 'BQVE''KCKFWZ'
BQVEKCKFWZ
root@arm:~# MARKER='UEBJ''QKPBXY' run 'echo 1210000 1210000 > /sys/kernel/mva_tesst/regulators/buck2_set'
UEBJQKPBXYUEBJQKPBXY 0
root@arm:~# echo 'XNYS''FJOFPB'
XNYSFJOFPB
root@arm:~# MARKER='ESJS''PZWCPM' run 'i2cget -y -f 1 0x4b 0x10'
ESJSPZWCPM0x33
ESJSPZWCPM 0
root@arm:~# echo 'EHSV''PQLVJB'
EHSVPQLVJB
root@arm:~# MARKER='SJZL''PBVXNA' run 'echo 1220000 1220000 > /sys/kernel/mva_tesst/regulators/buck2_set'
SJZLPBVXNASJZLPBVXNA 0
root@arm:~# echo 'LCJB''FHBMSY'
LCJBFHBMSY
root@arm:~# MARKER='FFBK''HJZFQG' run 'i2cget -y -f 1 0x4b 0x10'
FFBKHJZFQG0x34
FFBKHJZFQG 0
root@arm:~# echo 'WGFN''WXEEFC'
WGFNWXEEFC
root@arm:~# MARKER='TSVQ''GFTGXZ' run 'echo 1230000 1230000 > /sys/kernel/mva_tesst/regulators/buck2_set'
TSVQGFTGXZTSVQGFTGXZ 0
root@arm:~# echo 'TOVP''HBZLGH'
TOVPHBZLGH
root@arm:~# MARKER='ZQOS''UVJJTK' run 'i2cget -y -f 1 0x4b 0x10'
ZQOSUVJJTK0x35
ZQOSUVJJTK 0
root@arm:~# echo 'YOCZ''UJUGKA'
YOCZUJUGKA
root@arm:~# MARKER='VWQQ''MUEAVM' run 'echo 1240000 1240000 > /sys/kernel/mva_tesst/regulators/buck2_set'
VWQQMUEAVMVWQQMUEAVM 0
root@arm:~# echo 'JTEH''GZMJVK'
JTEHGZMJVK
root@arm:~# MARKER='LQJY''KVZCLB' run 'i2cget -y -f 1 0x4b 0x10'
LQJYKVZCLB0x36
LQJYKVZCLB 0
root@arm:~# echo 'UHVH''QZNPHO'
UHVHQZNPHO
root@arm:~# MARKER='EECQ''PWZQQA' run 'echo 1250000 1250000 > /sys/kernel/mva_tesst/regulators/buck2_set'
EECQPWZQQAEECQPWZQQA 0
root@arm:~# echo 'WLHA''PLXEHT'
WLHAPLXEHT
root@arm:~# MARKER='BNXV''GKKETT' run 'i2cget -y -f 1 0x4b 0x10'
BNXVGKKETT0x37
BNXVGKKETT 0
root@arm:~# echo 'KFST''HKQJSO'
KFSTHKQJSO
root@arm:~# MARKER='JGLG''HCOVGZ' run 'echo 1260000 1260000 > /sys/kernel/mva_tesst/regulators/buck2_set'
JGLGHCOVGZJGLGHCOVGZ 0
root@arm:~# echo 'OCUX''PFQMON'
OCUXPFQMON
root@arm:~# MARKER='XKVM''SYNJTK' run 'i2cget -y -f 1 0x4b 0x10'
XKVMSYNJTK0x38
XKVMSYNJTK 0
root@arm:~# echo 'SXNE''LCBFZB'
SXNELCBFZB
root@arm:~# MARKER='KNTZ''ZZXKLC' run 'echo 1270000 1270000 > /sys/kernel/mva_tesst/regulators/buck2_set'
KNTZZZXKLCKNTZZZXKLC 0
root@arm:~# echo 'OQGC''FYPPUM'
OQGCFYPPUM
root@arm:~# MARKER='JPGP''CEEBHS' run 'i2cget -y -f 1 0x4b 0x10'
JPGPCEEBHS0x39
JPGPCEEBHS 0
root@arm:~# echo 'YYBX''PZGOJE'
YYBXPZGOJE
root@arm:~# MARKER='YXCJ''BWVANF' run 'echo 1280000 1280000 > /sys/kernel/mva_tesst/regulators/buck2_set'
YXCJBWVANFYXCJBWVANF 0
root@arm:~# echo 'QNKP''MKBMFO'
QNKPMKBMFO
root@arm:~# MARKER='KUJU''ULXMUH' run 'i2cget -y -f 1 0x4b 0x10'
KUJUULXMUH0x3a
KUJUULXMUH 0
root@arm:~# echo 'PMGA''LZXFSP'
PMGALZXFSP
root@arm:~# MARKER='COSK''ASSKGL' run 'echo 1290000 1290000 > /sys/kernel/mva_tesst/regulators/buck2_set'
COSKASSKGLCOSKASSKGL 0
root@arm:~# echo 'VMKA''CCLLFG'
VMKACCLLFG
root@arm:~# MARKER='EAJZ''KULZEO' run 'i2cget -y -f 1 0x4b 0x10'
EAJZKULZEO0x3b
EAJZKULZEO 0
root@arm:~# echo 'MNWS''HASEGF'
MNWSHASEGF
root@arm:~# MARKER='KKKB''PHGFJC' run 'echo 1300000 1300000 > /sys/kernel/mva_tesst/regulators/buck2_set'
KKKBPHGFJCKKKBPHGFJC 0
root@arm:~# echo 'ZPEO''PNEPJS'
ZPEOPNEPJS
root@arm:~# MARKER='BEWQ''QWQKLM' run 'i2cget -y -f 1 0x4b 0x10'
BEWQQWQKLM0x3c
BEWQQWQKLM 0
root@arm:~# echo 'VHTB''SUXSMM'
VHTBSUXSMM
root@arm:~# MARKER='FQHQ''FGLTHX' run 'grep -r -l rohm,bd71847 /proc/device-tree  | sed '"'"'s![^/]*$!!'"'"''
FQHQFGLTHX/proc/device-tree/ocp/interconnect@48000000/segment@0/target-module@2a000/i2c@0/pmic@4b/
FQHQFGLTHX 0
root@arm:~# echo 'VEJB''UEEXXG'
VEJBUEEXXG
root@arm:~# MARKER='GFZV''JKXYWZ' run 'test -f /proc/device-tree/ocp/interconnectt\@48000000/segment\@0/target-module\@2a000/i2c\@0/pmic\@4b/regulators/BUCK3/rohmm,no-regulator-enable-control ;echo $?'
GFZVJKXYWZ0
GFZVJKXYWZ 0
root@arm:~# echo 'NVZQ''CTPFBW'
NVZQCTPFBW
root@arm:~# MARKER='SYGK''OANEEC' run 'echo 700000 700000 > /sys/kernel/mva_test//regulators/buck3_set'
SYGKOANEECSYGKOANEEC 0
root@arm:~# echo 'XGKH''OBYNGT'
XGKHOBYNGT
root@arm:~# MARKER='PBFH''HNTTJV' run 'i2cget -y -f 1 0x4b 0x14'
PBFHHNTTJV0x00
PBFHHNTTJV 0
root@arm:~# echo 'AEBP''ASYJVC'
AEBPASYJVC
root@arm:~# MARKER='QLWF''OHXOMF' run 'echo 800000 800000 > /sys/kernel/mva_test//regulators/buck3_set'
QLWFOHXOMFQLWFOHXOMF 0
root@arm:~# echo 'NYSW''EOELVM'
NYSWEOELVM
root@arm:~# MARKER='YKTE''OLYNFO' run 'i2cget -y -f 1 0x4b 0x14'
YKTEOLYNFO0x01
YKTEOLYNFO 0
root@arm:~# echo 'VPHE''WUMBAT'
VPHEWUMBAT
root@arm:~# MARKER='HQGZ''NCAYWW' run 'echo 900000 900000 > /sys/kernel/mva_test//regulators/buck3_set'
HQGZNCAYWWHQGZNCAYWW 0
root@arm:~# echo 'EKPN''SCONKV'
EKPNSCONKV
root@arm:~# MARKER='FVUB''CYMZVK' run 'i2cget -y -f 1 0x4b 0x14'
FVUBCYMZVK0x02
FVUBCYMZVK 0
root@arm:~# echo 'WQJX''WJAYAL'
WQJXWJAYAL
root@arm:~# MARKER='WPOF''MKHJEQ' run 'echo 1000000 1000000 > /sys/kernel/mva_tesst/regulators/buck3_set'
WPOFMKHJEQWPOFMKHJEQ 0
root@arm:~# echo 'FLHS''TBTXSF'
FLHSTBTXSF
root@arm:~# MARKER='LXWF''GHTTTY' run 'i2cget -y -f 1 0x4b 0x14'
LXWFGHTTTY0x03
LXWFGHTTTY 0
root@arm:~# echo 'AJCK''AMOMLJ'
AJCKAMOMLJ
root@arm:~# MARKER='HNVG''FMJBUG' run 'echo 1050000 1050000 > /sys/kernel/mva_tesst/regulators/buck3_set'
HNVGFMJBUGHNVGFMJBUG 0
root@arm:~# echo 'AAZJ''QGUUXO'
AAZJQGUUXO
root@arm:~# MARKER='MXCN''FEGUJT' run 'i2cget -y -f 1 0x4b 0x14'
MXCNFEGUJT0x04
MXCNFEGUJT 0
root@arm:~# echo 'FZPM''LABXOC'
FZPMLABXOC
root@arm:~# MARKER='UNEB''COTEKB' run 'echo 1100000 1100000 > /sys/kernel/mva_tesst/regulators/buck3_set'
UNEBCOTEKBUNEBCOTEKB 0
root@arm:~# echo 'ZSBY''LQHYTH'
ZSBYLQHYTH
root@arm:~# MARKER='NCVP''JSLHCB' run 'i2cget -y -f 1 0x4b 0x14'
NCVPJSLHCB0x05
NCVPJSLHCB 0
root@arm:~# echo 'TQWG''APOVLV'
TQWGAPOVLV
root@arm:~# MARKER='GPUA''HJETUS' run 'echo 1200000 1200000 > /sys/kernel/mva_tesst/regulators/buck3_set'
GPUAHJETUSGPUAHJETUS 0
root@arm:~# echo 'LNKJ''BXWBWZ'
LNKJBXWBWZ
root@arm:~# MARKER='GLXB''TZSPVT' run 'i2cget -y -f 1 0x4b 0x14'
GLXBTZSPVT0x06
GLXBTZSPVT 0
root@arm:~# echo 'GPKH''PHMHVE'
GPKHPHMHVE
root@arm:~# MARKER='FCAU''YBGQHX' run 'echo 1350000 1350000 > /sys/kernel/mva_tesst/regulators/buck3_set'
FCAUYBGQHXFCAUYBGQHX 0
root@arm:~# echo 'WXHJ''BAJSAU'
WXHJBAJSAU
root@arm:~# MARKER='WJHK''KEUTAB' run 'i2cget -y -f 1 0x4b 0x14'
WJHKKEUTAB0x07
WJHKKEUTAB 0
root@arm:~# echo 'WBTL''VJBSYT'
WBTLVJBSYT
root@arm:~# MARKER='SAJE''HGSNJU' run 'echo 550000 550000 > /sys/kernel/mva_test//regulators/buck3_set'
SAJEHGSNJUSAJEHGSNJU 0
root@arm:~# echo 'KAYO''TGEYPM'
KAYOTGEYPM
root@arm:~# MARKER='XKZE''UQJLMT' run 'i2cget -y -f 1 0x4b 0x14'
XKZEUQJLMT0x40
XKZEUQJLMT 0
root@arm:~# echo 'VBSE''JMONBW'
VBSEJMONBW
root@arm:~# MARKER='UWEB''GBTHNC' run 'echo 600000 600000 > /sys/kernel/mva_test//regulators/buck3_set'
UWEBGBTHNCUWEBGBTHNC 0
root@arm:~# echo 'CYBJ''JHJNBS'
CYBJJHJNBS
root@arm:~# MARKER='LQOH''NBVCCC' run 'i2cget -y -f 1 0x4b 0x14'
LQOHNBVCCC0x41
LQOHNBVCCC 0
root@arm:~# echo 'GPCT''PGVSJV'
GPCTPGVSJV
root@arm:~# MARKER='ZSTM''JQGHPX' run 'echo 650000 650000 > /sys/kernel/mva_test//regulators/buck3_set'
ZSTMJQGHPXZSTMJQGHPX 0
root@arm:~# echo 'YATY''QEQTPH'
YATYQEQTPH
root@arm:~# MARKER='GGWG''ZBEPFS' run 'i2cget -y -f 1 0x4b 0x14'
GGWGZBEPFS0x42
GGWGZBEPFS 0
root@arm:~# echo 'EAQB''TCPPOO'
EAQBTCPPOO
root@arm:~# MARKER='FZQZ''XQZPVF' run 'echo 700000 700000 > /sys/kernel/mva_test//regulators/buck3_set'
FZQZXQZPVFFZQZXQZPVF 0
root@arm:~# echo 'TSVC''ACSHXQ'
TSVCACSHXQ
root@arm:~# MARKER='LVWF''ZYOBGM' run 'i2cget -y -f 1 0x4b 0x14'
LVWFZYOBGM0x00
LVWFZYOBGM 0
root@arm:~# echo 'CFKN''CTGUAU'
CFKNCTGUAU
root@arm:~# MARKER='PXYN''SCTXQT' run 'echo 750000 750000 > /sys/kernel/mva_test//regulators/buck3_set'
PXYNSCTXQTPXYNSCTXQT 0
root@arm:~# echo 'UWUW''TMMATQ'
UWUWTMMATQ
root@arm:~# MARKER='QLUB''AACWZM' run 'i2cget -y -f 1 0x4b 0x14'
QLUBAACWZM0x44
QLUBAACWZM 0
root@arm:~# echo 'UVGO''QHQPLW'
UVGOQHQPLW
root@arm:~# MARKER='AFJO''LBMSZU' run 'echo 800000 800000 > /sys/kernel/mva_test//regulators/buck3_set'
AFJOLBMSZUAFJOLBMSZU 0
root@arm:~# echo 'FBXC''FGKBEV'
FBXCFGKBEV
root@arm:~# MARKER='XZBL''SWXVKX' run 'i2cget -y -f 1 0x4b 0x14'
XZBLSWXVKX0x01
XZBLSWXVKX 0
root@arm:~# echo 'OOHS''PPWWEC'
OOHSPPWWEC
root@arm:~# MARKER='OOBO''BXOGZJ' run 'echo 850000 850000 > /sys/kernel/mva_test//regulators/buck3_set'
OOBOBXOGZJOOBOBXOGZJ 0
root@arm:~# echo 'SPZH''ETOKAQ'
SPZHETOKAQ
root@arm:~# MARKER='TWJJ''TQTXSA' run 'i2cget -y -f 1 0x4b 0x14'
TWJJTQTXSA0x46
TWJJTQTXSA 0
root@arm:~# echo 'KOOO''STBVXB'
KOOOSTBVXB
root@arm:~# MARKER='NJOV''WFGLVJ' run 'echo 900000 900000 > /sys/kernel/mva_test//regulators/buck3_set'
NJOVWFGLVJNJOVWFGLVJ 0
root@arm:~# echo 'BKPK''VXLFZK'
BKPKVXLFZK
root@arm:~# MARKER='NZOM''QAFQOM' run 'i2cget -y -f 1 0x4b 0x14'
NZOMQAFQOM0x02
NZOMQAFQOM 0
root@arm:~# echo 'UKLK''ZLPGKE'
UKLKZLPGKE
root@arm:~# MARKER='TQZH''FUHNMV' run 'echo 675000 675000 > /sys/kernel/mva_test//regulators/buck3_set'
TQZHFUHNMVTQZHFUHNMV 0
root@arm:~# echo 'VWVC''XYBWEN'
VWVCXYBWEN
root@arm:~# MARKER='MSYG''WYWGMY' run 'i2cget -y -f 1 0x4b 0x14'
MSYGWYWGMY0x80
MSYGWYWGMY 0
root@arm:~# echo 'JPKP''QZUTPC'
JPKPQZUTPC
root@arm:~# MARKER='XFNZ''HZKLMN' run 'echo 775000 775000 > /sys/kernel/mva_test//regulators/buck3_set'
XFNZHZKLMNXFNZHZKLMN 0
root@arm:~# echo 'GAZM''QSAXNG'
GAZMQSAXNG
root@arm:~# MARKER='XLUU''FAKFHT' run 'i2cget -y -f 1 0x4b 0x14'
XLUUFAKFHT0x81
XLUUFAKFHT 0
root@arm:~# echo 'ZQSV''GMSSAK'
ZQSVGMSSAK
root@arm:~# MARKER='WUFL''LXFUVL' run 'echo 875000 875000 > /sys/kernel/mva_test//regulators/buck3_set'
WUFLLXFUVLWUFLLXFUVL 0
root@arm:~# echo 'NULO''KUXJSB'
NULOKUXJSB
root@arm:~# MARKER='EQSZ''NFVVCS' run 'i2cget -y -f 1 0x4b 0x14'
EQSZNFVVCS0x82
EQSZNFVVCS 0
root@arm:~# echo 'OXOQ''XJFUNL'
OXOQXJFUNL
root@arm:~# MARKER='OGGB''BNCAFF' run 'echo 975000 975000 > /sys/kernel/mva_test//regulators/buck3_set'
OGGBBNCAFFOGGBBNCAFF 0
root@arm:~# echo 'JJMA''EEBSEZ'
JJMAEEBSEZ
root@arm:~# MARKER='XPMH''OUYUXN' run 'i2cget -y -f 1 0x4b 0x14'
XPMHOUYUXN0x83
XPMHOUYUXN 0
root@arm:~# echo 'HNSJ''PNVQYY'
HNSJPNVQYY
root@arm:~# MARKER='LPVK''YCVXKO' run 'echo 1025000 1025000 > /sys/kernel/mva_tesst/regulators/buck3_set'
LPVKYCVXKOLPVKYCVXKO 0
root@arm:~# echo 'ANSM''WYZCZW'
ANSMWYZCZW
root@arm:~# MARKER='ESCH''LUFNPG' run 'i2cget -y -f 1 0x4b 0x14'
ESCHLUFNPG0x84
ESCHLUFNPG 0
root@arm:~# echo 'KCSW''WMJXEK'
KCSWWMJXEK
root@arm:~# MARKER='QOUX''XEPXXP' run 'echo 1075000 1075000 > /sys/kernel/mva_tesst/regulators/buck3_set'
QOUXXEPXXPQOUXXEPXXP 0
root@arm:~# echo 'WKBG''JQTBCJ'
WKBGJQTBCJ
root@arm:~# MARKER='EKOF''XSYSOB' run 'i2cget -y -f 1 0x4b 0x14'
EKOFXSYSOB0x85
EKOFXSYSOB 0
root@arm:~# echo 'VBGX''POWJNK'
VBGXPOWJNK
root@arm:~# MARKER='KAYU''HXQANB' run 'echo 1175000 1175000 > /sys/kernel/mva_tesst/regulators/buck3_set'
KAYUHXQANBKAYUHXQANB 0
root@arm:~# echo 'LWUT''UXKSMB'
LWUTUXKSMB
root@arm:~# MARKER='TXKG''SOWSCT' run 'i2cget -y -f 1 0x4b 0x14'
TXKGSOWSCT0x86
TXKGSOWSCT 0
root@arm:~# echo 'JQPJ''YYYQAP'
JQPJYYYQAP
root@arm:~# MARKER='EOMC''AEJEYL' run 'echo 1325000 1325000 > /sys/kernel/mva_tesst/regulators/buck3_set'
EOMCAEJEYLEOMCAEJEYL 0
root@arm:~# echo 'WMGF''CWHGSV'
WMGFCWHGSV
root@arm:~# MARKER='BEMP''TNUONL' run 'i2cget -y -f 1 0x4b 0x14'
BEMPTNUONL0x87
BEMPTNUONL 0
root@arm:~# echo 'XWMG''MXLKHM'
XWMGMXLKHM
root@arm:~# MARKER='XCUJ''GZHULY' run 'grep -r -l rohm,bd71847 /proc/device-tree  | sed '"'"'s![^/]*$!!'"'"''
XCUJGZHULY/proc/device-tree/ocp/interconnect@48000000/segment@0/target-module@2a000/i2c@0/pmic@4b/
XCUJGZHULY 0
root@arm:~# echo 'UGZU''USFYQX'
UGZUUSFYQX
root@arm:~# MARKER='LFNE''WNHTGA' run 'test -f /proc/device-tree/ocp/interconnectt\@48000000/segment\@0/target-module\@2a000/i2c\@0/pmic\@4b/regulators/BUCK4/rohmm,no-regulator-enable-control ;echo $?'
LFNEWNHTGA1
LFNEWNHTGA 0
root@arm:~# echo 'NHXK''GFLBPB'
NHXKGFLBPB
root@arm:~# MARKER='UNZH''PVQEVJ' run 'i2cget -y -f 1 0x4b 0xa'
UNZHPVQEVJ0x02
UNZHPVQEVJ 0
root@arm:~# echo 'SQYQ''UNCHCG'
SQYQUNCHCG
root@arm:~# MARKER='CHOA''TYNLYL' run 'echo 3000000 3000000 > /sys/kernel/mva_tesst/regulators/buck4_set'
CHOATYNLYLCHOATYNLYL 0
root@arm:~# echo 'OOTP''XAYPTE'
OOTPXAYPTE
root@arm:~# MARKER='BWXQ''FBHAYT' run 'i2cget -y -f 1 0x4b 0x15'
BWXQFBHAYT0x00
BWXQFBHAYT 0
root@arm:~# echo 'PAJG''SAQGPF'
PAJGSAQGPF
root@arm:~# MARKER='BPQX''EUEZYS' run 'echo 3100000 3100000 > /sys/kernel/mva_tesst/regulators/buck4_set'
BPQXEUEZYSBPQXEUEZYS 0
root@arm:~# echo 'XKVN''JNHPXZ'
XKVNJNHPXZ
root@arm:~# MARKER='JMEC''CXFUFK' run 'i2cget -y -f 1 0x4b 0x15'
JMECCXFUFK0x01
JMECCXFUFK 0
root@arm:~# echo 'QBQV''ZHYQZU'
QBQVZHYQZU
root@arm:~# MARKER='YSOX''NOZMOC' run 'echo 3200000 3200000 > /sys/kernel/mva_tesst/regulators/buck4_set'
YSOXNOZMOCYSOXNOZMOC 0
root@arm:~# echo 'NTTN''GFPEGJ'
NTTNGFPEGJ
root@arm:~# MARKER='JGCP''VKJHBP' run 'i2cget -y -f 1 0x4b 0x15'
JGCPVKJHBP0x02
JGCPVKJHBP 0
root@arm:~# echo 'VFFX''FXTXQO'
VFFXFXTXQO
root@arm:~# MARKER='VUPO''KKAEVN' run 'echo 3300000 3300000 > /sys/kernel/mva_tesst/regulators/buck4_set'
VUPOKKAEVNVUPOKKAEVN 0
root@arm:~# echo 'OGKS''CAFXEX'
OGKSCAFXEX
root@arm:~# MARKER='OFKH''VKUQAE' run 'i2cget -y -f 1 0x4b 0x15'
OFKHVKUQAE0x03
OFKHVKUQAE 0
root@arm:~# echo 'UWAY''ZHOAKL'
UWAYZHOAKL
root@arm:~# MARKER='MXCY''PJKMKQ' run 'echo 2600000 2600000 > /sys/kernel/mva_tesst/regulators/buck4_set'
MXCYPJKMKQMXCYPJKMKQ 0
root@arm:~# echo 'VCUL''SZEXGV'
VCULSZEXGV
root@arm:~# MARKER='HJGC''CCOKZT' run 'i2cget -y -f 1 0x4b 0x15'
HJGCCCOKZT0x40
HJGCCCOKZT 0
root@arm:~# echo 'FABQ''KGVFCK'
FABQKGVFCK
root@arm:~# MARKER='BZSW''EEJJNC' run 'echo 2700000 2700000 > /sys/kernel/mva_tesst/regulators/buck4_set'
BZSWEEJJNCBZSWEEJJNC 0
root@arm:~# echo 'XNZY''NPQZBZ'
XNZYNPQZBZ
root@arm:~# MARKER='SNEF''AECSCV' run 'i2cget -y -f 1 0x4b 0x15'
SNEFAECSCV0x41
SNEFAECSCV 0
root@arm:~# echo 'YPCL''BUUMZB'
YPCLBUUMZB
root@arm:~# MARKER='VWGJ''LCHCPW' run 'echo 2800000 2800000 > /sys/kernel/mva_tesst/regulators/buck4_set'
VWGJLCHCPWVWGJLCHCPW 0
root@arm:~# echo 'WAHU''GMBZGF'
WAHUGMBZGF
root@arm:~# MARKER='NYYH''ZBSQCT' run 'i2cget -y -f 1 0x4b 0x15'
NYYHZBSQCT0x42
NYYHZBSQCT 0
root@arm:~# echo 'KUVY''CNTXYG'
KUVYCNTXYG
root@arm:~# MARKER='HTVL''NMXSAO' run 'echo 2900000 2900000 > /sys/kernel/mva_tesst/regulators/buck4_set'
HTVLNMXSAOHTVLNMXSAO 0
root@arm:~# echo 'TZWF''NMHCQQ'
TZWFNMHCQQ
root@arm:~# MARKER='LMWW''JKAGUM' run 'i2cget -y -f 1 0x4b 0x15'
LMWWJKAGUM0x43
LMWWJKAGUM 0
root@arm:~# echo 'HTTH''WAHSMN'
HTTHWAHSMN
root@arm:~# MARKER='FVJY''VTLKJJ' run 'grep -r -l rohm,bd71847 /proc/device-tree  | sed '"'"'s![^/]*$!!'"'"''
FVJYVTLKJJ/proc/device-tree/ocp/interconnect@48000000/segment@0/target-module@2a000/i2c@0/pmic@4b/
FVJYVTLKJJ 0
root@arm:~# echo 'JZZC''TBETGB'
JZZCTBETGB
root@arm:~# MARKER='GBYL''TFKFWM' run 'test -f /proc/device-tree/ocp/interconnectt\@48000000/segment\@0/target-module\@2a000/i2c\@0/pmic\@4b/regulators/BUCK5/rohmm,no-regulator-enable-control ;echo $?'
GBYLTFKFWM1
GBYLTFKFWM 0
root@arm:~# echo 'QQQP''MHAHZB'
QQQPMHAHZB
root@arm:~# MARKER='FLAA''CFMAQQ' run 'i2cget -y -f 1 0x4b 0xb'
FLAACFMAQQ0x02
FLAACFMAQQ 0
root@arm:~# echo 'UOHY''OPFVXM'
UOHYOPFVXM
root@arm:~# MARKER='TMTK''FFSSTO' run 'echo 1605000 1605000 > /sys/kernel/mva_tesst/regulators/buck5_set'
TMTKFFSSTOTMTKFFSSTO 0
root@arm:~# echo 'QPFY''VYEESL'
QPFYVYEESL
root@arm:~# MARKER='FYXH''QEOANB' run 'i2cget -y -f 1 0x4b 0x16'
FYXHQEOANB0x00
FYXHQEOANB 0
root@arm:~# echo 'ZZSX''HPGJNL'
ZZSXHPGJNL
root@arm:~# MARKER='TPPO''GTHPQW' run 'echo 1695000 1695000 > /sys/kernel/mva_tesst/regulators/buck5_set'
TPPOGTHPQWTPPOGTHPQW 0
root@arm:~# echo 'BVGK''LFWNNC'
BVGKLFWNNC
root@arm:~# MARKER='FYJA''CGBZAP' run 'i2cget -y -f 1 0x4b 0x16'
FYJACGBZAP0x01
FYJACGBZAP 0
root@arm:~# echo 'CLVF''WVUEZY'
CLVFWVUEZY
root@arm:~# MARKER='JXMX''JJHZZU' run 'echo 1755000 1755000 > /sys/kernel/mva_tesst/regulators/buck5_set'
JXMXJJHZZUJXMXJJHZZU 0
root@arm:~# echo 'MUPV''PMSEPV'
MUPVPMSEPV
root@arm:~# MARKER='OTVP''KOBHZP' run 'i2cget -y -f 1 0x4b 0x16'
OTVPKOBHZP0x02
OTVPKOBHZP 0
root@arm:~# echo 'MVKK''XOBPYY'
MVKKXOBPYY
root@arm:~# MARKER='THVK''TELFPQ' run 'echo 1800000 1800000 > /sys/kernel/mva_tesst/regulators/buck5_set'
THVKTELFPQTHVKTELFPQ 0
root@arm:~# echo 'CVLK''BVNCHO'
CVLKBVNCHO
root@arm:~# MARKER='YZTY''BOSVQG' run 'i2cget -y -f 1 0x4b 0x16'
YZTYBOSVQG0x03
YZTYBOSVQG 0
root@arm:~# echo 'HLWX''FZCVXF'
HLWXFZCVXF
root@arm:~# MARKER='MJLA''TPCFZT' run 'echo 1845000 1845000 > /sys/kernel/mva_tesst/regulators/buck5_set'
MJLATPCFZTMJLATPCFZT 0
root@arm:~# echo 'BKWK''QCJCLY'
BKWKQCJCLY
root@arm:~# MARKER='EBVU''JCJZVA' run 'i2cget -y -f 1 0x4b 0x16'
EBVUJCJZVA0x04
EBVUJCJZVA 0
root@arm:~# echo 'SBJO''LXGKHV'
SBJOLXGKHV
root@arm:~# MARKER='SGQL''MWFSKH' run 'echo 1905000 1905000 > /sys/kernel/mva_tesst/regulators/buck5_set'
SGQLMWFSKHSGQLMWFSKH 0
root@arm:~# echo 'YKPZ''FAQBBP'
YKPZFAQBBP
root@arm:~# MARKER='HFAG''GAWJEP' run 'i2cget -y -f 1 0x4b 0x16'
HFAGGAWJEP0x05
HFAGGAWJEP 0
root@arm:~# echo 'ELAJ''VSYUBB'
ELAJVSYUBB
root@arm:~# MARKER='UWSP''VBNZZP' run 'echo 1950000 1950000 > /sys/kernel/mva_tesst/regulators/buck5_set'
UWSPVBNZZPUWSPVBNZZP 0
root@arm:~# echo 'CUWK''EQEOAK'
CUWKEQEOAK
root@arm:~# MARKER='JWLU''YBQGWN' run 'i2cget -y -f 1 0x4b 0x16'
JWLUYBQGWN0x06
JWLUYBQGWN 0
root@arm:~# echo 'MNAS''HUWCKM'
MNASHUWCKM
root@arm:~# MARKER='FJCS''XQJJQP' run 'echo 1995000 1995000 > /sys/kernel/mva_tesst/regulators/buck5_set'
FJCSXQJJQPFJCSXQJJQP 0
root@arm:~# echo 'SCYY''VAVWYM'
SCYYVAVWYM
root@arm:~# MARKER='AJXY''SYMAWO' run 'i2cget -y -f 1 0x4b 0x16'
AJXYSYMAWO0x07
AJXYSYMAWO 0
root@arm:~# echo 'TELV''TKHTBN'
TELVTKHTBN
root@arm:~# MARKER='KQPB''OGLJBE' run 'grep -r -l rohm,bd71847 /proc/device-tree  | sed '"'"'s![^/]*$!!'"'"''
KQPBOGLJBE/proc/device-tree/ocp/interconnect@48000000/segment@0/target-module@2a000/i2c@0/pmic@4b/
KQPBOGLJBE 0
root@arm:~# echo 'FBHK''VQATFG'
FBHKVQATFG
root@arm:~# MARKER='CCBH''PMUQKK' run 'test -f /proc/device-tree/ocp/interconnectt\@48000000/segment\@0/target-module\@2a000/i2c\@0/pmic\@4b/regulators/BUCK6/rohmm,no-regulator-enable-control ;echo $?'
CCBHPMUQKK1
CCBHPMUQKK 0
root@arm:~# echo 'UCWS''KVXKOP'
UCWSKVXKOP
root@arm:~# MARKER='PYKK''CKCYAW' run 'i2cget -y -f 1 0x4b 0xc'
PYKKCKCYAW0x02
PYKKCKCYAW 0
root@arm:~# echo 'TOKL''WWWSST'
TOKLWWWSST
root@arm:~# MARKER='XJHP''MECECF' run 'echo 800000 800000 > /sys/kernel/mva_test//regulators/buck6_set'
XJHPMECECFXJHPMECECF 0
root@arm:~# echo 'UEQY''SASBKT'
UEQYSASBKT
root@arm:~# MARKER='MMEA''EFUBTL' run 'i2cget -y -f 1 0x4b 0x17'
MMEAEFUBTL0x00
MMEAEFUBTL 0
root@arm:~# echo 'GPJS''EPEGYH'
GPJSEPEGYH
root@arm:~# MARKER='ZNEZ''OWFPZO' run 'echo 810000 810000 > /sys/kernel/mva_test//regulators/buck6_set'
ZNEZOWFPZOZNEZOWFPZO 0
root@arm:~# echo 'PYWV''CGVSGV'
PYWVCGVSGV
root@arm:~# MARKER='WQXO''ZTJBVE' run 'i2cget -y -f 1 0x4b 0x17'
WQXOZTJBVE0x01
WQXOZTJBVE 0
root@arm:~# echo 'EYZX''TPNTHS'
EYZXTPNTHS
root@arm:~# MARKER='KEXF''CZGXKS' run 'echo 820000 820000 > /sys/kernel/mva_test//regulators/buck6_set'
KEXFCZGXKSKEXFCZGXKS 0
root@arm:~# echo 'SSJH''TJXHFZ'
SSJHTJXHFZ
root@arm:~# MARKER='MCUV''ESCHSJ' run 'i2cget -y -f 1 0x4b 0x17'
MCUVESCHSJ0x02
MCUVESCHSJ 0
root@arm:~# echo 'HOYE''YSNXYH'
HOYEYSNXYH
root@arm:~# MARKER='CPVS''ONJLOC' run 'echo 830000 830000 > /sys/kernel/mva_test//regulators/buck6_set'
CPVSONJLOCCPVSONJLOC 0
root@arm:~# echo 'KWZZ''FEOASL'
KWZZFEOASL
root@arm:~# MARKER='JKQO''SXGZEX' run 'i2cget -y -f 1 0x4b 0x17'
JKQOSXGZEX0x03
JKQOSXGZEX 0
root@arm:~# echo 'KQOX''YUWGHT'
KQOXYUWGHT
root@arm:~# MARKER='QPMQ''FBKKSU' run 'echo 840000 840000 > /sys/kernel/mva_test//regulators/buck6_set'
QPMQFBKKSUQPMQFBKKSU 0
root@arm:~# echo 'JUJP''LXKEMS'
JUJPLXKEMS
root@arm:~# MARKER='FQVM''CUFCTC' run 'i2cget -y -f 1 0x4b 0x17'
FQVMCUFCTC0x04
FQVMCUFCTC 0
root@arm:~# echo 'LBSX''HEWHUM'
LBSXHEWHUM
root@arm:~# MARKER='BFUF''CUEQYS' run 'echo 850000 850000 > /sys/kernel/mva_test//regulators/buck6_set'
BFUFCUEQYSBFUFCUEQYS 0
root@arm:~# echo 'SGZL''SSWGZA'
SGZLSSWGZA
root@arm:~# MARKER='WHTW''LNUBMN' run 'i2cget -y -f 1 0x4b 0x17'
WHTWLNUBMN0x05
WHTWLNUBMN 0
root@arm:~# echo 'QVNM''MFHHGX'
QVNMMFHHGX
root@arm:~# MARKER='WBGJ''GEQTHL' run 'echo 860000 860000 > /sys/kernel/mva_test//regulators/buck6_set'
WBGJGEQTHLWBGJGEQTHL 0
root@arm:~# echo 'XGCU''MVVWVT'
XGCUMVVWVT
root@arm:~# MARKER='NAQH''WBQSFK' run 'i2cget -y -f 1 0x4b 0x17'
NAQHWBQSFK0x06
NAQHWBQSFK 0
root@arm:~# echo 'NJEQ''GWVHOY'
NJEQGWVHOY
root@arm:~# MARKER='VXHG''MZNVBU' run 'echo 870000 870000 > /sys/kernel/mva_test//regulators/buck6_set'
VXHGMZNVBUVXHGMZNVBU 0
root@arm:~# echo 'ANGA''PJSWCC'
ANGAPJSWCC
root@arm:~# MARKER='PHOP''YMMWKU' run 'i2cget -y -f 1 0x4b 0x17'
PHOPYMMWKU0x07
PHOPYMMWKU 0
root@arm:~# echo 'PQFW''UEHWJV'
PQFWUEHWJV
root@arm:~# MARKER='BANP''LNVJSX' run 'echo 880000 880000 > /sys/kernel/mva_test//regulators/buck6_set'
BANPLNVJSXBANPLNVJSX 0
root@arm:~# echo 'YLMN''BTETON'
YLMNBTETON
root@arm:~# MARKER='UEEZ''ONVMFW' run 'i2cget -y -f 1 0x4b 0x17'
UEEZONVMFW0x08
UEEZONVMFW 0
root@arm:~# echo 'EFKZ''UYSPSJ'
EFKZUYSPSJ
root@arm:~# MARKER='UKEA''QOUYYH' run 'echo 890000 890000 > /sys/kernel/mva_test//regulators/buck6_set'
UKEAQOUYYHUKEAQOUYYH 0
root@arm:~# echo 'VXOO''LGNKFZ'
VXOOLGNKFZ
root@arm:~# MARKER='FTFX''NYYGVO' run 'i2cget -y -f 1 0x4b 0x17'
FTFXNYYGVO0x09
FTFXNYYGVO 0
root@arm:~# echo 'FLEY''MZCYGK'
FLEYMZCYGK
root@arm:~# MARKER='SSLV''YNCQKP' run 'echo 900000 900000 > /sys/kernel/mva_test//regulators/buck6_set'
SSLVYNCQKPSSLVYNCQKP 0
root@arm:~# echo 'SXCN''KSFCOM'
SXCNKSFCOM
root@arm:~# MARKER='ZLJK''UWSMAU' run 'i2cget -y -f 1 0x4b 0x17'
ZLJKUWSMAU0x0a
ZLJKUWSMAU 0
root@arm:~# echo 'GZKC''PLBNAA'
GZKCPLBNAA
root@arm:~# MARKER='GLVQ''FLHCKJ' run 'echo 910000 910000 > /sys/kernel/mva_test//regulators/buck6_set'
GLVQFLHCKJGLVQFLHCKJ 0
root@arm:~# echo 'AXAQ''YENWCJ'
AXAQYENWCJ
root@arm:~# MARKER='TBLS''MAVLZB' run 'i2cget -y -f 1 0x4b 0x17'
TBLSMAVLZB0x0b
TBLSMAVLZB 0
root@arm:~# echo 'CBVQ''ZUJKNM'
CBVQZUJKNM
root@arm:~# MARKER='KVAQ''BNQTAT' run 'echo 920000 920000 > /sys/kernel/mva_test//regulators/buck6_set'
KVAQBNQTATKVAQBNQTAT 0
root@arm:~# echo 'BLYJ''TWAOAW'
BLYJTWAOAW
root@arm:~# MARKER='CSWG''FCNSTX' run 'i2cget -y -f 1 0x4b 0x17'
CSWGFCNSTX0x0c
CSWGFCNSTX 0
root@arm:~# echo 'VVTQ''CMMAEL'
VVTQCMMAEL
root@arm:~# MARKER='LOKW''YXWHFY' run 'echo 930000 930000 > /sys/kernel/mva_test//regulators/buck6_set'
LOKWYXWHFYLOKWYXWHFY 0
root@arm:~# echo 'VGVU''EXWTJG'
VGVUEXWTJG
root@arm:~# MARKER='BEYN''QKQKPT' run 'i2cget -y -f 1 0x4b 0x17'
BEYNQKQKPT0x0d
BEYNQKQKPT 0
root@arm:~# echo 'YZMN''ONSFSE'
YZMNONSFSE
root@arm:~# MARKER='QHAL''MKEOAU' run 'echo 940000 940000 > /sys/kernel/mva_test//regulators/buck6_set'
QHALMKEOAUQHALMKEOAU 0
root@arm:~# echo 'TUXP''VZNAGS'
TUXPVZNAGS
root@arm:~# MARKER='VPMF''WNOMEY' run 'i2cget -y -f 1 0x4b 0x17'
VPMFWNOMEY0x0e
VPMFWNOMEY 0
root@arm:~# echo 'NBKZ''MTJBNS'
NBKZMTJBNS
root@arm:~# MARKER='UFZQ''BQHUQH' run 'echo 950000 950000 > /sys/kernel/mva_test//regulators/buck6_set'
UFZQBQHUQHUFZQBQHUQH 0
root@arm:~# echo 'ZESU''WSYUOP'
ZESUWSYUOP
root@arm:~# MARKER='VWKO''CVQQXK' run 'i2cget -y -f 1 0x4b 0x17'
VWKOCVQQXK0x0f
VWKOCVQQXK 0
root@arm:~# echo 'NXPX''SKCWEZ'
NXPXSKCWEZ
root@arm:~# MARKER='YMYU''OVKLTE' run 'echo 960000 960000 > /sys/kernel/mva_test//regulators/buck6_set'
YMYUOVKLTEYMYUOVKLTE 0
root@arm:~# echo 'NJLU''WWNZMY'
NJLUWWNZMY
root@arm:~# MARKER='AYES''LEVFSE' run 'i2cget -y -f 1 0x4b 0x17'
AYESLEVFSE0x10
AYESLEVFSE 0
root@arm:~# echo 'JAZV''UBPTPT'
JAZVUBPTPT
root@arm:~# MARKER='KLBJ''FZLEZL' run 'echo 970000 970000 > /sys/kernel/mva_test//regulators/buck6_set'
KLBJFZLEZLKLBJFZLEZL 0
root@arm:~# echo 'AJZV''WOOMVB'
AJZVWOOMVB
root@arm:~# MARKER='ALMX''LKJJUX' run 'i2cget -y -f 1 0x4b 0x17'
ALMXLKJJUX0x11
ALMXLKJJUX 0
root@arm:~# echo 'BJHK''JFSVKB'
BJHKJFSVKB
root@arm:~# MARKER='LLGL''PYZQTZ' run 'echo 980000 980000 > /sys/kernel/mva_test//regulators/buck6_set'
LLGLPYZQTZLLGLPYZQTZ 0
root@arm:~# echo 'FVUE''CEPQMO'
FVUECEPQMO
root@arm:~# MARKER='FKPQ''ZVJFLX' run 'i2cget -y -f 1 0x4b 0x17'
FKPQZVJFLX0x12
FKPQZVJFLX 0
root@arm:~# echo 'SHNW''NKAXEJ'
SHNWNKAXEJ
root@arm:~# MARKER='WCBO''OMGGFJ' run 'echo 990000 990000 > /sys/kernel/mva_test//regulators/buck6_set'
WCBOOMGGFJWCBOOMGGFJ 0
root@arm:~# echo 'QZYN''SWZZLN'
QZYNSWZZLN
root@arm:~# MARKER='TNOJ''LWJAYX' run 'i2cget -y -f 1 0x4b 0x17'
TNOJLWJAYX0x13
TNOJLWJAYX 0
root@arm:~# echo 'KSYY''QPLUPJ'
KSYYQPLUPJ
root@arm:~# MARKER='WXKA''WZLXJA' run 'echo 1000000 1000000 > /sys/kernel/mva_tesst/regulators/buck6_set'
WXKAWZLXJAWXKAWZLXJA 0
root@arm:~# echo 'NTJV''MOZUMX'
NTJVMOZUMX
root@arm:~# MARKER='KQXZ''WBEAOA' run 'i2cget -y -f 1 0x4b 0x17'
KQXZWBEAOA0x14
KQXZWBEAOA 0
root@arm:~# echo 'PXQY''GQAOHG'
PXQYGQAOHG
root@arm:~# MARKER='HFAP''MCHPGW' run 'echo 1010000 1010000 > /sys/kernel/mva_tesst/regulators/buck6_set'
HFAPMCHPGWHFAPMCHPGW 0
root@arm:~# echo 'CFJW''AWATUU'
CFJWAWATUU
root@arm:~# MARKER='XPJN''ZUPXBE' run 'i2cget -y -f 1 0x4b 0x17'
XPJNZUPXBE0x15
XPJNZUPXBE 0
root@arm:~# echo 'XNAG''FHWSZG'
XNAGFHWSZG
root@arm:~# MARKER='EXNN''AXEECA' run 'echo 1020000 1020000 > /sys/kernel/mva_tesst/regulators/buck6_set'
EXNNAXEECAEXNNAXEECA 0
root@arm:~# echo 'XONB''ECAVJY'
XONBECAVJY
root@arm:~# MARKER='MESV''KYAQLW' run 'i2cget -y -f 1 0x4b 0x17'
MESVKYAQLW0x16
MESVKYAQLW 0
root@arm:~# echo 'BFCE''NKWAZH'
BFCENKWAZH
root@arm:~# MARKER='QGFA''HTUTKV' run 'echo 1030000 1030000 > /sys/kernel/mva_tesst/regulators/buck6_set'
QGFAHTUTKVQGFAHTUTKV 0
root@arm:~# echo 'HVYS''FTKVKW'
HVYSFTKVKW
root@arm:~# MARKER='GQLQ''JNOHOZ' run 'i2cget -y -f 1 0x4b 0x17'
GQLQJNOHOZ0x17
GQLQJNOHOZ 0
root@arm:~# echo 'KWMN''XLZNGP'
KWMNXLZNGP
root@arm:~# MARKER='FWMX''SQNMGL' run 'echo 1040000 1040000 > /sys/kernel/mva_tesst/regulators/buck6_set'
FWMXSQNMGLFWMXSQNMGL 0
root@arm:~# echo 'GWAA''USLOKB'
GWAAUSLOKB
root@arm:~# MARKER='CSXO''OJLABL' run 'i2cget -y -f 1 0x4b 0x17'
CSXOOJLABL0x18
CSXOOJLABL 0
root@arm:~# echo 'VHHY''SBSCHW'
VHHYSBSCHW
root@arm:~# MARKER='THBU''HJWYTE' run 'echo 1050000 1050000 > /sys/kernel/mva_tesst/regulators/buck6_set'
THBUHJWYTETHBUHJWYTE 0
root@arm:~# echo 'QELT''PSSNKJ'
QELTPSSNKJ
root@arm:~# MARKER='OUQV''BQAHVJ' run 'i2cget -y -f 1 0x4b 0x17'
OUQVBQAHVJ0x19
OUQVBQAHVJ 0
root@arm:~# echo 'BBOA''SOKTXT'
BBOASOKTXT
root@arm:~# MARKER='KKEL''EYTEBH' run 'echo 1060000 1060000 > /sys/kernel/mva_tesst/regulators/buck6_set'
KKELEYTEBHKKELEYTEBH 0
root@arm:~# echo 'TUQP''PCSBTQ'
TUQPPCSBTQ
root@arm:~# MARKER='FQUX''XSLXCY' run 'i2cget -y -f 1 0x4b 0x17'
FQUXXSLXCY0x1a
FQUXXSLXCY 0
root@arm:~# echo 'BHJM''KTMFMS'
BHJMKTMFMS
root@arm:~# MARKER='KHSK''GNQCKN' run 'echo 1070000 1070000 > /sys/kernel/mva_tesst/regulators/buck6_set'
KHSKGNQCKNKHSKGNQCKN 0
root@arm:~# echo 'ZYZB''VJBYHY'
ZYZBVJBYHY
root@arm:~# MARKER='SZJG''YTYUXQ' run 'i2cget -y -f 1 0x4b 0x17'
SZJGYTYUXQ0x1b
SZJGYTYUXQ 0
root@arm:~# echo 'LQZT''KFNYKK'
LQZTKFNYKK
root@arm:~# MARKER='GNAP''VULALT' run 'echo 1080000 1080000 > /sys/kernel/mva_tesst/regulators/buck6_set'
GNAPVULALTGNAPVULALT 0
root@arm:~# echo 'VVEP''ZUVMJC'
VVEPZUVMJC
root@arm:~# MARKER='WXSH''VUBKJU' run 'i2cget -y -f 1 0x4b 0x17'
WXSHVUBKJU0x1c
WXSHVUBKJU 0
root@arm:~# echo 'BNYP''SHSBOC'
BNYPSHSBOC
root@arm:~# MARKER='AMSU''YLNBAP' run 'echo 1090000 1090000 > /sys/kernel/mva_tesst/regulators/buck6_set'
AMSUYLNBAPAMSUYLNBAP 0
root@arm:~# echo 'BZVS''TNHVKF'
BZVSTNHVKF
root@arm:~# MARKER='POAC''BNZQWK' run 'i2cget -y -f 1 0x4b 0x17'
POACBNZQWK0x1d
POACBNZQWK 0
root@arm:~# echo 'ZCYZ''NKJELE'
ZCYZNKJELE
root@arm:~# MARKER='ASAO''CYKWCW' run 'echo 1100000 1100000 > /sys/kernel/mva_tesst/regulators/buck6_set'
ASAOCYKWCWASAOCYKWCW 0
root@arm:~# echo 'PVLB''TFQMZG'
PVLBTFQMZG
root@arm:~# MARKER='JENF''ALNBWO' run 'i2cget -y -f 1 0x4b 0x17'
JENFALNBWO0x1e
JENFALNBWO 0
root@arm:~# echo 'KXEZ''OTPGHJ'
KXEZOTPGHJ
root@arm:~# MARKER='UGGY''BWUTMK' run 'echo 1110000 1110000 > /sys/kernel/mva_tesst/regulators/buck6_set'
UGGYBWUTMKUGGYBWUTMK 0
root@arm:~# echo 'WCJE''GCNYFP'
WCJEGCNYFP
root@arm:~# MARKER='QLLA''SLQWKF' run 'i2cget -y -f 1 0x4b 0x17'
QLLASLQWKF0x1f
QLLASLQWKF 0
root@arm:~# echo 'VEPG''BJQMVX'
VEPGBJQMVX
root@arm:~# MARKER='YWFO''GHONJT' run 'echo 1120000 1120000 > /sys/kernel/mva_tesst/regulators/buck6_set'
YWFOGHONJTYWFOGHONJT 0
root@arm:~# echo 'POQN''GNBQFQ'
POQNGNBQFQ
root@arm:~# MARKER='MGHG''ZLUXHU' run 'i2cget -y -f 1 0x4b 0x17'
MGHGZLUXHU0x20
MGHGZLUXHU 0
root@arm:~# echo 'WXTG''SHQXFM'
WXTGSHQXFM
root@arm:~# MARKER='VYBY''PXMJCJ' run 'echo 1130000 1130000 > /sys/kernel/mva_tesst/regulators/buck6_set'
VYBYPXMJCJVYBYPXMJCJ 0
root@arm:~# echo 'CUXJ''TOQMMM'
CUXJTOQMMM
root@arm:~# MARKER='CNBU''BNPUMC' run 'i2cget -y -f 1 0x4b 0x17'
CNBUBNPUMC0x21
CNBUBNPUMC 0
root@arm:~# echo 'BPPY''XNZATH'
BPPYXNZATH
root@arm:~# MARKER='XKLT''ZACUJO' run 'echo 1140000 1140000 > /sys/kernel/mva_tesst/regulators/buck6_set'
XKLTZACUJOXKLTZACUJO 0
root@arm:~# echo 'ONZK''NFQLUQ'
ONZKNFQLUQ
root@arm:~# MARKER='MLJF''YULLGL' run 'i2cget -y -f 1 0x4b 0x17'
MLJFYULLGL0x22
MLJFYULLGL 0
root@arm:~# echo 'WBCT''HGTZJJ'
WBCTHGTZJJ
root@arm:~# MARKER='JPFA''ABBHJX' run 'echo 1150000 1150000 > /sys/kernel/mva_tesst/regulators/buck6_set'
JPFAABBHJXJPFAABBHJX 0
root@arm:~# echo 'TBAY''HGGCFE'
TBAYHGGCFE
root@arm:~# MARKER='YTJM''XFLEST' run 'i2cget -y -f 1 0x4b 0x17'
YTJMXFLEST0x23
YTJMXFLEST 0
root@arm:~# echo 'YJWP''TNWGVB'
YJWPTNWGVB
root@arm:~# MARKER='SWEG''WFEKCJ' run 'echo 1160000 1160000 > /sys/kernel/mva_tesst/regulators/buck6_set'
SWEGWFEKCJSWEGWFEKCJ 0
root@arm:~# echo 'YNMP''NSMUQB'
YNMPNSMUQB
root@arm:~# MARKER='JUSO''UANKTO' run 'i2cget -y -f 1 0x4b 0x17'
JUSOUANKTO0x24
JUSOUANKTO 0
root@arm:~# echo 'HNPA''OVXNFX'
HNPAOVXNFX
root@arm:~# MARKER='MHOF''MLXKZO' run 'echo 1170000 1170000 > /sys/kernel/mva_tesst/regulators/buck6_set'
MHOFMLXKZOMHOFMLXKZO 0
root@arm:~# echo 'HLUG''PVEAAW'
HLUGPVEAAW
root@arm:~# MARKER='GFXP''TCBSTS' run 'i2cget -y -f 1 0x4b 0x17'
GFXPTCBSTS0x25
GFXPTCBSTS 0
root@arm:~# echo 'LTAO''YFUSVG'
LTAOYFUSVG
root@arm:~# MARKER='KENM''KXFZFJ' run 'echo 1180000 1180000 > /sys/kernel/mva_tesst/regulators/buck6_set'
KENMKXFZFJKENMKXFZFJ 0
root@arm:~# echo 'VSKQ''QEBXYE'
VSKQQEBXYE
root@arm:~# MARKER='NXEY''WQFJQZ' run 'i2cget -y -f 1 0x4b 0x17'
NXEYWQFJQZ0x26
NXEYWQFJQZ 0
root@arm:~# echo 'OKFL''PCZETP'
OKFLPCZETP
root@arm:~# MARKER='EHSB''UMLEUW' run 'echo 1190000 1190000 > /sys/kernel/mva_tesst/regulators/buck6_set'
EHSBUMLEUWEHSBUMLEUW 0
root@arm:~# echo 'UVJJ''NNJBHW'
UVJJNNJBHW
root@arm:~# MARKER='JPSA''JCOLOQ' run 'i2cget -y -f 1 0x4b 0x17'
JPSAJCOLOQ0x27
JPSAJCOLOQ 0
root@arm:~# echo 'XOZV''PLTNZM'
XOZVPLTNZM
root@arm:~# MARKER='EFAB''LOBXTA' run 'echo 1200000 1200000 > /sys/kernel/mva_tesst/regulators/buck6_set'
EFABLOBXTAEFABLOBXTA 0
root@arm:~# echo 'ZZJJ''MPCSFL'
ZZJJMPCSFL
root@arm:~# MARKER='UMLG''EYGMUX' run 'i2cget -y -f 1 0x4b 0x17'
UMLGEYGMUX0x28
UMLGEYGMUX 0
root@arm:~# echo 'JTUH''EAYCPJ'
JTUHEAYCPJ
root@arm:~# MARKER='NLTE''VCLJHC' run 'echo 1210000 1210000 > /sys/kernel/mva_tesst/regulators/buck6_set'
NLTEVCLJHCNLTEVCLJHC 0
root@arm:~# echo 'NONE''LCTPEU'
NONELCTPEU
root@arm:~# MARKER='OUWV''BEPUOV' run 'i2cget -y -f 1 0x4b 0x17'
OUWVBEPUOV0x29
OUWVBEPUOV 0
root@arm:~# echo 'CGNT''AWVBWV'
CGNTAWVBWV
root@arm:~# MARKER='GKLM''SMYVXH' run 'echo 1220000 1220000 > /sys/kernel/mva_tesst/regulators/buck6_set'
GKLMSMYVXHGKLMSMYVXH 0
root@arm:~# echo 'BLWE''JBPPGX'
BLWEJBPPGX
root@arm:~# MARKER='KQXE''FWOAUT' run 'i2cget -y -f 1 0x4b 0x17'
KQXEFWOAUT0x2a
KQXEFWOAUT 0
root@arm:~# echo 'EEPN''AKHHCU'
EEPNAKHHCU
root@arm:~# MARKER='VHXG''CWOVUL' run 'echo 1230000 1230000 > /sys/kernel/mva_tesst/regulators/buck6_set'
VHXGCWOVULVHXGCWOVUL 0
root@arm:~# echo 'JAZB''ETWTKZ'
JAZBETWTKZ
root@arm:~# MARKER='PKFA''APWPEX' run 'i2cget -y -f 1 0x4b 0x17'
PKFAAPWPEX0x2b
PKFAAPWPEX 0
root@arm:~# echo 'PTFB''ACBLNQ'
PTFBACBLNQ
root@arm:~# MARKER='CBHG''ABMUWU' run 'echo 1240000 1240000 > /sys/kernel/mva_tesst/regulators/buck6_set'
CBHGABMUWUCBHGABMUWU 0
root@arm:~# echo 'SHWS''POMWNP'
SHWSPOMWNP
root@arm:~# MARKER='JBUK''GWZXTU' run 'i2cget -y -f 1 0x4b 0x17'
JBUKGWZXTU0x2c
JBUKGWZXTU 0
root@arm:~# echo 'ZOVN''TJQCOK'
ZOVNTJQCOK
root@arm:~# MARKER='KBAP''WLVFZT' run 'echo 1250000 1250000 > /sys/kernel/mva_tesst/regulators/buck6_set'
KBAPWLVFZTKBAPWLVFZT 0
root@arm:~# echo 'OJLF''EAJYMK'
OJLFEAJYMK
root@arm:~# MARKER='WKWA''TVYPLF' run 'i2cget -y -f 1 0x4b 0x17'
WKWATVYPLF0x2d
WKWATVYPLF 0
root@arm:~# echo 'VFSE''AMHCLC'
VFSEAMHCLC
root@arm:~# MARKER='CXMP''CENHZH' run 'echo 1260000 1260000 > /sys/kernel/mva_tesst/regulators/buck6_set'
CXMPCENHZHCXMPCENHZH 0
root@arm:~# echo 'BBVN''ZBUGMJ'
BBVNZBUGMJ
root@arm:~# MARKER='YHMG''ULLLAV' run 'i2cget -y -f 1 0x4b 0x17'
YHMGULLLAV0x2e
YHMGULLLAV 0
root@arm:~# echo 'AGTJ''EKGMYY'
AGTJEKGMYY
root@arm:~# MARKER='LEFP''OVKJGP' run 'echo 1270000 1270000 > /sys/kernel/mva_tesst/regulators/buck6_set'
LEFPOVKJGPLEFPOVKJGP 0
root@arm:~# echo 'UOAW''WCOBFY'
UOAWWCOBFY
root@arm:~# MARKER='ZFLL''OULXWC' run 'i2cget -y -f 1 0x4b 0x17'
ZFLLOULXWC0x2f
ZFLLOULXWC 0
root@arm:~# echo 'JCZN''WJJWLU'
JCZNWJJWLU
root@arm:~# MARKER='NQLM''LEGJGN' run 'echo 1280000 1280000 > /sys/kernel/mva_tesst/regulators/buck6_set'
NQLMLEGJGNNQLMLEGJGN 0
root@arm:~# echo 'LNTA''FLEWJK'
LNTAFLEWJK
root@arm:~# MARKER='SNGK''MCTEAH' run 'i2cget -y -f 1 0x4b 0x17'
SNGKMCTEAH0x30
SNGKMCTEAH 0
root@arm:~# echo 'JAEZ''SVOMZG'
JAEZSVOMZG
root@arm:~# MARKER='CKFE''SHMHWE' run 'echo 1290000 1290000 > /sys/kernel/mva_tesst/regulators/buck6_set'
CKFESHMHWECKFESHMHWE 0
root@arm:~# echo 'AQOO''WYZXJB'
AQOOWYZXJB
root@arm:~# MARKER='EWMK''WVJPQK' run 'i2cget -y -f 1 0x4b 0x17'
EWMKWVJPQK0x31
EWMKWVJPQK 0
root@arm:~# echo 'OXKZ''YFAEXM'
OXKZYFAEXM
root@arm:~# MARKER='EJHG''YTAHFH' run 'echo 1300000 1300000 > /sys/kernel/mva_tesst/regulators/buck6_set'
EJHGYTAHFHEJHGYTAHFH 0
root@arm:~# echo 'THLV''KELZBF'
THLVKELZBF
root@arm:~# MARKER='FAUP''LMESNL' run 'i2cget -y -f 1 0x4b 0x17'
FAUPLMESNL0x32
FAUPLMESNL 0
root@arm:~# echo 'QLLX''KAZYKM'
QLLXKAZYKM
root@arm:~# MARKER='PUXJ''UQZJNA' run 'echo 1310000 1310000 > /sys/kernel/mva_tesst/regulators/buck6_set'
PUXJUQZJNAPUXJUQZJNA 0
root@arm:~# echo 'TSVW''LZCEZW'
TSVWLZCEZW
root@arm:~# MARKER='CMMQ''JBQHXL' run 'i2cget -y -f 1 0x4b 0x17'
CMMQJBQHXL0x33
CMMQJBQHXL 0
root@arm:~# echo 'AAPW''BUTXCH'
AAPWBUTXCH
root@arm:~# MARKER='XXZO''BLTNAV' run 'echo 1320000 1320000 > /sys/kernel/mva_tesst/regulators/buck6_set'
XXZOBLTNAVXXZOBLTNAV 0
root@arm:~# echo 'KPJG''QMMWBF'
KPJGQMMWBF
root@arm:~# MARKER='EVLE''QGUTBB' run 'i2cget -y -f 1 0x4b 0x17'
EVLEQGUTBB0x34
EVLEQGUTBB 0
root@arm:~# echo 'BVMQ''GPCLPA'
BVMQGPCLPA
root@arm:~# MARKER='CQOJ''TUFEVY' run 'echo 1330000 1330000 > /sys/kernel/mva_tesst/regulators/buck6_set'
CQOJTUFEVYCQOJTUFEVY 0
root@arm:~# echo 'SKLK''HUWSUC'
SKLKHUWSUC
root@arm:~# MARKER='UGNC''JGKAGC' run 'i2cget -y -f 1 0x4b 0x17'
UGNCJGKAGC0x35
UGNCJGKAGC 0
root@arm:~# echo 'ANSJ''VTAVKJ'
ANSJVTAVKJ
root@arm:~# MARKER='BSHB''NPPQGP' run 'echo 1340000 1340000 > /sys/kernel/mva_tesst/regulators/buck6_set'
BSHBNPPQGPBSHBNPPQGP 0
root@arm:~# echo 'WJVY''YUWGQB'
WJVYYUWGQB
root@arm:~# MARKER='UYAV''ECOJKP' run 'i2cget -y -f 1 0x4b 0x17'
UYAVECOJKP0x36
UYAVECOJKP 0
root@arm:~# echo 'TQOG''XCCANB'
TQOGXCCANB
root@arm:~# MARKER='HBYK''LQHTBV' run 'echo 1350000 1350000 > /sys/kernel/mva_tesst/regulators/buck6_set'
HBYKLQHTBVHBYKLQHTBV 0
root@arm:~# echo 'HVYK''OGMXPE'
HVYKOGMXPE
root@arm:~# MARKER='OFHX''LYJZKP' run 'i2cget -y -f 1 0x4b 0x17'
OFHXLYJZKP0x37
OFHXLYJZKP 0
root@arm:~# echo 'LYVZ''SEYKPN'
LYVZSEYKPN
root@arm:~# MARKER='SUYC''GLNAKA' run 'echo 1360000 1360000 > /sys/kernel/mva_tesst/regulators/buck6_set'
SUYCGLNAKASUYCGLNAKA 0
root@arm:~# echo 'CJMM''EJMQYS'
CJMMEJMQYS
root@arm:~# MARKER='WHCC''UEVGTC' run 'i2cget -y -f 1 0x4b 0x17'
WHCCUEVGTC0x38
WHCCUEVGTC 0
root@arm:~# echo 'KCYX''MWGMTO'
KCYXMWGMTO
root@arm:~# MARKER='BKHZ''WPNAST' run 'echo 1370000 1370000 > /sys/kernel/mva_tesst/regulators/buck6_set'
BKHZWPNASTBKHZWPNAST 0
root@arm:~# echo 'ABFF''HKHWKT'
ABFFHKHWKT
root@arm:~# MARKER='GWEX''XUGMUX' run 'i2cget -y -f 1 0x4b 0x17'
GWEXXUGMUX0x39
GWEXXUGMUX 0
root@arm:~# echo 'NMOY''HXYHEY'
NMOYHXYHEY
root@arm:~# MARKER='AFUB''EAFFJK' run 'echo 1380000 1380000 > /sys/kernel/mva_tesst/regulators/buck6_set'
AFUBEAFFJKAFUBEAFFJK 0
root@arm:~# echo 'ATPO''ZPPQCU'
ATPOZPPQCU
root@arm:~# MARKER='JKEO''YVMACC' run 'i2cget -y -f 1 0x4b 0x17'
JKEOYVMACC0x3a
JKEOYVMACC 0
root@arm:~# echo 'EHUE''PNTZHP'
EHUEPNTZHP
root@arm:~# MARKER='CBXZ''LWYOZN' run 'echo 1390000 1390000 > /sys/kernel/mva_tesst/regulators/buck6_set'
CBXZLWYOZNCBXZLWYOZN 0
root@arm:~# echo 'WMBV''EMEVZE'
WMBVEMEVZE
root@arm:~# MARKER='JOEM''HFSQYQ' run 'i2cget -y -f 1 0x4b 0x17'
JOEMHFSQYQ0x3b
JOEMHFSQYQ 0
root@arm:~# echo 'QSFQ''PXBUMX'
QSFQPXBUMX
root@arm:~# MARKER='JJUV''MSLNHP' run 'echo 1400000 1400000 > /sys/kernel/mva_tesst/regulators/buck6_set'
JJUVMSLNHPJJUVMSLNHP 0
root@arm:~# echo 'BLTZ''HSGCOL'
BLTZHSGCOL
root@arm:~# MARKER='HQON''SGMAOK' run 'i2cget -y -f 1 0x4b 0x17'
HQONSGMAOK0x3c
HQONSGMAOK 0
root@arm:~# echo 'XVLP''CGGOUQ'
XVLPCGGOUQ
root@arm:~# MARKER='FLXL''CYTFJA' run 'grep -r -l rohm,bd71847 /proc/device-tree  | sed '"'"'s![^/]*$!!'"'"''
FLXLCYTFJA/proc/device-tree/ocp/interconnect@48000000/segment@0/target-module@2a000/i2c@0/pmic@4b/
FLXLCYTFJA 0
root@arm:~# echo 'PHYC''JTSXTN'
PHYCJTSXTN
root@arm:~# MARKER='XFQO''EGXTCE' run 'test -f /proc/device-tree/ocp/interconnectt\@48000000/segment\@0/target-module\@2a000/i2c\@0/pmic\@4b/regulators/LDO1/rohm ,no-regulator-enable-control ;echo $?'
XFQOEGXTCE1
XFQOEGXTCE 0
root@arm:~# echo 'KNLU''PFZLJH'
KNLUPFZLJH
root@arm:~# MARKER='QMAV''VHNNMT' run 'i2cget -y -f 1 0x4b 0x18'
QMAVVHNNMT0xa2
QMAVVHNNMT 0
root@arm:~# echo 'WLXA''FBNCZV'
WLXAFBNCZV
