Labgrid Console Logfile for main
Logfile started at 2024-12-19 09:13:42.752617
=== Log starts here ===

root@arm:~# run() { echo -n "$MARKER"; sh -c "$@"; echo "$MARKER $?"; }
root@arm:~# echo 'KEWP''FYLSEK'
KEWPFYLSEK
root@arm:~# MARKER='KYFY''GKFLFY' run 'grep -r -l rohm,bd71837 /proc/device-tree  | sed '"'"'s![^/]*$!!'"'"''
KYFYGKFLFY/proc/device-tree/ocp/interconnect@48000000/segment@100000/target-module@9c000/i2c@0/pmic@4b/
KYFYGKFLFY 0
root@arm:~# echo 'HZQJ''MUGUEG'
HZQJMUGUEG
root@arm:~# MARKER='CFTW''MHTNWU' run 'test -f /proc/device-tree/ocp/interconnectt\@48000000/segment\@100000/target-module\@9c000/i2c\@0/pmic\@4b/regulators/BUCK11/rohm,no-regulator-enable-control ;echo $?'
CFTWMHTNWU1
CFTWMHTNWU 0
root@arm:~# echo 'XLBS''QJSXHE'
XLBSQJSXHE
root@arm:~# MARKER='BCXP''XENNXU' run 'echo 1 > /sys/kernel/mva_test/regulators/bbuck1_en'
BCXPXENNXUBCXPXENNXU 0
root@arm:~# echo 'PLQY''HASQAL'
PLQYHASQAL
root@arm:~# MARKER='YZYB''QANHYO' run 'i2cget -y -f 2 0x4b 0x5'
YZYBQANHYO0x03
YZYBQANHYO 0
root@arm:~# echo 'MFZL''EWJATN'
MFZLEWJATN
root@arm:~# MARKER='NTFX''CVLQOM' run 'grep -r -l rohm,bd71837 /proc/device-tree  | sed '"'"'s![^/]*$!!'"'"''
NTFXCVLQOM/proc/device-tree/ocp/interconnect@48000000/segment@100000/target-module@9c000/i2c@0/pmic@4b/
NTFXCVLQOM 0
root@arm:~# echo 'JSOM''THCAOG'
JSOMTHCAOG
root@arm:~# MARKER='PAXH''BKNTAY' run 'test -f /proc/device-tree/ocp/interconnectt\@48000000/segment\@100000/target-module\@9c000/i2c\@0/pmic\@4b/regulators/BUCK11/rohm,no-regulator-enable-control ;echo $?'
PAXHBKNTAY1
PAXHBKNTAY 0
root@arm:~# echo 'OQTL''JNGTXX'
OQTLJNGTXX
root@arm:~# MARKER='YMUM''SSZPUH' run 'grep -r -l rohm,bd71837 /proc/device-tree  | sed '"'"'s![^/]*$!!'"'"''
YMUMSSZPUH/proc/device-tree/ocp/interconnect@48000000/segment@100000/target-module@9c000/i2c@0/pmic@4b/
YMUMSSZPUH 0
root@arm:~# echo 'BWNB''YGZNGW'
BWNBYGZNGW
root@arm:~# MARKER='MVWG''TKGYOM' run 'test -f /proc/device-tree/ocp/interconnectt\@48000000/segment\@100000/target-module\@9c000/i2c\@0/pmic\@4b/regulators/BUCK11/regulator-always-on ;echo $?'
MVWGTKGYOM1
MVWGTKGYOM 0
root@arm:~# echo 'MXUA''PUSXSW'
MXUAPUSXSW
root@arm:~# MARKER='PEXW''VLUAZO' run 'echo 0 > /sys/kernel/mva_test/regulators/bbuck1_en'
PEXWVLUAZOPEXWVLUAZO 0
root@arm:~# echo 'LCAM''OBUZBL'
LCAMOBUZBL
root@arm:~# MARKER='KJPN''PZAOJG' run 'i2cget -y -f 2 0x4b 0x5'
KJPNPZAOJG0x02
KJPNPZAOJG 0
root@arm:~# echo 'ZNMB''TKZKLN'
ZNMBTKZKLN
root@arm:~# MARKER='CLCM''CUAUWG' run 'grep -r -l rohm,bd71837 /proc/device-tree  | sed '"'"'s![^/]*$!!'"'"''
CLCMCUAUWG/proc/device-tree/ocp/interconnect@48000000/segment@100000/target-module@9c000/i2c@0/pmic@4b/
CLCMCUAUWG 0
root@arm:~# echo 'LGHZ''CUXTCP'
LGHZCUXTCP
root@arm:~# MARKER='VCFO''GYWYUK' run 'test -f /proc/device-tree/ocp/interconnectt\@48000000/segment\@100000/target-module\@9c000/i2c\@0/pmic\@4b/regulators/BUCK22/rohm,no-regulator-enable-control ;echo $?'
VCFOGYWYUK1
VCFOGYWYUK 0
root@arm:~# echo 'VGAW''SCXNKE'
VGAWSCXNKE
root@arm:~# MARKER='CCTV''ALAJHG' run 'echo 1 > /sys/kernel/mva_test/regulators/bbuck2_en'
CCTVALAJHGCCTVALAJHG 0
root@arm:~# echo 'UTXY''AVXZBT'
UTXYAVXZBT
root@arm:~# MARKER='PBFJ''TTJFKF' run 'i2cget -y -f 2 0x4b 0x6'
PBFJTTJFKF0x43
PBFJTTJFKF 0
root@arm:~# echo 'TCNZ''SPUKAF'
TCNZSPUKAF
root@arm:~# MARKER='QMOQ''OCJCZB' run 'grep -r -l rohm,bd71837 /proc/device-tree  | sed '"'"'s![^/]*$!!'"'"''
QMOQOCJCZB/proc/device-tree/ocp/interconnect@48000000/segment@100000/target-module@9c000/i2c@0/pmic@4b/
QMOQOCJCZB 0
root@arm:~# echo 'BZNJ''YPUXEP'
BZNJYPUXEP
root@arm:~# MARKER='TBQO''YHBAXW' run 'test -f /proc/device-tree/ocp/interconnectt\@48000000/segment\@100000/target-module\@9c000/i2c\@0/pmic\@4b/regulators/BUCK22/rohm,no-regulator-enable-control ;echo $?'
TBQOYHBAXW1
TBQOYHBAXW 0
root@arm:~# echo 'NCTA''OAPHGH'
NCTAOAPHGH
root@arm:~# MARKER='AGBS''NXYCSO' run 'grep -r -l rohm,bd71837 /proc/device-tree  | sed '"'"'s![^/]*$!!'"'"''
AGBSNXYCSO/proc/device-tree/ocp/interconnect@48000000/segment@100000/target-module@9c000/i2c@0/pmic@4b/
AGBSNXYCSO 0
root@arm:~# echo 'EZWZ''POELUS'
EZWZPOELUS
root@arm:~# MARKER='CFJL''UKLGSW' run 'test -f /proc/device-tree/ocp/interconnectt\@48000000/segment\@100000/target-module\@9c000/i2c\@0/pmic\@4b/regulators/BUCK22/regulator-always-on ;echo $?'
CFJLUKLGSW0
CFJLUKLGSW 0
root@arm:~# echo 'EAQK''TANOYK'
EAQKTANOYK
root@arm:~# MARKER='MVSE''HZNEEM' run 'grep -r -l rohm,bd71837 /proc/device-tree  | sed '"'"'s![^/]*$!!'"'"''
MVSEHZNEEM/proc/device-tree/ocp/interconnect@48000000/segment@100000/target-module@9c000/i2c@0/pmic@4b/
MVSEHZNEEM 0
root@arm:~# echo 'ZZAE''UKWGML'
ZZAEUKWGML
root@arm:~# MARKER='QBJV''ZSBGWS' run 'test -f /proc/device-tree/ocp/interconnectt\@48000000/segment\@100000/target-module\@9c000/i2c\@0/pmic\@4b/regulators/BUCK33/rohm,no-regulator-enable-control ;echo $?'
QBJVZSBGWS0
QBJVZSBGWS 0
root@arm:~# echo 'WHAB''ZVCYEY'
WHABZVCYEY
root@arm:~# MARKER='NNPU''ZHBWWC' run 'grep -r -l rohm,bd71837 /proc/device-tree  | sed '"'"'s![^/]*$!!'"'"''
NNPUZHBWWC/proc/device-tree/ocp/interconnect@48000000/segment@100000/target-module@9c000/i2c@0/pmic@4b/
NNPUZHBWWC 0
root@arm:~# echo 'BETJ''QSEEYP'
BETJQSEEYP
root@arm:~# MARKER='KYPM''LVCMYH' run 'test -f /proc/device-tree/ocp/interconnectt\@48000000/segment\@100000/target-module\@9c000/i2c\@0/pmic\@4b/regulators/BUCK33/rohm,no-regulator-enable-control ;echo $?'
KYPMLVCMYH0
KYPMLVCMYH 0
root@arm:~# echo 'FATO''GLEXAU'
FATOGLEXAU
root@arm:~# MARKER='ENWB''BWKBUW' run 'grep -r -l rohm,bd71837 /proc/device-tree  | sed '"'"'s![^/]*$!!'"'"''
ENWBBWKBUW/proc/device-tree/ocp/interconnect@48000000/segment@100000/target-module@9c000/i2c@0/pmic@4b/
ENWBBWKBUW 0
root@arm:~# echo 'BGMT''SAYCYF'
BGMTSAYCYF
root@arm:~# MARKER='EVYK''HNBQQF' run 'test -f /proc/device-tree/ocp/interconnectt\@48000000/segment\@100000/target-module\@9c000/i2c\@0/pmic\@4b/regulators/BUCK44/rohm,no-regulator-enable-control ;echo $?'
EVYKHNBQQF1
EVYKHNBQQF 0
root@arm:~# echo 'HNVM''CKUWWC'
HNVMCKUWWC
root@arm:~# MARKER='QYSO''EMYZUC' run 'echo 1 > /sys/kernel/mva_test/regulators/bbuck4_en'
QYSOEMYZUCQYSOEMYZUC 0
root@arm:~# echo 'VOBN''GWCYOC'
VOBNGWCYOC
root@arm:~# MARKER='XTTM''AZNMUN' run 'i2cget -y -f 2 0x4b 0x8'
XTTMAZNMUN0xc7
XTTMAZNMUN 0
root@arm:~# echo 'TSAH''WAFKLB'
TSAHWAFKLB
root@arm:~# MARKER='VGJL''MAWJOU' run 'grep -r -l rohm,bd71837 /proc/device-tree  | sed '"'"'s![^/]*$!!'"'"''
VGJLMAWJOU/proc/device-tree/ocp/interconnect@48000000/segment@100000/target-module@9c000/i2c@0/pmic@4b/
VGJLMAWJOU 0
root@arm:~# echo 'PBNM''JBKGKL'
PBNMJBKGKL
root@arm:~# MARKER='HZYP''KFEHLM' run 'test -f /proc/device-tree/ocp/interconnectt\@48000000/segment\@100000/target-module\@9c000/i2c\@0/pmic\@4b/regulators/BUCK44/rohm,no-regulator-enable-control ;echo $?'
HZYPKFEHLM1
HZYPKFEHLM 0
root@arm:~# echo 'KVNS''SWHVCF'
KVNSSWHVCF
root@arm:~# MARKER='CCNP''UAULXQ' run 'grep -r -l rohm,bd71837 /proc/device-tree  | sed '"'"'s![^/]*$!!'"'"''
CCNPUAULXQ/proc/device-tree/ocp/interconnect@48000000/segment@100000/target-module@9c000/i2c@0/pmic@4b/
CCNPUAULXQ 0
root@arm:~# echo 'WNBN''QCAUEY'
WNBNQCAUEY
root@arm:~# MARKER='HNXS''YNUMYS' run 'test -f /proc/device-tree/ocp/interconnectt\@48000000/segment\@100000/target-module\@9c000/i2c\@0/pmic\@4b/regulators/BUCK44/regulator-always-on ;echo $?'
HNXSYNUMYS1
HNXSYNUMYS 0
root@arm:~# echo 'HMNU''MHPZWC'
HMNUMHPZWC
root@arm:~# MARKER='GNLB''NXVAAS' run 'echo 0 > /sys/kernel/mva_test/regulators/bbuck4_en'
GNLBNXVAASGNLBNXVAAS 0
root@arm:~# echo 'HGGJ''UQVXUU'
HGGJUQVXUU
root@arm:~# MARKER='SYJU''PUGEQC' run 'i2cget -y -f 2 0x4b 0x8'
SYJUPUGEQC0xc6
SYJUPUGEQC 0
root@arm:~# echo 'ACUZ''GJVOPW'
ACUZGJVOPW
root@arm:~# MARKER='NAXH''QZFSTU' run 'grep -r -l rohm,bd71837 /proc/device-tree  | sed '"'"'s![^/]*$!!'"'"''
NAXHQZFSTU/proc/device-tree/ocp/interconnect@48000000/segment@100000/target-module@9c000/i2c@0/pmic@4b/
NAXHQZFSTU 0
root@arm:~# echo 'PCXW''JCBKYL'
PCXWJCBKYL
root@arm:~# MARKER='ZLJA''OJZCFL' run 'test -f /proc/device-tree/ocp/interconnectt\@48000000/segment\@100000/target-module\@9c000/i2c\@0/pmic\@4b/regulators/BUCK55/rohm,no-regulator-enable-control ;echo $?'
ZLJAOJZCFL1
ZLJAOJZCFL 0
root@arm:~# echo 'ZSPZ''FWLNGG'
ZSPZFWLNGG
root@arm:~# MARKER='HLNM''LOPXBW' run 'echo 1 > /sys/kernel/mva_test/regulators/bbuck5_en'
HLNMLOPXBWHLNMLOPXBW 0
root@arm:~# echo 'KFBQ''TLAZOQ'
KFBQTLAZOQ
root@arm:~# MARKER='BNUE''WPEUSV' run 'i2cget -y -f 2 0x4b 0x9'
BNUEWPEUSV0x03
BNUEWPEUSV 0
root@arm:~# echo 'BTYL''YCVQNH'
BTYLYCVQNH
root@arm:~# MARKER='BZVB''NYQUJX' run 'grep -r -l rohm,bd71837 /proc/device-tree  | sed '"'"'s![^/]*$!!'"'"''
BZVBNYQUJX/proc/device-tree/ocp/interconnect@48000000/segment@100000/target-module@9c000/i2c@0/pmic@4b/
BZVBNYQUJX 0
root@arm:~# echo 'ZFNT''NNATAT'
ZFNTNNATAT
root@arm:~# MARKER='OXSQ''JXBWKA' run 'test -f /proc/device-tree/ocp/interconnectt\@48000000/segment\@100000/target-module\@9c000/i2c\@0/pmic\@4b/regulators/BUCK55/rohm,no-regulator-enable-control ;echo $?'
OXSQJXBWKA1
OXSQJXBWKA 0
root@arm:~# echo 'CFXF''UWTTTZ'
CFXFUWTTTZ
root@arm:~# MARKER='FSPT''NUQYEO' run 'grep -r -l rohm,bd71837 /proc/device-tree  | sed '"'"'s![^/]*$!!'"'"''
FSPTNUQYEO/proc/device-tree/ocp/interconnect@48000000/segment@100000/target-module@9c000/i2c@0/pmic@4b/
FSPTNUQYEO 0
root@arm:~# echo 'GUTP''ZUACQX'
GUTPZUACQX
root@arm:~# MARKER='YPXX''LUQZZP' run 'test -f /proc/device-tree/ocp/interconnectt\@48000000/segment\@100000/target-module\@9c000/i2c\@0/pmic\@4b/regulators/BUCK55/regulator-always-on ;echo $?'
YPXXLUQZZP1
YPXXLUQZZP 0
root@arm:~# echo 'NVPB''WZFYOW'
NVPBWZFYOW
root@arm:~# MARKER='ASSP''QFAPCY' run 'echo 0 > /sys/kernel/mva_test/regulators/bbuck5_en'
ASSPQFAPCYASSPQFAPCY 0
root@arm:~# echo 'GJBX''VZQEWT'
GJBXVZQEWT
root@arm:~# MARKER='GAXE''HAAYEE' run 'i2cget -y -f 2 0x4b 0x9'
GAXEHAAYEE0x02
GAXEHAAYEE 0
root@arm:~# echo 'FYQT''TLOFEQ'
FYQTTLOFEQ
root@arm:~# MARKER='VCOW''NEWYKA' run 'grep -r -l rohm,bd71837 /proc/device-tree  | sed '"'"'s![^/]*$!!'"'"''
VCOWNEWYKA/proc/device-tree/ocp/interconnect@48000000/segment@100000/target-module@9c000/i2c@0/pmic@4b/
VCOWNEWYKA 0
root@arm:~# echo 'NAAZ''BZXTPH'
NAAZBZXTPH
root@arm:~# MARKER='MAYJ''HKBUGJ' run 'test -f /proc/device-tree/ocp/interconnectt\@48000000/segment\@100000/target-module\@9c000/i2c\@0/pmic\@4b/regulators/BUCK66/rohm,no-regulator-enable-control ;echo $?'
MAYJHKBUGJ1
MAYJHKBUGJ 0
root@arm:~# echo 'QEBO''CQGZAL'
QEBOCQGZAL
root@arm:~# MARKER='CYUX''TZOYPY' run 'echo 1 > /sys/kernel/mva_test/regulators/bbuck6_en'
CYUXTZOYPYCYUXTZOYPY 0
root@arm:~# echo 'SNHU''SOKMYF'
SNHUSOKMYF
root@arm:~# MARKER='AGXK''MVVAFK' run 'i2cget -y -f 2 0x4b 0xa'
AGXKMVVAFK0x03
AGXKMVVAFK 0
root@arm:~# echo 'AWES''LHGHHP'
AWESLHGHHP
root@arm:~# MARKER='NCBA''MWCXLJ' run 'grep -r -l rohm,bd71837 /proc/device-tree  | sed '"'"'s![^/]*$!!'"'"''
NCBAMWCXLJ/proc/device-tree/ocp/interconnect@48000000/segment@100000/target-module@9c000/i2c@0/pmic@4b/
NCBAMWCXLJ 0
root@arm:~# echo 'PQZS''OCUSQM'
PQZSOCUSQM
root@arm:~# MARKER='LHEC''ESPYCP' run 'test -f /proc/device-tree/ocp/interconnectt\@48000000/segment\@100000/target-module\@9c000/i2c\@0/pmic\@4b/regulators/BUCK66/rohm,no-regulator-enable-control ;echo $?'
LHECESPYCP1
LHECESPYCP 0
root@arm:~# echo 'ZUTZ''LALTLT'
ZUTZLALTLT
root@arm:~# MARKER='CACG''QTPHWJ' run 'grep -r -l rohm,bd71837 /proc/device-tree  | sed '"'"'s![^/]*$!!'"'"''
CACGQTPHWJ/proc/device-tree/ocp/interconnect@48000000/segment@100000/target-module@9c000/i2c@0/pmic@4b/
CACGQTPHWJ 0
root@arm:~# echo 'JELA''ALEBKG'
JELAALEBKG
root@arm:~# MARKER='HENS''ZHJYUH' run 'test -f /proc/device-tree/ocp/interconnectt\@48000000/segment\@100000/target-module\@9c000/i2c\@0/pmic\@4b/regulators/BUCK66/regulator-always-on ;echo $?'
HENSZHJYUH1
HENSZHJYUH 0
root@arm:~# echo 'ZNTX''PNWVJB'
ZNTXPNWVJB
root@arm:~# MARKER='AKMS''KGTUVN' run 'echo 0 > /sys/kernel/mva_test/regulators/bbuck6_en'
AKMSKGTUVNAKMSKGTUVN 0
root@arm:~# echo 'MEGQ''LJHBUO'
MEGQLJHBUO
root@arm:~# MARKER='OPGF''ZTESYF' run 'i2cget -y -f 2 0x4b 0xa'
OPGFZTESYF0x02
OPGFZTESYF 0
root@arm:~# echo 'LNCZ''POTSYK'
LNCZPOTSYK
root@arm:~# MARKER='OBWL''NXNEZX' run 'grep -r -l rohm,bd71837 /proc/device-tree  | sed '"'"'s![^/]*$!!'"'"''
OBWLNXNEZX/proc/device-tree/ocp/interconnect@48000000/segment@100000/target-module@9c000/i2c@0/pmic@4b/
OBWLNXNEZX 0
root@arm:~# echo 'BWNC''KCVHOK'
BWNCKCVHOK
root@arm:~# MARKER='FLYO''XBCVCQ' run 'test -f /proc/device-tree/ocp/interconnectt\@48000000/segment\@100000/target-module\@9c000/i2c\@0/pmic\@4b/regulators/BUCK77/rohm,no-regulator-enable-control ;echo $?'
FLYOXBCVCQ1
FLYOXBCVCQ 0
root@arm:~# echo 'PPWC''SMCYBQ'
PPWCSMCYBQ
root@arm:~# MARKER='PVGN''HQAKWT' run 'echo 1 > /sys/kernel/mva_test/regulators/bbuck7_en'
PVGNHQAKWTPVGNHQAKWT 0
root@arm:~# echo 'ZLWW''JXABZC'
ZLWWJXABZC
root@arm:~# MARKER='UTVQ''YLBQMM' run 'i2cget -y -f 2 0x4b 0xb'
UTVQYLBQMM0x03
UTVQYLBQMM 0
root@arm:~# echo 'JSOQ''HEXPLE'
JSOQHEXPLE
root@arm:~# MARKER='OPEL''NZTQPG' run 'grep -r -l rohm,bd71837 /proc/device-tree  | sed '"'"'s![^/]*$!!'"'"''
OPELNZTQPG/proc/device-tree/ocp/interconnect@48000000/segment@100000/target-module@9c000/i2c@0/pmic@4b/
OPELNZTQPG 0
root@arm:~# echo 'ACPS''VPAHXN'
ACPSVPAHXN
root@arm:~# MARKER='FJMT''BFYEEM' run 'test -f /proc/device-tree/ocp/interconnectt\@48000000/segment\@100000/target-module\@9c000/i2c\@0/pmic\@4b/regulators/BUCK77/rohm,no-regulator-enable-control ;echo $?'
FJMTBFYEEM1
FJMTBFYEEM 0
root@arm:~# echo 'KATW''YNGGGT'
KATWYNGGGT
root@arm:~# MARKER='VJGF''MWFHXH' run 'grep -r -l rohm,bd71837 /proc/device-tree  | sed '"'"'s![^/]*$!!'"'"''
VJGFMWFHXH/proc/device-tree/ocp/interconnect@48000000/segment@100000/target-module@9c000/i2c@0/pmic@4b/
VJGFMWFHXH 0
root@arm:~# echo 'VZLT''PXUXZG'
VZLTPXUXZG
root@arm:~# MARKER='KWTA''YKANNP' run 'test -f /proc/device-tree/ocp/interconnectt\@48000000/segment\@100000/target-module\@9c000/i2c\@0/pmic\@4b/regulators/BUCK77/regulator-always-on ;echo $?'
KWTAYKANNP1
KWTAYKANNP 0
root@arm:~# echo 'EHNC''UGNUWW'
EHNCUGNUWW
root@arm:~# MARKER='ELJH''MWFLQF' run 'echo 0 > /sys/kernel/mva_test/regulators/bbuck7_en'
ELJHMWFLQFELJHMWFLQF 0
root@arm:~# echo 'LHYC''SGMEPY'
LHYCSGMEPY
root@arm:~# MARKER='SWQV''EGVOJN' run 'i2cget -y -f 2 0x4b 0xb'
SWQVEGVOJN0x02
SWQVEGVOJN 0
root@arm:~# echo 'CGAK''JNGTPN'
CGAKJNGTPN
root@arm:~# MARKER='YOFM''VUBNEP' run 'grep -r -l rohm,bd71837 /proc/device-tree  | sed '"'"'s![^/]*$!!'"'"''
YOFMVUBNEP/proc/device-tree/ocp/interconnect@48000000/segment@100000/target-module@9c000/i2c@0/pmic@4b/
YOFMVUBNEP 0
root@arm:~# echo 'CPXL''KGLVQJ'
CPXLKGLVQJ
root@arm:~# MARKER='KHBE''QPATZO' run 'test -f /proc/device-tree/ocp/interconnectt\@48000000/segment\@100000/target-module\@9c000/i2c\@0/pmic\@4b/regulators/BUCK88/rohm,no-regulator-enable-control ;echo $?'
KHBEQPATZO1
KHBEQPATZO 0
root@arm:~# echo 'QPEL''PFNHKW'
QPELPFNHKW
root@arm:~# MARKER='OTBT''HLWCBC' run 'echo 1 > /sys/kernel/mva_test/regulators/bbuck8_en'
OTBTHLWCBCOTBTHLWCBC 0
root@arm:~# echo 'WYLX''EKSOJS'
WYLXEKSOJS
root@arm:~# MARKER='LBBL''NNTABT' run 'i2cget -y -f 2 0x4b 0xc'
LBBLNNTABT0x03
LBBLNNTABT 0
root@arm:~# echo 'ZUHP''VWYUYV'
ZUHPVWYUYV
root@arm:~# MARKER='POMM''UQKGPA' run 'grep -r -l rohm,bd71837 /proc/device-tree  | sed '"'"'s![^/]*$!!'"'"''
POMMUQKGPA/proc/device-tree/ocp/interconnect@48000000/segment@100000/target-module@9c000/i2c@0/pmic@4b/
POMMUQKGPA 0
root@arm:~# echo 'FHHX''UWJCLC'
FHHXUWJCLC
root@arm:~# MARKER='EXEY''MPNCOF' run 'test -f /proc/device-tree/ocp/interconnectt\@48000000/segment\@100000/target-module\@9c000/i2c\@0/pmic\@4b/regulators/BUCK88/rohm,no-regulator-enable-control ;echo $?'
EXEYMPNCOF1
EXEYMPNCOF 0
root@arm:~# echo 'ZGJZ''PTMUCT'
ZGJZPTMUCT
root@arm:~# MARKER='KQYV''GLGFYK' run 'grep -r -l rohm,bd71837 /proc/device-tree  | sed '"'"'s![^/]*$!!'"'"''
KQYVGLGFYK/proc/device-tree/ocp/interconnect@48000000/segment@100000/target-module@9c000/i2c@0/pmic@4b/
KQYVGLGFYK 0
root@arm:~# echo 'KACQ''KSLNJN'
KACQKSLNJN
root@arm:~# MARKER='VMCJ''AAJLMT' run 'test -f /proc/device-tree/ocp/interconnectt\@48000000/segment\@100000/target-module\@9c000/i2c\@0/pmic\@4b/regulators/BUCK88/regulator-always-on ;echo $?'
VMCJAAJLMT1
VMCJAAJLMT 0
root@arm:~# echo 'ZCLF''BTKSZA'
ZCLFBTKSZA
root@arm:~# MARKER='TKVN''UQSAGF' run 'echo 0 > /sys/kernel/mva_test/regulators/bbuck8_en'
TKVNUQSAGFTKVNUQSAGF 0
root@arm:~# echo 'SAPB''HSSLXT'
SAPBHSSLXT
root@arm:~# MARKER='KWJL''OOYGTU' run 'i2cget -y -f 2 0x4b 0xc'
KWJLOOYGTU0x02
KWJLOOYGTU 0
root@arm:~# echo 'ZXZQ''MFUAKV'
ZXZQMFUAKV
root@arm:~# MARKER='TVVC''VEKNUV' run 'grep -r -l rohm,bd71837 /proc/device-tree  | sed '"'"'s![^/]*$!!'"'"''
TVVCVEKNUV/proc/device-tree/ocp/interconnect@48000000/segment@100000/target-module@9c000/i2c@0/pmic@4b/
TVVCVEKNUV 0
root@arm:~# echo 'FCWH''PENWCV'
FCWHPENWCV
root@arm:~# MARKER='CVOX''LWOMKK' run 'test -f /proc/device-tree/ocp/interconnectt\@48000000/segment\@100000/target-module\@9c000/i2c\@0/pmic\@4b/regulators/LDO1//rohm,no-regulator-enable-control ;echo $?'
CVOXLWOMKK1
CVOXLWOMKK 0
root@arm:~# echo 'OAKA''WNYTZC'
OAKAWNYTZC
root@arm:~# MARKER='EYTE''NNUPOM' run 'echo 1 > /sys/kernel/mva_test/regulators/bbuck9_en'
EYTENNUPOMEYTENNUPOM 0
root@arm:~# echo 'KNVG''QGWNCO'
KNVGQGWNCO
root@arm:~# MARKER='FBSQ''QBVZEG' run 'i2cget -y -f 2 0x4b 0x18'
FBSQQBVZEG0xc3
FBSQQBVZEG 0
root@arm:~# echo 'SZOS''QGYGZJ'
SZOSQGYGZJ
root@arm:~# MARKER='HYXU''WUWJJE' run 'grep -r -l rohm,bd71837 /proc/device-tree  | sed '"'"'s![^/]*$!!'"'"''
HYXUWUWJJE/proc/device-tree/ocp/interconnect@48000000/segment@100000/target-module@9c000/i2c@0/pmic@4b/
HYXUWUWJJE 0
root@arm:~# echo 'QKQP''AXMTPV'
QKQPAXMTPV
root@arm:~# MARKER='ZUBJ''NUBAPZ' run 'test -f /proc/device-tree/ocp/interconnectt\@48000000/segment\@100000/target-module\@9c000/i2c\@0/pmic\@4b/regulators/LDO1//rohm,no-regulator-enable-control ;echo $?'
ZUBJNUBAPZ1
ZUBJNUBAPZ 0
root@arm:~# echo 'AOJZ''MPZVWQ'
AOJZMPZVWQ
root@arm:~# MARKER='KWOJ''NGQVPK' run 'grep -r -l rohm,bd71837 /proc/device-tree  | sed '"'"'s![^/]*$!!'"'"''
KWOJNGQVPK/proc/device-tree/ocp/interconnect@48000000/segment@100000/target-module@9c000/i2c@0/pmic@4b/
KWOJNGQVPK 0
root@arm:~# echo 'CHFS''ZQYLXC'
CHFSZQYLXC
root@arm:~# MARKER='GGFZ''LKLCWE' run 'test -f /proc/device-tree/ocp/interconnectt\@48000000/segment\@100000/target-module\@9c000/i2c\@0/pmic\@4b/regulators/LDO1//regulator-always-on ;echo $?'
GGFZLKLCWE1
GGFZLKLCWE 0
root@arm:~# echo 'NNMJ''FWPSFS'
NNMJFWPSFS
root@arm:~# MARKER='JNGV''BUPJKF' run 'echo 0 > /sys/kernel/mva_test/regulators/bbuck9_en'
JNGVBUPJKFJNGVBUPJKF 0
root@arm:~# echo 'CVGL''WVOEVT'
CVGLWVOEVT
root@arm:~# MARKER='CWGQ''JQHEUV' run 'i2cget -y -f 2 0x4b 0x18'
CWGQJQHEUV0x83
CWGQJQHEUV 0
root@arm:~# echo 'ETQO''UFFVMN'
ETQOUFFVMN
root@arm:~# MARKER='NQEE''WCZEJY' run 'grep -r -l rohm,bd71837 /proc/device-tree  | sed '"'"'s![^/]*$!!'"'"''
NQEEWCZEJY/proc/device-tree/ocp/interconnect@48000000/segment@100000/target-module@9c000/i2c@0/pmic@4b/
NQEEWCZEJY 0
root@arm:~# echo 'KEHU''UZJSYU'
KEHUUZJSYU
root@arm:~# MARKER='NZYT''KQUMNA' run 'test -f /proc/device-tree/ocp/interconnectt\@48000000/segment\@100000/target-module\@9c000/i2c\@0/pmic\@4b/regulators/LDO2//rohm,no-regulator-enable-control ;echo $?'
NZYTKQUMNA1
NZYTKQUMNA 0
root@arm:~# echo 'USEW''GBTZWW'
USEWGBTZWW
root@arm:~# MARKER='CWAG''NAULCJ' run 'echo 1 > /sys/kernel/mva_test/regulators/bbuck10_en'
CWAGNAULCJCWAGNAULCJ 0
root@arm:~# echo 'WFAB''KYUHFL'
WFABKYUHFL
root@arm:~# MARKER='SLKK''ZAQFVX' run 'i2cget -y -f 2 0x4b 0x19'
SLKKZAQFVX0xc0
SLKKZAQFVX 0
root@arm:~# echo 'MNLY''OONCYB'
MNLYOONCYB
root@arm:~# MARKER='THLF''YBYNTS' run 'grep -r -l rohm,bd71837 /proc/device-tree  | sed '"'"'s![^/]*$!!'"'"''
THLFYBYNTS/proc/device-tree/ocp/interconnect@48000000/segment@100000/target-module@9c000/i2c@0/pmic@4b/
THLFYBYNTS 0
root@arm:~# echo 'HTGL''ZMYKUU'
HTGLZMYKUU
root@arm:~# MARKER='GEWL''BTOBCU' run 'test -f /proc/device-tree/ocp/interconnectt\@48000000/segment\@100000/target-module\@9c000/i2c\@0/pmic\@4b/regulators/LDO2//rohm,no-regulator-enable-control ;echo $?'
GEWLBTOBCU1
GEWLBTOBCU 0
root@arm:~# echo 'SCZG''BJBAPM'
SCZGBJBAPM
root@arm:~# MARKER='XPXM''VSFTUX' run 'grep -r -l rohm,bd71837 /proc/device-tree  | sed '"'"'s![^/]*$!!'"'"''
XPXMVSFTUX/proc/device-tree/ocp/interconnect@48000000/segment@100000/target-module@9c000/i2c@0/pmic@4b/
XPXMVSFTUX 0
root@arm:~# echo 'GAKA''OWMCVE'
GAKAOWMCVE
root@arm:~# MARKER='WHYZ''MFAOZE' run 'test -f /proc/device-tree/ocp/interconnectt\@48000000/segment\@100000/target-module\@9c000/i2c\@0/pmic\@4b/regulators/LDO2//regulator-always-on ;echo $?'
WHYZMFAOZE1
WHYZMFAOZE 0
root@arm:~# echo 'XNKC''HFFVLN'
XNKCHFFVLN
root@arm:~# MARKER='EQZB''FNYKQE' run 'echo 0 > /sys/kernel/mva_test/regulators/bbuck10_en'
EQZBFNYKQEEQZBFNYKQE 0
root@arm:~# echo 'JUYQ''UMBGZM'
JUYQUMBGZM
root@arm:~# MARKER='NTUO''MLLHZE' run 'i2cget -y -f 2 0x4b 0x19'
NTUOMLLHZE0x80
NTUOMLLHZE 0
root@arm:~# echo 'UBTY''SWMJYL'
UBTYSWMJYL
root@arm:~# MARKER='WKWM''XVYNZK' run 'grep -r -l rohm,bd71837 /proc/device-tree  | sed '"'"'s![^/]*$!!'"'"''
WKWMXVYNZK/proc/device-tree/ocp/interconnect@48000000/segment@100000/target-module@9c000/i2c@0/pmic@4b/
WKWMXVYNZK 0
root@arm:~# echo 'LLVU''YSFUNW'
LLVUYSFUNW
root@arm:~# MARKER='GEGW''BFAOFW' run 'test -f /proc/device-tree/ocp/interconnectt\@48000000/segment\@100000/target-module\@9c000/i2c\@0/pmic\@4b/regulators/LDO3//rohm,no-regulator-enable-control ;echo $?'
GEGWBFAOFW1
GEGWBFAOFW 0
root@arm:~# echo 'FVVG''PWOCZG'
FVVGPWOCZG
root@arm:~# MARKER='GKFS''ELMMHB' run 'echo 1 > /sys/kernel/mva_test/regulators/bbuck11_en'
GKFSELMMHBGKFSELMMHB 0
root@arm:~# echo 'HJKV''MULBEB'
HJKVMULBEB
root@arm:~# MARKER='HNYU''CJSFFU' run 'i2cget -y -f 2 0x4b 0x1a'
HNYUCJSFFU0xc0
HNYUCJSFFU 0
root@arm:~# echo 'WPKH''PCGJWM'
WPKHPCGJWM
root@arm:~# MARKER='LWLT''HPEJGS' run 'grep -r -l rohm,bd71837 /proc/device-tree  | sed '"'"'s![^/]*$!!'"'"''
LWLTHPEJGS/proc/device-tree/ocp/interconnect@48000000/segment@100000/target-module@9c000/i2c@0/pmic@4b/
LWLTHPEJGS 0
root@arm:~# echo 'YAOZ''OJOFPH'
YAOZOJOFPH
root@arm:~# MARKER='AHCG''SQKLLW' run 'test -f /proc/device-tree/ocp/interconnectt\@48000000/segment\@100000/target-module\@9c000/i2c\@0/pmic\@4b/regulators/LDO3//rohm,no-regulator-enable-control ;echo $?'
AHCGSQKLLW1
AHCGSQKLLW 0
root@arm:~# echo 'MKQN''SAQUNH'
MKQNSAQUNH
root@arm:~# MARKER='KXHL''SJMZOB' run 'grep -r -l rohm,bd71837 /proc/device-tree  | sed '"'"'s![^/]*$!!'"'"''
KXHLSJMZOB/proc/device-tree/ocp/interconnect@48000000/segment@100000/target-module@9c000/i2c@0/pmic@4b/
KXHLSJMZOB 0
root@arm:~# echo 'LCZL''JQCTNH'
LCZLJQCTNH
root@arm:~# MARKER='MNWT''EYUKUS' run 'test -f /proc/device-tree/ocp/interconnectt\@48000000/segment\@100000/target-module\@9c000/i2c\@0/pmic\@4b/regulators/LDO3//regulator-always-on ;echo $?'
MNWTEYUKUS1
MNWTEYUKUS 0
root@arm:~# echo 'CTGF''GYVKET'
CTGFGYVKET
root@arm:~# MARKER='XXYT''EBVVSS' run 'echo 0 > /sys/kernel/mva_test/regulators/bbuck11_en'
XXYTEBVVSSXXYTEBVVSS 0
root@arm:~# echo 'SKYM''BEKKPH'
SKYMBEKKPH
root@arm:~# MARKER='OLLG''TYBNEW' run 'i2cget -y -f 2 0x4b 0x1a'
OLLGTYBNEW0x80
OLLGTYBNEW 0
root@arm:~# echo 'VPEO''GUJWNS'
VPEOGUJWNS
root@arm:~# MARKER='WFEK''VMOGGO' run 'grep -r -l rohm,bd71837 /proc/device-tree  | sed '"'"'s![^/]*$!!'"'"''
WFEKVMOGGO/proc/device-tree/ocp/interconnect@48000000/segment@100000/target-module@9c000/i2c@0/pmic@4b/
WFEKVMOGGO 0
root@arm:~# echo 'YHWU''QVVGVL'
YHWUQVVGVL
root@arm:~# MARKER='HVOK''ZUBWLG' run 'test -f /proc/device-tree/ocp/interconnectt\@48000000/segment\@100000/target-module\@9c000/i2c\@0/pmic\@4b/regulators/LDO4//rohm,no-regulator-enable-control ;echo $?'
HVOKZUBWLG1
HVOKZUBWLG 0
root@arm:~# echo 'HMLS''SOEOZJ'
HMLSSOEOZJ
root@arm:~# MARKER='KPXY''UPKBNO' run 'echo 1 > /sys/kernel/mva_test/regulators/bbuck12_en'
KPXYUPKBNOKPXYUPKBNO 0
root@arm:~# echo 'LPLT''OGJKHY'
LPLTOGJKHY
root@arm:~# MARKER='NMBM''TWNQYJ' run 'i2cget -y -f 2 0x4b 0x1b'
NMBMTWNQYJ0xc0
NMBMTWNQYJ 0
root@arm:~# echo 'FXOF''XWJULZ'
FXOFXWJULZ
root@arm:~# MARKER='MVQX''BULMWT' run 'grep -r -l rohm,bd71837 /proc/device-tree  | sed '"'"'s![^/]*$!!'"'"''
MVQXBULMWT/proc/device-tree/ocp/interconnect@48000000/segment@100000/target-module@9c000/i2c@0/pmic@4b/
MVQXBULMWT 0
root@arm:~# echo 'TTGV''QCEKOC'
TTGVQCEKOC
root@arm:~# MARKER='GGGV''LFBMMN' run 'test -f /proc/device-tree/ocp/interconnectt\@48000000/segment\@100000/target-module\@9c000/i2c\@0/pmic\@4b/regulators/LDO4//rohm,no-regulator-enable-control ;echo $?'
GGGVLFBMMN1
GGGVLFBMMN 0
root@arm:~# echo 'GWSQ''BNZTUE'
GWSQBNZTUE
root@arm:~# MARKER='TXKB''ZBNGQM' run 'grep -r -l rohm,bd71837 /proc/device-tree  | sed '"'"'s![^/]*$!!'"'"''
TXKBZBNGQM/proc/device-tree/ocp/interconnect@48000000/segment@100000/target-module@9c000/i2c@0/pmic@4b/
TXKBZBNGQM 0
root@arm:~# echo 'TEHY''XGKHJA'
TEHYXGKHJA
root@arm:~# MARKER='TAQG''UEAJLC' run 'test -f /proc/device-tree/ocp/interconnectt\@48000000/segment\@100000/target-module\@9c000/i2c\@0/pmic\@4b/regulators/LDO4//regulator-always-on ;echo $?'
TAQGUEAJLC1
TAQGUEAJLC 0
root@arm:~# echo 'MLNN''EJLEWK'
MLNNEJLEWK
root@arm:~# MARKER='FYBA''NBBLEF' run 'echo 0 > /sys/kernel/mva_test/regulators/bbuck12_en'
FYBANBBLEFFYBANBBLEF 0
root@arm:~# echo 'LKWM''NSQAFK'
LKWMNSQAFK
root@arm:~# MARKER='VCCM''MMBAXZ' run 'i2cget -y -f 2 0x4b 0x1b'
VCCMMMBAXZ0x80
VCCMMMBAXZ 0
root@arm:~# echo 'YLLF''KPKWGG'
YLLFKPKWGG
root@arm:~# MARKER='VXOA''HGTKNU' run 'grep -r -l rohm,bd71837 /proc/device-tree  | sed '"'"'s![^/]*$!!'"'"''
VXOAHGTKNU/proc/device-tree/ocp/interconnect@48000000/segment@100000/target-module@9c000/i2c@0/pmic@4b/
VXOAHGTKNU 0
root@arm:~# echo 'LFLS''YVLWCB'
LFLSYVLWCB
root@arm:~# MARKER='KJVC''FHEOQM' run 'test -f /proc/device-tree/ocp/interconnectt\@48000000/segment\@100000/target-module\@9c000/i2c\@0/pmic\@4b/regulators/LDO5//rohm,no-regulator-enable-control ;echo $?'
KJVCFHEOQM0
KJVCFHEOQM 0
root@arm:~# echo 'FNJO''NEVHQJ'
FNJONEVHQJ
root@arm:~# MARKER='TNCQ''JUMCVE' run 'grep -r -l rohm,bd71837 /proc/device-tree  | sed '"'"'s![^/]*$!!'"'"''
TNCQJUMCVE/proc/device-tree/ocp/interconnect@48000000/segment@100000/target-module@9c000/i2c@0/pmic@4b/
TNCQJUMCVE 0
root@arm:~# echo 'SLZL''YJJBVL'
SLZLYJJBVL
root@arm:~# MARKER='UUFQ''BXKXEB' run 'test -f /proc/device-tree/ocp/interconnectt\@48000000/segment\@100000/target-module\@9c000/i2c\@0/pmic\@4b/regulators/LDO5//rohm,no-regulator-enable-control ;echo $?'
UUFQBXKXEB0
UUFQBXKXEB 0
root@arm:~# echo 'HWKB''USQEYG'
HWKBUSQEYG
root@arm:~# MARKER='XJWW''PEVUUZ' run 'grep -r -l rohm,bd71837 /proc/device-tree  | sed '"'"'s![^/]*$!!'"'"''
XJWWPEVUUZ/proc/device-tree/ocp/interconnect@48000000/segment@100000/target-module@9c000/i2c@0/pmic@4b/
XJWWPEVUUZ 0
root@arm:~# echo 'KZQX''SCMWXU'
KZQXSCMWXU
root@arm:~# MARKER='KZHM''LOXXAN' run 'test -f /proc/device-tree/ocp/interconnectt\@48000000/segment\@100000/target-module\@9c000/i2c\@0/pmic\@4b/regulators/LDO6//rohm,no-regulator-enable-control ;echo $?'
KZHMLOXXAN1
KZHMLOXXAN 0
root@arm:~# echo 'NHJG''GPUETC'
NHJGGPUETC
root@arm:~# MARKER='ZPKN''CUWQNY' run 'echo 1 > /sys/kernel/mva_test/regulators/bbuck14_en'
ZPKNCUWQNYZPKNCUWQNY 0
root@arm:~# echo 'AKHS''BXXGOO'
AKHSBXXGOO
root@arm:~# MARKER='EKBU''NXWKXK' run 'i2cget -y -f 2 0x4b 0x1d'
EKBUNXWKXK0xc0
EKBUNXWKXK 0
root@arm:~# echo 'BTLN''KPYXAL'
BTLNKPYXAL
root@arm:~# MARKER='LTGX''TANSZO' run 'grep -r -l rohm,bd71837 /proc/device-tree  | sed '"'"'s![^/]*$!!'"'"''
LTGXTANSZO/proc/device-tree/ocp/interconnect@48000000/segment@100000/target-module@9c000/i2c@0/pmic@4b/
LTGXTANSZO 0
root@arm:~# echo 'TKUE''JBZXZS'
TKUEJBZXZS
root@arm:~# MARKER='ANTJ''ZHGGMK' run 'test -f /proc/device-tree/ocp/interconnectt\@48000000/segment\@100000/target-module\@9c000/i2c\@0/pmic\@4b/regulators/LDO6//rohm,no-regulator-enable-control ;echo $?'
ANTJZHGGMK1
ANTJZHGGMK 0
root@arm:~# echo 'AHJJ''VETVOS'
AHJJVETVOS
root@arm:~# MARKER='XAUU''KAAUFA' run 'grep -r -l rohm,bd71837 /proc/device-tree  | sed '"'"'s![^/]*$!!'"'"''
XAUUKAAUFA/proc/device-tree/ocp/interconnect@48000000/segment@100000/target-module@9c000/i2c@0/pmic@4b/
XAUUKAAUFA 0
root@arm:~# echo 'BOWL''AOBTLM'
BOWLAOBTLM
root@arm:~# MARKER='YTMX''HNJEXS' run 'test -f /proc/device-tree/ocp/interconnectt\@48000000/segment\@100000/target-module\@9c000/i2c\@0/pmic\@4b/regulators/LDO6//regulator-always-on ;echo $?'
YTMXHNJEXS1
YTMXHNJEXS 0
root@arm:~# echo 'XJWT''CXAXQM'
XJWTCXAXQM
root@arm:~# MARKER='UNBT''ENSBPV' run 'echo 0 > /sys/kernel/mva_test/regulators/bbuck14_en'
UNBTENSBPVUNBTENSBPV 0
root@arm:~# echo 'BKGM''WHSEKJ'
BKGMWHSEKJ
root@arm:~# MARKER='XBQS''EFKYNJ' run 'i2cget -y -f 2 0x4b 0x1d'
XBQSEFKYNJ0x80
XBQSEFKYNJ 0
root@arm:~# echo 'UWSS''MNWZNC'
UWSSMNWZNC
root@arm:~# MARKER='CKBX''CHKYNO' run 'grep -r -l rohm,bd71837 /proc/device-tree  | sed '"'"'s![^/]*$!!'"'"''
CKBXCHKYNO/proc/device-tree/ocp/interconnect@48000000/segment@100000/target-module@9c000/i2c@0/pmic@4b/
CKBXCHKYNO 0
root@arm:~# echo 'OOSS''ECJHBQ'
OOSSECJHBQ
root@arm:~# MARKER='HOSK''VGXSPO' run 'test -f /proc/device-tree/ocp/interconnectt\@48000000/segment\@100000/target-module\@9c000/i2c\@0/pmic\@4b/regulators/LDO7//rohm,no-regulator-enable-control ;echo $?'
HOSKVGXSPO1
HOSKVGXSPO 0
root@arm:~# echo 'YMXO''BBUNZX'
YMXOBBUNZX
root@arm:~# MARKER='QNFT''LKGXLF' run 'echo 1 > /sys/kernel/mva_test/regulators/bbuck15_en'
QNFTLKGXLFQNFTLKGXLF 0
root@arm:~# echo 'NFGK''XWMCWX'
NFGKXWMCWX
root@arm:~# MARKER='FSXY''NPVKKL' run 'i2cget -y -f 2 0x4b 0x1e'
FSXYNPVKKL0xcf
FSXYNPVKKL 0
root@arm:~# echo 'YHVH''WTPBMH'
YHVHWTPBMH
root@arm:~# MARKER='JJVB''UCSHKK' run 'grep -r -l rohm,bd71837 /proc/device-tree  | sed '"'"'s![^/]*$!!'"'"''
JJVBUCSHKK/proc/device-tree/ocp/interconnect@48000000/segment@100000/target-module@9c000/i2c@0/pmic@4b/
JJVBUCSHKK 0
root@arm:~# echo 'HWBH''STFGLJ'
HWBHSTFGLJ
root@arm:~# MARKER='OYYL''ZAHNJU' run 'test -f /proc/device-tree/ocp/interconnectt\@48000000/segment\@100000/target-module\@9c000/i2c\@0/pmic\@4b/regulators/LDO7//rohm,no-regulator-enable-control ;echo $?'
OYYLZAHNJU1
OYYLZAHNJU 0
root@arm:~# echo 'PZFY''SQGNXE'
PZFYSQGNXE
root@arm:~# MARKER='GQZE''PQNVXV' run 'grep -r -l rohm,bd71837 /proc/device-tree  | sed '"'"'s![^/]*$!!'"'"''
GQZEPQNVXV/proc/device-tree/ocp/interconnect@48000000/segment@100000/target-module@9c000/i2c@0/pmic@4b/
GQZEPQNVXV 0
root@arm:~# echo 'GXKF''BJBVZH'
GXKFBJBVZH
root@arm:~# MARKER='QBUM''OSJFXG' run 'test -f /proc/device-tree/ocp/interconnectt\@48000000/segment\@100000/target-module\@9c000/i2c\@0/pmic\@4b/regulators/LDO7//regulator-always-on ;echo $?'
QBUMOSJFXG1
QBUMOSJFXG 0
root@arm:~# echo 'HJGL''SSFVNZ'
HJGLSSFVNZ
root@arm:~# MARKER='EJVM''GQOSEF' run 'echo 0 > /sys/kernel/mva_test/regulators/bbuck15_en'
EJVMGQOSEFEJVMGQOSEF 0
root@arm:~# echo 'ELHF''AXOEGM'
ELHFAXOEGM
root@arm:~# MARKER='SVZE''NHKVKB' run 'i2cget -y -f 2 0x4b 0x1e'
SVZENHKVKB0x8f
SVZENHKVKB 0
root@arm:~# Labgrid Console Logfile for main
Logfile started at 2024-12-19 09:14:24.678757
=== Log starts here ===

root@arm:~# run() { echo -n "$MARKER"; sh -c "$@"; echo "$MARKER $?"; }
root@arm:~# echo 'BZBN''AZLEXL'
BZBNAZLEXL
root@arm:~# MARKER='AGXP''GAEHHQ' run 'grep -r -l rohm,bd71837 /proc/device-tree  | sed '"'"'s![^/]*$!!'"'"''
AGXPGAEHHQ/proc/device-tree/ocp/interconnect@48000000/segment@100000/target-module@9c000/i2c@0/pmic@4b/
AGXPGAEHHQ 0
root@arm:~# echo 'MSJU''LBFGPN'
MSJULBFGPN
root@arm:~# MARKER='HKZO''XUTTQY' run 'test -f /proc/device-tree/ocp/interconnectt\@48000000/segment\@100000/target-module\@9c000/i2c\@0/pmic\@4b/regulators/BUCK11/rohm,no-regulator-enable-control ;echo $?'
HKZOXUTTQY1
HKZOXUTTQY 0
root@arm:~# echo 'XFTL''HZEEPL'
XFTLHZEEPL
root@arm:~# MARKER='VETS''TPFMXA' run 'i2cget -y -f 2 0x4b 0x5'
VETSTPFMXA0x02
VETSTPFMXA 0
root@arm:~# echo 'EMFS''YQTJHZ'
EMFSYQTJHZ
root@arm:~# MARKER='GZAA''PQNFWL' run 'echo 700000 700000 > /sys/kernel/mva_test//regulators/buck1_set'
GZAAPQNFWLGZAAPQNFWL 0
root@arm:~# echo 'VHBH''GBSCVL'
VHBHGBSCVL
root@arm:~# MARKER='OUZV''BKOGFP' run 'i2cget -y -f 2 0x4b 0xd'
OUZVBKOGFP0x00
OUZVBKOGFP 0
root@arm:~# echo 'OPLB''HPNJGT'
OPLBHPNJGT
root@arm:~# MARKER='SJLG''WCCVLQ' run 'echo 710000 710000 > /sys/kernel/mva_test//regulators/buck1_set'
SJLGWCCVLQSJLGWCCVLQ 0
root@arm:~# echo 'TBLA''NFCQFU'
TBLANFCQFU
root@arm:~# MARKER='HSTA''BVSNYK' run 'i2cget -y -f 2 0x4b 0xd'
HSTABVSNYK0x01
HSTABVSNYK 0
root@arm:~# echo 'GJUP''GMEYCO'
GJUPGMEYCO
root@arm:~# MARKER='EPST''XKAHPG' run 'echo 720000 720000 > /sys/kernel/mva_test//regulators/buck1_set'
EPSTXKAHPGEPSTXKAHPG 0
root@arm:~# echo 'OXOF''AXCENM'
OXOFAXCENM
root@arm:~# MARKER='PKSP''OPYTCW' run 'i2cget -y -f 2 0x4b 0xd'
PKSPOPYTCW0x02
PKSPOPYTCW 0
root@arm:~# echo 'UPBJ''FVZZCN'
UPBJFVZZCN
root@arm:~# MARKER='COTC''LCCFBJ' run 'echo 730000 730000 > /sys/kernel/mva_test//regulators/buck1_set'
COTCLCCFBJCOTCLCCFBJ 0
root@arm:~# echo 'CTZA''WWMCPE'
CTZAWWMCPE
root@arm:~# MARKER='AKQY''QCMFYM' run 'i2cget -y -f 2 0x4b 0xd'
AKQYQCMFYM0x03
AKQYQCMFYM 0
root@arm:~# echo 'MFUM''OUYLZZ'
MFUMOUYLZZ
root@arm:~# MARKER='YHTF''GTAYJT' run 'echo 740000 740000 > /sys/kernel/mva_test//regulators/buck1_set'
YHTFGTAYJTYHTFGTAYJT 0
root@arm:~# echo 'VYHZ''SHFBXA'
VYHZSHFBXA
root@arm:~# MARKER='ZTXS''ABBVYC' run 'i2cget -y -f 2 0x4b 0xd'
ZTXSABBVYC0x04
ZTXSABBVYC 0
root@arm:~# echo 'AHSW''TGPFGN'
AHSWTGPFGN
root@arm:~# MARKER='LJKT''MNUSJM' run 'echo 750000 750000 > /sys/kernel/mva_test//regulators/buck1_set'
LJKTMNUSJMLJKTMNUSJM 0
root@arm:~# echo 'FAMC''EPFOXZ'
FAMCEPFOXZ
root@arm:~# MARKER='APVW''BMYFCF' run 'i2cget -y -f 2 0x4b 0xd'
APVWBMYFCF0x05
APVWBMYFCF 0
root@arm:~# echo 'FKUO''XUJZJS'
FKUOXUJZJS
root@arm:~# MARKER='SYHY''QGMWXP' run 'echo 760000 760000 > /sys/kernel/mva_test//regulators/buck1_set'
SYHYQGMWXPSYHYQGMWXP 0
root@arm:~# echo 'OLVA''KEAFQQ'
OLVAKEAFQQ
root@arm:~# MARKER='BZLF''TPYSZH' run 'i2cget -y -f 2 0x4b 0xd'
BZLFTPYSZH0x06
BZLFTPYSZH 0
root@arm:~# echo 'CMFL''MMSEXP'
CMFLMMSEXP
root@arm:~# MARKER='WZZZ''FWZHVG' run 'echo 770000 770000 > /sys/kernel/mva_test//regulators/buck1_set'
WZZZFWZHVGWZZZFWZHVG 0
root@arm:~# echo 'XUVF''FKSETE'
XUVFFKSETE
root@arm:~# MARKER='PQTL''YLTEQT' run 'i2cget -y -f 2 0x4b 0xd'
PQTLYLTEQT0x07
PQTLYLTEQT 0
root@arm:~# echo 'UJKS''UMZLYC'
UJKSUMZLYC
root@arm:~# MARKER='QVEC''QHMKUP' run 'echo 780000 780000 > /sys/kernel/mva_test//regulators/buck1_set'
QVECQHMKUPQVECQHMKUP 0
root@arm:~# echo 'ZHXP''CELFCP'
ZHXPCELFCP
root@arm:~# MARKER='PLUB''YMTOTO' run 'i2cget -y -f 2 0x4b 0xd'
PLUBYMTOTO0x08
PLUBYMTOTO 0
root@arm:~# echo 'TPHU''YTNAQV'
TPHUYTNAQV
root@arm:~# MARKER='QMZS''EUAMMU' run 'echo 790000 790000 > /sys/kernel/mva_test//regulators/buck1_set'
QMZSEUAMMUQMZSEUAMMU 0
root@arm:~# echo 'OXJS''NOMVUM'
OXJSNOMVUM
root@arm:~# MARKER='FMQV''BOZHTU' run 'i2cget -y -f 2 0x4b 0xd'
FMQVBOZHTU0x09
FMQVBOZHTU 0
root@arm:~# echo 'UHYP''BZCACF'
UHYPBZCACF
root@arm:~# MARKER='CTVL''TUVPBP' run 'echo 800000 800000 > /sys/kernel/mva_test//regulators/buck1_set'
CTVLTUVPBPCTVLTUVPBP 0
root@arm:~# echo 'BTGL''LMEEXQ'
BTGLLMEEXQ
root@arm:~# MARKER='FELV''BJBYXQ' run 'i2cget -y -f 2 0x4b 0xd'
FELVBJBYXQ0x0a
FELVBJBYXQ 0
root@arm:~# echo 'BALQ''ZNHLFV'
BALQZNHLFV
root@arm:~# MARKER='KCSC''OXHTPP' run 'echo 810000 810000 > /sys/kernel/mva_test//regulators/buck1_set'
KCSCOXHTPPKCSCOXHTPP 0
root@arm:~# echo 'FGNT''UKGGNA'
FGNTUKGGNA
root@arm:~# MARKER='BOUS''UXNZVO' run 'i2cget -y -f 2 0x4b 0xd'
BOUSUXNZVO0x0b
BOUSUXNZVO 0
root@arm:~# echo 'GGJV''LWFXQT'
GGJVLWFXQT
root@arm:~# MARKER='BFQE''HLMCGA' run 'echo 820000 820000 > /sys/kernel/mva_test//regulators/buck1_set'
BFQEHLMCGABFQEHLMCGA 0
root@arm:~# echo 'KSJY''XEFXVE'
KSJYXEFXVE
root@arm:~# MARKER='LSPP''CLHQKX' run 'i2cget -y -f 2 0x4b 0xd'
LSPPCLHQKX0x0c
LSPPCLHQKX 0
root@arm:~# echo 'XLOO''PLVBLY'
XLOOPLVBLY
root@arm:~# MARKER='XPUZ''MCLAJN' run 'echo 830000 830000 > /sys/kernel/mva_test//regulators/buck1_set'
XPUZMCLAJNXPUZMCLAJN 0
root@arm:~# echo 'JBOH''GGNOXX'
JBOHGGNOXX
root@arm:~# MARKER='BHAH''MBVPBP' run 'i2cget -y -f 2 0x4b 0xd'
BHAHMBVPBP0x0d
BHAHMBVPBP 0
root@arm:~# echo 'XLOS''HCUQUK'
XLOSHCUQUK
root@arm:~# MARKER='FZMW''LMPJNU' run 'echo 840000 840000 > /sys/kernel/mva_test//regulators/buck1_set'
FZMWLMPJNUFZMWLMPJNU 0
root@arm:~# echo 'EAVT''KUYMPY'
EAVTKUYMPY
root@arm:~# MARKER='GKJL''XJFWKW' run 'i2cget -y -f 2 0x4b 0xd'
GKJLXJFWKW0x0e
GKJLXJFWKW 0
root@arm:~# echo 'SJTA''AVWOBZ'
SJTAAVWOBZ
root@arm:~# MARKER='GZJE''MWPKVG' run 'echo 850000 850000 > /sys/kernel/mva_test//regulators/buck1_set'
GZJEMWPKVGGZJEMWPKVG 0
root@arm:~# echo 'AZPA''NQQQYG'
AZPANQQQYG
root@arm:~# MARKER='ESMF''UWUQSX' run 'i2cget -y -f 2 0x4b 0xd'
ESMFUWUQSX0x0f
ESMFUWUQSX 0
root@arm:~# echo 'JCGV''YKQKNH'
JCGVYKQKNH
root@arm:~# MARKER='GFLX''PVWGQV' run 'echo 860000 860000 > /sys/kernel/mva_test//regulators/buck1_set'
GFLXPVWGQVGFLXPVWGQV 0
root@arm:~# echo 'CYTU''PUATFF'
CYTUPUATFF
root@arm:~# MARKER='SCMX''OHKXWZ' run 'i2cget -y -f 2 0x4b 0xd'
SCMXOHKXWZ0x10
SCMXOHKXWZ 0
root@arm:~# echo 'XAEZ''CCWGTW'
XAEZCCWGTW
root@arm:~# MARKER='OYMA''FNKAZM' run 'echo 870000 870000 > /sys/kernel/mva_test//regulators/buck1_set'
OYMAFNKAZMOYMAFNKAZM 0
root@arm:~# echo 'AACN''BVYPNJ'
AACNBVYPNJ
root@arm:~# MARKER='WMGS''NZKZEZ' run 'i2cget -y -f 2 0x4b 0xd'
WMGSNZKZEZ0x11
WMGSNZKZEZ 0
root@arm:~# echo 'AZCF''SVCKVF'
AZCFSVCKVF
root@arm:~# MARKER='FPTO''NOMNML' run 'echo 880000 880000 > /sys/kernel/mva_test//regulators/buck1_set'
FPTONOMNMLFPTONOMNML 0
root@arm:~# echo 'CVKQ''TBOAZP'
CVKQTBOAZP
root@arm:~# MARKER='OYTL''XLZFKH' run 'i2cget -y -f 2 0x4b 0xd'
OYTLXLZFKH0x12
OYTLXLZFKH 0
root@arm:~# echo 'AMJQ''QNWPPX'
AMJQQNWPPX
root@arm:~# MARKER='NKFL''UVTVWO' run 'echo 890000 890000 > /sys/kernel/mva_test//regulators/buck1_set'
NKFLUVTVWONKFLUVTVWO 0
root@arm:~# echo 'JQKX''FNKVLV'
JQKXFNKVLV
root@arm:~# MARKER='MESJ''VEJBJL' run 'i2cget -y -f 2 0x4b 0xd'
MESJVEJBJL0x13
MESJVEJBJL 0
root@arm:~# echo 'AZPP''QSYTCO'
AZPPQSYTCO
root@arm:~# MARKER='ZEVV''NZAYUO' run 'echo 900000 900000 > /sys/kernel/mva_test//regulators/buck1_set'
ZEVVNZAYUOZEVVNZAYUO 0
root@arm:~# echo 'BWUU''MWLYHW'
BWUUMWLYHW
root@arm:~# MARKER='VGAE''TTQGXP' run 'i2cget -y -f 2 0x4b 0xd'
VGAETTQGXP0x14
VGAETTQGXP 0
root@arm:~# echo 'EFGQ''CFHWVO'
EFGQCFHWVO
root@arm:~# MARKER='HSHL''EZLUQK' run 'echo 910000 910000 > /sys/kernel/mva_test//regulators/buck1_set'
HSHLEZLUQKHSHLEZLUQK 0
root@arm:~# echo 'PNCY''ZNANLP'
PNCYZNANLP
root@arm:~# MARKER='KZOF''OFBSBB' run 'i2cget -y -f 2 0x4b 0xd'
KZOFOFBSBB0x15
KZOFOFBSBB 0
root@arm:~# echo 'ZSKX''EQPWEO'
ZSKXEQPWEO
root@arm:~# MARKER='PLEN''GZGYZT' run 'echo 920000 920000 > /sys/kernel/mva_test//regulators/buck1_set'
PLENGZGYZTPLENGZGYZT 0
root@arm:~# echo 'XXMQ''HMWFLN'
XXMQHMWFLN
root@arm:~# MARKER='UYZS''MTUUCO' run 'i2cget -y -f 2 0x4b 0xd'
UYZSMTUUCO0x16
UYZSMTUUCO 0
root@arm:~# echo 'HZZM''ZCUBCC'
HZZMZCUBCC
root@arm:~# MARKER='KJEX''HUFTUC' run 'echo 930000 930000 > /sys/kernel/mva_test//regulators/buck1_set'
KJEXHUFTUCKJEXHUFTUC 0
root@arm:~# echo 'QWTY''YSEJYH'
QWTYYSEJYH
root@arm:~# MARKER='FTZU''BMKFAA' run 'i2cget -y -f 2 0x4b 0xd'
FTZUBMKFAA0x17
FTZUBMKFAA 0
root@arm:~# echo 'SHFJ''EFNBVZ'
SHFJEFNBVZ
root@arm:~# MARKER='XFBX''PJSELC' run 'echo 940000 940000 > /sys/kernel/mva_test//regulators/buck1_set'
XFBXPJSELCXFBXPJSELC 0
root@arm:~# echo 'UHQE''XFSSHN'
UHQEXFSSHN
root@arm:~# MARKER='VPCW''XLOSGG' run 'i2cget -y -f 2 0x4b 0xd'
VPCWXLOSGG0x18
VPCWXLOSGG 0
root@arm:~# echo 'CZBA''LCKTYU'
CZBALCKTYU
root@arm:~# MARKER='SGCA''VCFWTU' run 'echo 950000 950000 > /sys/kernel/mva_test//regulators/buck1_set'
SGCAVCFWTUSGCAVCFWTU 0
root@arm:~# echo 'NAFJ''TFXSOA'
NAFJTFXSOA
root@arm:~# MARKER='PUQS''BKLZOJ' run 'i2cget -y -f 2 0x4b 0xd'
PUQSBKLZOJ0x19
PUQSBKLZOJ 0
root@arm:~# echo 'KKVQ''CHSYZL'
KKVQCHSYZL
root@arm:~# MARKER='JHMO''WJUWVQ' run 'echo 960000 960000 > /sys/kernel/mva_test//regulators/buck1_set'
JHMOWJUWVQJHMOWJUWVQ 0
root@arm:~# echo 'KPTC''KOYYCJ'
KPTCKOYYCJ
root@arm:~# MARKER='CPTF''NGWGBF' run 'i2cget -y -f 2 0x4b 0xd'
CPTFNGWGBF0x1a
CPTFNGWGBF 0
root@arm:~# echo 'JMXY''HQHMYZ'
JMXYHQHMYZ
root@arm:~# MARKER='WPQP''YLECCG' run 'echo 970000 970000 > /sys/kernel/mva_test//regulators/buck1_set'
WPQPYLECCGWPQPYLECCG 0
root@arm:~# echo 'LKXW''KQTOZE'
LKXWKQTOZE
root@arm:~# MARKER='JTKL''KMCTTP' run 'i2cget -y -f 2 0x4b 0xd'
JTKLKMCTTP0x1b
JTKLKMCTTP 0
root@arm:~# echo 'GWTO''LCOJXC'
GWTOLCOJXC
root@arm:~# MARKER='YULE''XYZUHE' run 'echo 980000 980000 > /sys/kernel/mva_test//regulators/buck1_set'
YULEXYZUHEYULEXYZUHE 0
root@arm:~# echo 'OPAH''OWKVCV'
OPAHOWKVCV
root@arm:~# MARKER='OUAL''HASXTM' run 'i2cget -y -f 2 0x4b 0xd'
OUALHASXTM0x1c
OUALHASXTM 0
root@arm:~# echo 'FTUK''LQBMOX'
FTUKLQBMOX
root@arm:~# MARKER='FONQ''AYKBVS' run 'echo 990000 990000 > /sys/kernel/mva_test//regulators/buck1_set'
FONQAYKBVSFONQAYKBVS 0
root@arm:~# echo 'WWEH''NWYZLN'
WWEHNWYZLN
root@arm:~# MARKER='HATL''AXNPUX' run 'i2cget -y -f 2 0x4b 0xd'
HATLAXNPUX0x1d
HATLAXNPUX 0
root@arm:~# echo 'LWHL''JBGPLU'
LWHLJBGPLU
root@arm:~# MARKER='LBQX''SKBZNM' run 'echo 1000000 1000000 > /sys/kernel/mva_tesst/regulators/buck1_set'
LBQXSKBZNMLBQXSKBZNM 0
root@arm:~# echo 'NYYQ''ETONML'
NYYQETONML
root@arm:~# MARKER='UGEC''LPTKSY' run 'i2cget -y -f 2 0x4b 0xd'
UGECLPTKSY0x1e
UGECLPTKSY 0
root@arm:~# echo 'FVKE''VXCZKW'
FVKEVXCZKW
root@arm:~# MARKER='YAGM''FLKAYX' run 'echo 1010000 1010000 > /sys/kernel/mva_tesst/regulators/buck1_set'
YAGMFLKAYXYAGMFLKAYX 0
root@arm:~# echo 'YPLG''GJGECP'
YPLGGJGECP
root@arm:~# MARKER='SGOW''FHMALB' run 'i2cget -y -f 2 0x4b 0xd'
SGOWFHMALB0x1f
SGOWFHMALB 0
root@arm:~# echo 'NVFK''CAWFAB'
NVFKCAWFAB
root@arm:~# MARKER='QSFK''SLYOHY' run 'echo 1020000 1020000 > /sys/kernel/mva_tesst/regulators/buck1_set'
QSFKSLYOHYQSFKSLYOHY 0
root@arm:~# echo 'LSGT''YNXEZN'
LSGTYNXEZN
root@arm:~# MARKER='YZZK''QLXWES' run 'i2cget -y -f 2 0x4b 0xd'
YZZKQLXWES0x20
YZZKQLXWES 0
root@arm:~# echo 'BTNZ''CLZMYP'
BTNZCLZMYP
root@arm:~# MARKER='VAKT''AEQAGG' run 'echo 1030000 1030000 > /sys/kernel/mva_tesst/regulators/buck1_set'
VAKTAEQAGGVAKTAEQAGG 0
root@arm:~# echo 'CSJX''HVMQBV'
CSJXHVMQBV
root@arm:~# MARKER='EWST''TALNWO' run 'i2cget -y -f 2 0x4b 0xd'
EWSTTALNWO0x21
EWSTTALNWO 0
root@arm:~# echo 'UAKE''XKZQKN'
UAKEXKZQKN
root@arm:~# MARKER='JHMT''GQOQAO' run 'echo 1040000 1040000 > /sys/kernel/mva_tesst/regulators/buck1_set'
JHMTGQOQAOJHMTGQOQAO 0
root@arm:~# echo 'OUYS''GWJXQS'
OUYSGWJXQS
root@arm:~# MARKER='VOUW''TZOQAX' run 'i2cget -y -f 2 0x4b 0xd'
VOUWTZOQAX0x22
VOUWTZOQAX 0
root@arm:~# echo 'FVYQ''YBYAAC'
FVYQYBYAAC
root@arm:~# MARKER='XAQZ''NLYYKB' run 'echo 1050000 1050000 > /sys/kernel/mva_tesst/regulators/buck1_set'
XAQZNLYYKBXAQZNLYYKB 0
root@arm:~# echo 'KXUA''FXWSTC'
KXUAFXWSTC
root@arm:~# MARKER='NGHO''MVSPMF' run 'i2cget -y -f 2 0x4b 0xd'
NGHOMVSPMF0x23
NGHOMVSPMF 0
root@arm:~# echo 'TLGV''WZJTKL'
TLGVWZJTKL
root@arm:~# MARKER='CACQ''LANEGE' run 'echo 1060000 1060000 > /sys/kernel/mva_tesst/regulators/buck1_set'
CACQLANEGECACQLANEGE 0
root@arm:~# echo 'XLQF''MCUBLT'
XLQFMCUBLT
root@arm:~# MARKER='TJNA''HFOLTV' run 'i2cget -y -f 2 0x4b 0xd'
TJNAHFOLTV0x24
TJNAHFOLTV 0
root@arm:~# echo 'HCZG''GMEWTH'
HCZGGMEWTH
root@arm:~# MARKER='TMXT''PWVCGF' run 'echo 1070000 1070000 > /sys/kernel/mva_tesst/regulators/buck1_set'
TMXTPWVCGFTMXTPWVCGF 0
root@arm:~# echo 'VWJN''YOHYQA'
VWJNYOHYQA
root@arm:~# MARKER='ABXB''XTYVUM' run 'i2cget -y -f 2 0x4b 0xd'
ABXBXTYVUM0x25
ABXBXTYVUM 0
root@arm:~# echo 'NMVH''KGSLKQ'
NMVHKGSLKQ
root@arm:~# MARKER='WYMS''OAFLMG' run 'echo 1080000 1080000 > /sys/kernel/mva_tesst/regulators/buck1_set'
WYMSOAFLMGWYMSOAFLMG 0
root@arm:~# echo 'HEKB''QFBQHA'
HEKBQFBQHA
root@arm:~# MARKER='LFQH''POOOJX' run 'i2cget -y -f 2 0x4b 0xd'
LFQHPOOOJX0x26
LFQHPOOOJX 0
root@arm:~# echo 'APZQ''AELYWT'
APZQAELYWT
root@arm:~# MARKER='YXUV''WJFJSQ' run 'echo 1090000 1090000 > /sys/kernel/mva_tesst/regulators/buck1_set'
YXUVWJFJSQYXUVWJFJSQ 0
root@arm:~# echo 'SPYH''SYSSXS'
SPYHSYSSXS
root@arm:~# MARKER='PFMF''NQFUOC' run 'i2cget -y -f 2 0x4b 0xd'
PFMFNQFUOC0x27
PFMFNQFUOC 0
root@arm:~# echo 'WHZA''QYNBOE'
WHZAQYNBOE
root@arm:~# MARKER='OQFO''ZWACGU' run 'echo 1100000 1100000 > /sys/kernel/mva_tesst/regulators/buck1_set'
OQFOZWACGUOQFOZWACGU 0
root@arm:~# echo 'VLXN''QTHNSL'
VLXNQTHNSL
root@arm:~# MARKER='JWEA''MLTCXU' run 'i2cget -y -f 2 0x4b 0xd'
JWEAMLTCXU0x28
JWEAMLTCXU 0
root@arm:~# echo 'SFEN''FKCGBZ'
SFENFKCGBZ
root@arm:~# MARKER='MZMX''BZZKUF' run 'echo 1110000 1110000 > /sys/kernel/mva_tesst/regulators/buck1_set'
MZMXBZZKUFMZMXBZZKUF 0
root@arm:~# echo 'FCMP''JXUYJN'
FCMPJXUYJN
root@arm:~# MARKER='UQPX''BVGJFV' run 'i2cget -y -f 2 0x4b 0xd'
UQPXBVGJFV0x29
UQPXBVGJFV 0
root@arm:~# echo 'AZOU''KXQCXB'
AZOUKXQCXB
root@arm:~# MARKER='TPLX''AGLUHS' run 'echo 1120000 1120000 > /sys/kernel/mva_tesst/regulators/buck1_set'
TPLXAGLUHSTPLXAGLUHS 0
root@arm:~# echo 'GGJY''UXCBJS'
GGJYUXCBJS
root@arm:~# MARKER='KLKE''TLGHOJ' run 'i2cget -y -f 2 0x4b 0xd'
KLKETLGHOJ0x2a
KLKETLGHOJ 0
root@arm:~# echo 'TEFQ''FMZEBF'
TEFQFMZEBF
root@arm:~# MARKER='LZMU''LZMUGT' run 'echo 1130000 1130000 > /sys/kernel/mva_tesst/regulators/buck1_set'
LZMULZMUGTLZMULZMUGT 0
root@arm:~# echo 'QFHW''WOWGLT'
QFHWWOWGLT
root@arm:~# MARKER='HUCH''GXJCCG' run 'i2cget -y -f 2 0x4b 0xd'
HUCHGXJCCG0x2b
HUCHGXJCCG 0
root@arm:~# echo 'NOFV''MPWPQE'
NOFVMPWPQE
root@arm:~# MARKER='JBSF''MBOBNW' run 'echo 1140000 1140000 > /sys/kernel/mva_tesst/regulators/buck1_set'
JBSFMBOBNWJBSFMBOBNW 0
root@arm:~# echo 'WUUT''ONJCBB'
WUUTONJCBB
root@arm:~# MARKER='BGQU''OWVNLQ' run 'i2cget -y -f 2 0x4b 0xd'
BGQUOWVNLQ0x2c
BGQUOWVNLQ 0
root@arm:~# echo 'QQGC''KBCNUQ'
QQGCKBCNUQ
root@arm:~# MARKER='OXOV''EJPYCQ' run 'echo 1150000 1150000 > /sys/kernel/mva_tesst/regulators/buck1_set'
OXOVEJPYCQOXOVEJPYCQ 0
root@arm:~# echo 'WLYU''AZUXOV'
WLYUAZUXOV
root@arm:~# MARKER='UGOE''YLAKVQ' run 'i2cget -y -f 2 0x4b 0xd'
UGOEYLAKVQ0x2d
UGOEYLAKVQ 0
root@arm:~# echo 'XZYN''LKCOCN'
XZYNLKCOCN
root@arm:~# MARKER='MHLP''ZKXGPN' run 'echo 1160000 1160000 > /sys/kernel/mva_tesst/regulators/buck1_set'
MHLPZKXGPNMHLPZKXGPN 0
root@arm:~# echo 'UUAN''XOUJZX'
UUANXOUJZX
root@arm:~# MARKER='QVKB''UENNPO' run 'i2cget -y -f 2 0x4b 0xd'
QVKBUENNPO0x2e
QVKBUENNPO 0
root@arm:~# echo 'BGLH''FTCABW'
BGLHFTCABW
root@arm:~# MARKER='JGGA''YKGNXC' run 'echo 1170000 1170000 > /sys/kernel/mva_tesst/regulators/buck1_set'
JGGAYKGNXCJGGAYKGNXC 0
root@arm:~# echo 'HOVF''YTCOTA'
HOVFYTCOTA
root@arm:~# MARKER='EYSV''MWSNLQ' run 'i2cget -y -f 2 0x4b 0xd'
EYSVMWSNLQ0x2f
EYSVMWSNLQ 0
root@arm:~# echo 'KFHN''QYVNMY'
KFHNQYVNMY
root@arm:~# MARKER='NPYN''PTQXUU' run 'echo 1180000 1180000 > /sys/kernel/mva_tesst/regulators/buck1_set'
NPYNPTQXUUNPYNPTQXUU 0
root@arm:~# echo 'AKLM''HMVPOV'
AKLMHMVPOV
root@arm:~# MARKER='KZWL''GCTWTM' run 'i2cget -y -f 2 0x4b 0xd'
KZWLGCTWTM0x30
KZWLGCTWTM 0
root@arm:~# echo 'QOYL''JJMSNY'
QOYLJJMSNY
root@arm:~# MARKER='SUNT''BFWWBT' run 'echo 1190000 1190000 > /sys/kernel/mva_tesst/regulators/buck1_set'
SUNTBFWWBTSUNTBFWWBT 0
root@arm:~# echo 'ZAOK''CXPQZQ'
ZAOKCXPQZQ
root@arm:~# MARKER='CNFP''YHMGFM' run 'i2cget -y -f 2 0x4b 0xd'
CNFPYHMGFM0x31
CNFPYHMGFM 0
root@arm:~# echo 'ATJN''MBJLSM'
ATJNMBJLSM
root@arm:~# MARKER='MYTS''WOQVXT' run 'echo 1200000 1200000 > /sys/kernel/mva_tesst/regulators/buck1_set'
MYTSWOQVXTMYTSWOQVXT 0
root@arm:~# echo 'SMBN''LVLGFL'
SMBNLVLGFL
root@arm:~# MARKER='LHMK''GGEZGQ' run 'i2cget -y -f 2 0x4b 0xd'
LHMKGGEZGQ0x32
LHMKGGEZGQ 0
root@arm:~# echo 'AGHX''HMPQSB'
AGHXHMPQSB
root@arm:~# MARKER='PHCO''FFWCFK' run 'echo 1210000 1210000 > /sys/kernel/mva_tesst/regulators/buck1_set'
PHCOFFWCFKPHCOFFWCFK 0
root@arm:~# echo 'OOSO''GXMSKQ'
OOSOGXMSKQ
root@arm:~# MARKER='SFUW''CQCEVL' run 'i2cget -y -f 2 0x4b 0xd'
SFUWCQCEVL0x33
SFUWCQCEVL 0
root@arm:~# echo 'XZJW''HJTKHQ'
XZJWHJTKHQ
root@arm:~# MARKER='NYHF''NBEBKN' run 'echo 1220000 1220000 > /sys/kernel/mva_tesst/regulators/buck1_set'
NYHFNBEBKNNYHFNBEBKN 0
root@arm:~# echo 'QASG''UWJSUJ'
QASGUWJSUJ
root@arm:~# MARKER='ZYAW''FEAEWH' run 'i2cget -y -f 2 0x4b 0xd'
ZYAWFEAEWH0x34
ZYAWFEAEWH 0
root@arm:~# echo 'CNXS''FBUFYM'
CNXSFBUFYM
root@arm:~# MARKER='TVTS''XVZAHN' run 'echo 1230000 1230000 > /sys/kernel/mva_tesst/regulators/buck1_set'
TVTSXVZAHNTVTSXVZAHN 0
root@arm:~# echo 'BCYM''KYUYWH'
BCYMKYUYWH
root@arm:~# MARKER='BPAQ''KCAWQS' run 'i2cget -y -f 2 0x4b 0xd'
BPAQKCAWQS0x35
BPAQKCAWQS 0
root@arm:~# echo 'KAKH''PBXWUS'
KAKHPBXWUS
root@arm:~# MARKER='HHTW''QULVTF' run 'echo 1240000 1240000 > /sys/kernel/mva_tesst/regulators/buck1_set'
HHTWQULVTFHHTWQULVTF 0
root@arm:~# echo 'WPKX''JHNXTQ'
WPKXJHNXTQ
root@arm:~# MARKER='YFMY''PMWKWP' run 'i2cget -y -f 2 0x4b 0xd'
YFMYPMWKWP0x36
YFMYPMWKWP 0
root@arm:~# echo 'QYCB''SQWBQT'
QYCBSQWBQT
root@arm:~# MARKER='NOSX''SOSVEX' run 'echo 1250000 1250000 > /sys/kernel/mva_tesst/regulators/buck1_set'
NOSXSOSVEXNOSXSOSVEX 0
root@arm:~# echo 'TPHH''GETHLZ'
TPHHGETHLZ
root@arm:~# MARKER='ZHYP''NFXYVP' run 'i2cget -y -f 2 0x4b 0xd'
ZHYPNFXYVP0x37
ZHYPNFXYVP 0
root@arm:~# echo 'MJKV''YGZQAN'
MJKVYGZQAN
root@arm:~# MARKER='MFYT''AYWGVG' run 'echo 1260000 1260000 > /sys/kernel/mva_tesst/regulators/buck1_set'
MFYTAYWGVGMFYTAYWGVG 0
root@arm:~# echo 'ECOE''LOBLCK'
ECOELOBLCK
root@arm:~# MARKER='HPYE''CKFGVV' run 'i2cget -y -f 2 0x4b 0xd'
HPYECKFGVV0x38
HPYECKFGVV 0
root@arm:~# echo 'QJGW''FCQTKF'
QJGWFCQTKF
root@arm:~# MARKER='ABTL''BKLPVP' run 'echo 1270000 1270000 > /sys/kernel/mva_tesst/regulators/buck1_set'
ABTLBKLPVPABTLBKLPVP 0
root@arm:~# echo 'ZKSU''ZYYFZG'
ZKSUZYYFZG
root@arm:~# MARKER='GUAQ''ZJJUJW' run 'i2cget -y -f 2 0x4b 0xd'
GUAQZJJUJW0x39
GUAQZJJUJW 0
root@arm:~# echo 'UMPC''WCQSWT'
UMPCWCQSWT
root@arm:~# MARKER='XTEO''JPWYJL' run 'echo 1280000 1280000 > /sys/kernel/mva_tesst/regulators/buck1_set'
XTEOJPWYJLXTEOJPWYJL 0
root@arm:~# echo 'NCPX''PHUYEK'
NCPXPHUYEK
root@arm:~# MARKER='EWGW''QOJOGH' run 'i2cget -y -f 2 0x4b 0xd'
EWGWQOJOGH0x3a
EWGWQOJOGH 0
root@arm:~# echo 'GTPY''AQTKCA'
GTPYAQTKCA
root@arm:~# MARKER='OAUM''SUVOHZ' run 'echo 1290000 1290000 > /sys/kernel/mva_tesst/regulators/buck1_set'
OAUMSUVOHZOAUMSUVOHZ 0
root@arm:~# echo 'CSET''HWKYNM'
CSETHWKYNM
root@arm:~# MARKER='QJPC''FGEKMN' run 'i2cget -y -f 2 0x4b 0xd'
QJPCFGEKMN0x3b
QJPCFGEKMN 0
root@arm:~# echo 'EHXF''LYUCHC'
EHXFLYUCHC
root@arm:~# MARKER='PMWE''YKYQOT' run 'echo 1300000 1300000 > /sys/kernel/mva_tesst/regulators/buck1_set'
PMWEYKYQOTPMWEYKYQOT 0
root@arm:~# echo 'SOWO''YMHZQT'
SOWOYMHZQT
root@arm:~# MARKER='EMQH''NXCEOW' run 'i2cget -y -f 2 0x4b 0xd'
EMQHNXCEOW0x3c
EMQHNXCEOW 0
root@arm:~# echo 'FXOP''LUZZTN'
FXOPLUZZTN
root@arm:~# MARKER='NECE''PZFJCK' run 'grep -r -l rohm,bd71837 /proc/device-tree  | sed '"'"'s![^/]*$!!'"'"''
NECEPZFJCK/proc/device-tree/ocp/interconnect@48000000/segment@100000/target-module@9c000/i2c@0/pmic@4b/
NECEPZFJCK 0
root@arm:~# echo 'JKJQ''AWUUPP'
JKJQAWUUPP
root@arm:~# MARKER='BNLV''FTFQNO' run 'test -f /proc/device-tree/ocp/interconnectt\@48000000/segment\@100000/target-module\@9c000/i2c\@0/pmic\@4b/regulators/BUCK22/rohm,no-regulator-enable-control ;echo $?'
BNLVFTFQNO1
BNLVFTFQNO 0
root@arm:~# echo 'KLJU''YVBLAZ'
KLJUYVBLAZ
root@arm:~# MARKER='PBEA''TKZLBK' run 'i2cget -y -f 2 0x4b 0x6'
PBEATKZLBK0x43
PBEATKZLBK 0
root@arm:~# echo 'HZKF''UNNUTP'
HZKFUNNUTP
root@arm:~# MARKER='XMPO''ENFQSU' run 'echo 700000 700000 > /sys/kernel/mva_test//regulators/buck2_set'
XMPOENFQSUXMPOENFQSU 0
root@arm:~# echo 'FMMH''SFFPSQ'
FMMHSFFPSQ
root@arm:~# MARKER='VMKS''QZUCXP' run 'i2cget -y -f 2 0x4b 0x10'
VMKSQZUCXP0x00
VMKSQZUCXP 0
root@arm:~# echo 'OBBJ''PYUUEF'
OBBJPYUUEF
root@arm:~# MARKER='WHEJ''CSMVKF' run 'echo 710000 710000 > /sys/kernel/mva_test//regulators/buck2_set'
WHEJCSMVKFWHEJCSMVKF 0
root@arm:~# echo 'FJHM''ZNNEYF'
FJHMZNNEYF
root@arm:~# MARKER='NZPW''WAVFWQ' run 'i2cget -y -f 2 0x4b 0x10'
NZPWWAVFWQ0x01
NZPWWAVFWQ 0
root@arm:~# echo 'PLUA''GUQSJG'
PLUAGUQSJG
root@arm:~# MARKER='GOWH''UCGAKV' run 'echo 720000 720000 > /sys/kernel/mva_test//regulators/buck2_set'
GOWHUCGAKVGOWHUCGAKV 0
root@arm:~# echo 'BLCK''XHXCVJ'
BLCKXHXCVJ
root@arm:~# MARKER='PUFB''NMFNEM' run 'i2cget -y -f 2 0x4b 0x10'
PUFBNMFNEM0x02
PUFBNMFNEM 0
root@arm:~# echo 'AVHW''XZFKNS'
AVHWXZFKNS
root@arm:~# MARKER='ATTO''PCSMGT' run 'echo 730000 730000 > /sys/kernel/mva_test//regulators/buck2_set'
ATTOPCSMGTATTOPCSMGT 0
root@arm:~# echo 'ALJK''NUAAWQ'
ALJKNUAAWQ
root@arm:~# MARKER='BLXJ''JONANY' run 'i2cget -y -f 2 0x4b 0x10'
BLXJJONANY0x03
BLXJJONANY 0
root@arm:~# echo 'XFAK''VGNFZS'
XFAKVGNFZS
root@arm:~# MARKER='XEFS''AMKMKW' run 'echo 740000 740000 > /sys/kernel/mva_test//regulators/buck2_set'
XEFSAMKMKWXEFSAMKMKW 0
root@arm:~# echo 'OCFV''YFJJAF'
OCFVYFJJAF
root@arm:~# MARKER='NYFM''EPWUFH' run 'i2cget -y -f 2 0x4b 0x10'
NYFMEPWUFH0x04
NYFMEPWUFH 0
root@arm:~# echo 'LBBZ''WHGYMK'
LBBZWHGYMK
root@arm:~# MARKER='UHWJ''UBLOAQ' run 'echo 750000 750000 > /sys/kernel/mva_test//regulators/buck2_set'
UHWJUBLOAQUHWJUBLOAQ 0
root@arm:~# echo 'BHNZ''MAVTCU'
BHNZMAVTCU
root@arm:~# MARKER='WELX''XNHWXV' run 'i2cget -y -f 2 0x4b 0x10'
WELXXNHWXV0x05
WELXXNHWXV 0
root@arm:~# echo 'JBBO''VUYNMQ'
JBBOVUYNMQ
root@arm:~# MARKER='MAAV''GOLWNZ' run 'echo 760000 760000 > /sys/kernel/mva_test//regulators/buck2_set'
MAAVGOLWNZMAAVGOLWNZ 0
root@arm:~# echo 'MEXL''KSQVUS'
MEXLKSQVUS
root@arm:~# MARKER='XPLG''PLMCVY' run 'i2cget -y -f 2 0x4b 0x10'
XPLGPLMCVY0x06
XPLGPLMCVY 0
root@arm:~# echo 'UUSA''ZOSSJF'
UUSAZOSSJF
root@arm:~# MARKER='YUVV''NBBLVN' run 'echo 770000 770000 > /sys/kernel/mva_test//regulators/buck2_set'
YUVVNBBLVNYUVVNBBLVN 0
root@arm:~# echo 'GCNA''KVOYCN'
GCNAKVOYCN
root@arm:~# MARKER='KXBB''HZCEJE' run 'i2cget -y -f 2 0x4b 0x10'
KXBBHZCEJE0x07
KXBBHZCEJE 0
root@arm:~# echo 'TUCY''LEVMLZ'
TUCYLEVMLZ
root@arm:~# MARKER='PFVG''USZCNA' run 'echo 780000 780000 > /sys/kernel/mva_test//regulators/buck2_set'
PFVGUSZCNAPFVGUSZCNA 0
root@arm:~# echo 'ZFUJ''JJKZGX'
ZFUJJJKZGX
root@arm:~# MARKER='TSUH''VHXPJW' run 'i2cget -y -f 2 0x4b 0x10'
TSUHVHXPJW0x08
TSUHVHXPJW 0
root@arm:~# echo 'WLUK''HVCVAW'
WLUKHVCVAW
root@arm:~# MARKER='VXOZ''VVTBKF' run 'echo 790000 790000 > /sys/kernel/mva_test//regulators/buck2_set'
VXOZVVTBKFVXOZVVTBKF 0
root@arm:~# echo 'QCOU''TVBCBJ'
QCOUTVBCBJ
root@arm:~# MARKER='ZYVZ''YHLMGT' run 'i2cget -y -f 2 0x4b 0x10'
ZYVZYHLMGT0x09
ZYVZYHLMGT 0
root@arm:~# echo 'EGPJ''BFFMSA'
EGPJBFFMSA
root@arm:~# MARKER='HYCH''EPSWVH' run 'echo 800000 800000 > /sys/kernel/mva_test//regulators/buck2_set'
HYCHEPSWVHHYCHEPSWVH 0
root@arm:~# echo 'NYXA''GXPCMQ'
NYXAGXPCMQ
root@arm:~# MARKER='ZCEP''OYAJEL' run 'i2cget -y -f 2 0x4b 0x10'
ZCEPOYAJEL0x0a
ZCEPOYAJEL 0
root@arm:~# echo 'JESH''QZFACT'
JESHQZFACT
root@arm:~# MARKER='TSOS''NZHQXV' run 'echo 810000 810000 > /sys/kernel/mva_test//regulators/buck2_set'
TSOSNZHQXVTSOSNZHQXV 0
root@arm:~# echo 'LKYT''UXLBCT'
LKYTUXLBCT
root@arm:~# MARKER='PTYH''QCKTHE' run 'i2cget -y -f 2 0x4b 0x10'
PTYHQCKTHE0x0b
PTYHQCKTHE 0
root@arm:~# echo 'HAGH''KAAATN'
HAGHKAAATN
root@arm:~# MARKER='HEEU''NFOLBP' run 'echo 820000 820000 > /sys/kernel/mva_test//regulators/buck2_set'
HEEUNFOLBPHEEUNFOLBP 0
root@arm:~# echo 'QPWV''KMEVNY'
QPWVKMEVNY
root@arm:~# MARKER='CQBE''LWWALE' run 'i2cget -y -f 2 0x4b 0x10'
CQBELWWALE0x0c
CQBELWWALE 0
root@arm:~# echo 'PPKH''QYYLAF'
PPKHQYYLAF
root@arm:~# MARKER='TOYB''PWNEMZ' run 'echo 830000 830000 > /sys/kernel/mva_test//regulators/buck2_set'
TOYBPWNEMZTOYBPWNEMZ 0
root@arm:~# echo 'KUCC''NHAOBA'
KUCCNHAOBA
root@arm:~# MARKER='MYEK''ESUSEB' run 'i2cget -y -f 2 0x4b 0x10'
MYEKESUSEB0x0d
MYEKESUSEB 0
root@arm:~# echo 'GVLT''UAHQWQ'
GVLTUAHQWQ
root@arm:~# MARKER='CSLF''QVPNFK' run 'echo 840000 840000 > /sys/kernel/mva_test//regulators/buck2_set'
CSLFQVPNFKCSLFQVPNFK 0
root@arm:~# echo 'GVYV''PNBMNL'
GVYVPNBMNL
root@arm:~# MARKER='HOPB''POVHUQ' run 'i2cget -y -f 2 0x4b 0x10'
HOPBPOVHUQ0x0e
HOPBPOVHUQ 0
root@arm:~# echo 'AFXJ''FFBPSQ'
AFXJFFBPSQ
root@arm:~# MARKER='KVNE''LVKACM' run 'echo 850000 850000 > /sys/kernel/mva_test//regulators/buck2_set'
KVNELVKACMKVNELVKACM 0
root@arm:~# echo 'JQVW''XVYCBE'
JQVWXVYCBE
root@arm:~# MARKER='UUPO''KGJYZG' run 'i2cget -y -f 2 0x4b 0x10'
UUPOKGJYZG0x0f
UUPOKGJYZG 0
root@arm:~# echo 'NBZL''YQTFWP'
NBZLYQTFWP
root@arm:~# MARKER='ZPWL''BWQGSO' run 'echo 860000 860000 > /sys/kernel/mva_test//regulators/buck2_set'
ZPWLBWQGSOZPWLBWQGSO 0
root@arm:~# echo 'ZCGE''HCQNKO'
ZCGEHCQNKO
root@arm:~# MARKER='CYXX''YVYHNG' run 'i2cget -y -f 2 0x4b 0x10'
CYXXYVYHNG0x10
CYXXYVYHNG 0
root@arm:~# echo 'TZQV''SOXGWN'
TZQVSOXGWN
root@arm:~# MARKER='SQKQ''SFAEWW' run 'echo 870000 870000 > /sys/kernel/mva_test//regulators/buck2_set'
SQKQSFAEWWSQKQSFAEWW 0
root@arm:~# echo 'AXBH''UNTPCC'
AXBHUNTPCC
root@arm:~# MARKER='NOAE''YABVSV' run 'i2cget -y -f 2 0x4b 0x10'
NOAEYABVSV0x11
NOAEYABVSV 0
root@arm:~# echo 'BXUV''ZBTHVN'
BXUVZBTHVN
root@arm:~# MARKER='OSHO''NNAZUJ' run 'echo 880000 880000 > /sys/kernel/mva_test//regulators/buck2_set'
OSHONNAZUJOSHONNAZUJ 0
root@arm:~# echo 'UPVP''LBYONT'
UPVPLBYONT
root@arm:~# MARKER='KVZE''MPMTYV' run 'i2cget -y -f 2 0x4b 0x10'
KVZEMPMTYV0x12
KVZEMPMTYV 0
root@arm:~# echo 'BYKS''WCTEEE'
BYKSWCTEEE
root@arm:~# MARKER='FPCT''EAGTYK' run 'echo 890000 890000 > /sys/kernel/mva_test//regulators/buck2_set'
FPCTEAGTYKFPCTEAGTYK 0
root@arm:~# echo 'FPJN''AMGQGJ'
FPJNAMGQGJ
root@arm:~# MARKER='SPJU''JXUMFE' run 'i2cget -y -f 2 0x4b 0x10'
SPJUJXUMFE0x13
SPJUJXUMFE 0
root@arm:~# echo 'NHVJ''XKQPQK'
NHVJXKQPQK
root@arm:~# MARKER='CSVF''ZXJUFQ' run 'echo 900000 900000 > /sys/kernel/mva_test//regulators/buck2_set'
CSVFZXJUFQCSVFZXJUFQ 0
root@arm:~# echo 'OENX''HWGPQV'
OENXHWGPQV
root@arm:~# MARKER='TBLN''NVUWBH' run 'i2cget -y -f 2 0x4b 0x10'
TBLNNVUWBH0x14
TBLNNVUWBH 0
root@arm:~# echo 'EUQU''GWGXUN'
EUQUGWGXUN
root@arm:~# MARKER='ONKE''MGMWOL' run 'echo 910000 910000 > /sys/kernel/mva_test//regulators/buck2_set'
ONKEMGMWOLONKEMGMWOL 0
root@arm:~# echo 'ALHE''YEYEBK'
ALHEYEYEBK
root@arm:~# MARKER='NMZL''YYEZKW' run 'i2cget -y -f 2 0x4b 0x10'
NMZLYYEZKW0x15
NMZLYYEZKW 0
root@arm:~# echo 'YGSS''EWYWKT'
YGSSEWYWKT
root@arm:~# MARKER='NBMU''MYLZVJ' run 'echo 920000 920000 > /sys/kernel/mva_test//regulators/buck2_set'
NBMUMYLZVJNBMUMYLZVJ 0
root@arm:~# echo 'QXHK''KBGHUL'
QXHKKBGHUL
root@arm:~# MARKER='JTUF''BBGKYP' run 'i2cget -y -f 2 0x4b 0x10'
JTUFBBGKYP0x16
JTUFBBGKYP 0
root@arm:~# echo 'AHNZ''JCEPPA'
AHNZJCEPPA
root@arm:~# MARKER='PXNP''OUFTCM' run 'echo 930000 930000 > /sys/kernel/mva_test//regulators/buck2_set'
PXNPOUFTCMPXNPOUFTCM 0
root@arm:~# echo 'LMQB''MLOLNE'
LMQBMLOLNE
root@arm:~# MARKER='XLLF''ZWSNOV' run 'i2cget -y -f 2 0x4b 0x10'
XLLFZWSNOV0x17
XLLFZWSNOV 0
root@arm:~# echo 'OJST''QKZUPH'
OJSTQKZUPH
root@arm:~# MARKER='QZHK''VJWTKX' run 'echo 940000 940000 > /sys/kernel/mva_test//regulators/buck2_set'
QZHKVJWTKXQZHKVJWTKX 0
root@arm:~# echo 'PKGT''ZHSKJA'
PKGTZHSKJA
root@arm:~# MARKER='GKJL''PBGVFA' run 'i2cget -y -f 2 0x4b 0x10'
GKJLPBGVFA0x18
GKJLPBGVFA 0
root@arm:~# echo 'GUCW''CWZXYG'
GUCWCWZXYG
root@arm:~# MARKER='THCK''XXCXSN' run 'echo 950000 950000 > /sys/kernel/mva_test//regulators/buck2_set'
THCKXXCXSNTHCKXXCXSN 0
root@arm:~# echo 'PECB''BKOTGF'
PECBBKOTGF
root@arm:~# MARKER='AVLM''LUPFPG' run 'i2cget -y -f 2 0x4b 0x10'
AVLMLUPFPG0x19
AVLMLUPFPG 0
root@arm:~# echo 'AQTK''FXEGSG'
AQTKFXEGSG
root@arm:~# MARKER='ZKBT''BZHKGH' run 'echo 960000 960000 > /sys/kernel/mva_test//regulators/buck2_set'
ZKBTBZHKGHZKBTBZHKGH 0
root@arm:~# echo 'LMYQ''OSJYTP'
LMYQOSJYTP
root@arm:~# MARKER='GYEA''QLKYZE' run 'i2cget -y -f 2 0x4b 0x10'
GYEAQLKYZE0x1a
GYEAQLKYZE 0
root@arm:~# echo 'FPOY''WUFAXH'
FPOYWUFAXH
root@arm:~# MARKER='VPNN''OUNEJB' run 'echo 970000 970000 > /sys/kernel/mva_test//regulators/buck2_set'
VPNNOUNEJBVPNNOUNEJB 0
root@arm:~# echo 'WKKY''JXCZTJ'
WKKYJXCZTJ
root@arm:~# MARKER='QZSN''QJEJWB' run 'i2cget -y -f 2 0x4b 0x10'
QZSNQJEJWB0x1b
QZSNQJEJWB 0
root@arm:~# echo 'JCYH''PJHGKW'
JCYHPJHGKW
root@arm:~# MARKER='JUHT''GJNABZ' run 'echo 980000 980000 > /sys/kernel/mva_test//regulators/buck2_set'
JUHTGJNABZJUHTGJNABZ 0
root@arm:~# echo 'USCN''TCLTLW'
USCNTCLTLW
root@arm:~# MARKER='SSXT''HWWNSP' run 'i2cget -y -f 2 0x4b 0x10'
SSXTHWWNSP0x1c
SSXTHWWNSP 0
root@arm:~# echo 'KQOA''GPHTUW'
KQOAGPHTUW
root@arm:~# MARKER='NVPK''MHYFPH' run 'echo 990000 990000 > /sys/kernel/mva_test//regulators/buck2_set'
NVPKMHYFPHNVPKMHYFPH 0
root@arm:~# echo 'NFKS''CFMPHT'
NFKSCFMPHT
root@arm:~# MARKER='KHSE''UGPVQF' run 'i2cget -y -f 2 0x4b 0x10'
KHSEUGPVQF0x1d
KHSEUGPVQF 0
root@arm:~# echo 'WPNB''EXOKWE'
WPNBEXOKWE
root@arm:~# MARKER='CWJG''FGYUHU' run 'echo 1000000 1000000 > /sys/kernel/mva_tesst/regulators/buck2_set'
CWJGFGYUHUCWJGFGYUHU 0
root@arm:~# echo 'ENLM''EGBJNS'
ENLMEGBJNS
root@arm:~# MARKER='CPLE''WNJYWF' run 'i2cget -y -f 2 0x4b 0x10'
CPLEWNJYWF0x1e
CPLEWNJYWF 0
root@arm:~# echo 'GBXM''FCAYEO'
GBXMFCAYEO
root@arm:~# MARKER='GXAQ''XFPXJO' run 'echo 1010000 1010000 > /sys/kernel/mva_tesst/regulators/buck2_set'
GXAQXFPXJOGXAQXFPXJO 0
root@arm:~# echo 'GFLE''JHBFYU'
GFLEJHBFYU
root@arm:~# MARKER='XBWO''MFHQCS' run 'i2cget -y -f 2 0x4b 0x10'
XBWOMFHQCS0x1f
XBWOMFHQCS 0
root@arm:~# echo 'OBMT''ZNKOCG'
OBMTZNKOCG
root@arm:~# MARKER='YWXK''TYCMNV' run 'echo 1020000 1020000 > /sys/kernel/mva_tesst/regulators/buck2_set'
YWXKTYCMNVYWXKTYCMNV 0
root@arm:~# echo 'KAYQ''AGELSG'
KAYQAGELSG
root@arm:~# MARKER='SXEE''GUNAKS' run 'i2cget -y -f 2 0x4b 0x10'
SXEEGUNAKS0x20
SXEEGUNAKS 0
root@arm:~# echo 'KPQQ''NGFXQA'
KPQQNGFXQA
root@arm:~# MARKER='GYGW''KUWKWU' run 'echo 1030000 1030000 > /sys/kernel/mva_tesst/regulators/buck2_set'
GYGWKUWKWUGYGWKUWKWU 0
root@arm:~# echo 'AVJZ''LWYXKX'
AVJZLWYXKX
root@arm:~# MARKER='XZNH''JKOQKY' run 'i2cget -y -f 2 0x4b 0x10'
XZNHJKOQKY0x21
XZNHJKOQKY 0
root@arm:~# echo 'XCXO''EHGAVC'
XCXOEHGAVC
root@arm:~# MARKER='NUVM''GOMKUZ' run 'echo 1040000 1040000 > /sys/kernel/mva_tesst/regulators/buck2_set'
NUVMGOMKUZNUVMGOMKUZ 0
root@arm:~# echo 'ETAP''HMBNNG'
ETAPHMBNNG
root@arm:~# MARKER='GHMG''FOJWKW' run 'i2cget -y -f 2 0x4b 0x10'
GHMGFOJWKW0x22
GHMGFOJWKW 0
root@arm:~# echo 'PBHF''ZFUVGK'
PBHFZFUVGK
root@arm:~# MARKER='VTPW''WBAPQZ' run 'echo 1050000 1050000 > /sys/kernel/mva_tesst/regulators/buck2_set'
VTPWWBAPQZVTPWWBAPQZ 0
root@arm:~# echo 'JSNZ''JMNJGT'
JSNZJMNJGT
root@arm:~# MARKER='HQOU''UEZBMX' run 'i2cget -y -f 2 0x4b 0x10'
HQOUUEZBMX0x23
HQOUUEZBMX 0
root@arm:~# echo 'JWHN''EOPHSK'
JWHNEOPHSK
root@arm:~# MARKER='OWOL''OLHGVW' run 'echo 1060000 1060000 > /sys/kernel/mva_tesst/regulators/buck2_set'
OWOLOLHGVWOWOLOLHGVW 0
root@arm:~# echo 'ZYUN''GGOEWS'
ZYUNGGOEWS
root@arm:~# MARKER='EJPJ''LQCEYT' run 'i2cget -y -f 2 0x4b 0x10'
EJPJLQCEYT0x24
EJPJLQCEYT 0
root@arm:~# echo 'LAUS''CKPCQY'
LAUSCKPCQY
root@arm:~# MARKER='XSZZ''PTBLLW' run 'echo 1070000 1070000 > /sys/kernel/mva_tesst/regulators/buck2_set'
XSZZPTBLLWXSZZPTBLLW 0
root@arm:~# echo 'CSOX''QNYFYJ'
CSOXQNYFYJ
root@arm:~# MARKER='AGGZ''FCLYCU' run 'i2cget -y -f 2 0x4b 0x10'
AGGZFCLYCU0x25
AGGZFCLYCU 0
root@arm:~# echo 'XUZK''WHCMFS'
XUZKWHCMFS
root@arm:~# MARKER='TKTA''EHUMXZ' run 'echo 1080000 1080000 > /sys/kernel/mva_tesst/regulators/buck2_set'
TKTAEHUMXZTKTAEHUMXZ 0
root@arm:~# echo 'WKUA''MBWEMV'
WKUAMBWEMV
root@arm:~# MARKER='LBCY''CFFXWJ' run 'i2cget -y -f 2 0x4b 0x10'
LBCYCFFXWJ0x26
LBCYCFFXWJ 0
root@arm:~# echo 'PJSF''GKCZLK'
PJSFGKCZLK
root@arm:~# MARKER='XCNE''ZGCXPN' run 'echo 1090000 1090000 > /sys/kernel/mva_tesst/regulators/buck2_set'
XCNEZGCXPNXCNEZGCXPN 0
root@arm:~# echo 'NKHW''OHCGTN'
NKHWOHCGTN
root@arm:~# MARKER='HXYP''SECEBS' run 'i2cget -y -f 2 0x4b 0x10'
HXYPSECEBS0x27
HXYPSECEBS 0
root@arm:~# echo 'TJTF''JHLMXN'
TJTFJHLMXN
root@arm:~# MARKER='UUOO''SQAGUX' run 'echo 1100000 1100000 > /sys/kernel/mva_tesst/regulators/buck2_set'
UUOOSQAGUXUUOOSQAGUX 0
root@arm:~# echo 'GSCX''GSNPPA'
GSCXGSNPPA
root@arm:~# MARKER='YFHC''CJFNCB' run 'i2cget -y -f 2 0x4b 0x10'
YFHCCJFNCB0x28
YFHCCJFNCB 0
root@arm:~# echo 'ACYU''CSQOXP'
ACYUCSQOXP
root@arm:~# MARKER='JELU''XKXBEF' run 'echo 1110000 1110000 > /sys/kernel/mva_tesst/regulators/buck2_set'
JELUXKXBEFJELUXKXBEF 0
root@arm:~# echo 'JTME''OYXGWW'
JTMEOYXGWW
root@arm:~# MARKER='SNWT''EPAYLN' run 'i2cget -y -f 2 0x4b 0x10'
SNWTEPAYLN0x29
SNWTEPAYLN 0
root@arm:~# echo 'ZFLA''OBCKHJ'
ZFLAOBCKHJ
root@arm:~# MARKER='EWWL''OZXCMX' run 'echo 1120000 1120000 > /sys/kernel/mva_tesst/regulators/buck2_set'
EWWLOZXCMXEWWLOZXCMX 0
root@arm:~# echo 'TTSN''PQKKGT'
TTSNPQKKGT
root@arm:~# MARKER='KQUM''OAYLYB' run 'i2cget -y -f 2 0x4b 0x10'
KQUMOAYLYB0x2a
KQUMOAYLYB 0
root@arm:~# echo 'POSK''VQYOMM'
POSKVQYOMM
root@arm:~# MARKER='CVHU''KWCJPE' run 'echo 1130000 1130000 > /sys/kernel/mva_tesst/regulators/buck2_set'
CVHUKWCJPECVHUKWCJPE 0
root@arm:~# echo 'UFSE''ZEACYY'
UFSEZEACYY
root@arm:~# MARKER='CFBP''UGWYVC' run 'i2cget -y -f 2 0x4b 0x10'
CFBPUGWYVC0x2b
CFBPUGWYVC 0
root@arm:~# echo 'HYXZ''YZQGFK'
HYXZYZQGFK
root@arm:~# MARKER='VUTC''FEJPJW' run 'echo 1140000 1140000 > /sys/kernel/mva_tesst/regulators/buck2_set'
VUTCFEJPJWVUTCFEJPJW 0
root@arm:~# echo 'TCZE''XBMCWE'
TCZEXBMCWE
root@arm:~# MARKER='ETKS''TGVYCB' run 'i2cget -y -f 2 0x4b 0x10'
ETKSTGVYCB0x2c
ETKSTGVYCB 0
root@arm:~# echo 'FFNF''TQXYKQ'
FFNFTQXYKQ
root@arm:~# MARKER='VMAQ''LGBNCB' run 'echo 1150000 1150000 > /sys/kernel/mva_tesst/regulators/buck2_set'
VMAQLGBNCBVMAQLGBNCB 0
root@arm:~# echo 'TBQX''KBWMJN'
TBQXKBWMJN
root@arm:~# MARKER='FQKB''VOGHAV' run 'i2cget -y -f 2 0x4b 0x10'
FQKBVOGHAV0x2d
FQKBVOGHAV 0
root@arm:~# echo 'NPHU''PTBOSO'
NPHUPTBOSO
root@arm:~# MARKER='UBTS''LBPGFJ' run 'echo 1160000 1160000 > /sys/kernel/mva_tesst/regulators/buck2_set'
UBTSLBPGFJUBTSLBPGFJ 0
root@arm:~# echo 'UCAT''HHHYAH'
UCATHHHYAH
root@arm:~# MARKER='WVXB''ZJUWON' run 'i2cget -y -f 2 0x4b 0x10'
WVXBZJUWON0x2e
WVXBZJUWON 0
root@arm:~# echo 'QEYV''LYEHQZ'
QEYVLYEHQZ
root@arm:~# MARKER='HKOT''AVKZOG' run 'echo 1170000 1170000 > /sys/kernel/mva_tesst/regulators/buck2_set'
HKOTAVKZOGHKOTAVKZOG 0
root@arm:~# echo 'HCPA''KFEMAW'
HCPAKFEMAW
root@arm:~# MARKER='GKGC''BHEPXP' run 'i2cget -y -f 2 0x4b 0x10'
GKGCBHEPXP0x2f
GKGCBHEPXP 0
root@arm:~# echo 'FMUG''CBSVOS'
FMUGCBSVOS
root@arm:~# MARKER='MZNN''YQLKAZ' run 'echo 1180000 1180000 > /sys/kernel/mva_tesst/regulators/buck2_set'
MZNNYQLKAZMZNNYQLKAZ 0
root@arm:~# echo 'FXNZ''OSMVFY'
FXNZOSMVFY
root@arm:~# MARKER='SYJZ''MJWSTE' run 'i2cget -y -f 2 0x4b 0x10'
SYJZMJWSTE0x30
SYJZMJWSTE 0
root@arm:~# echo 'ZFQY''YFPVPC'
ZFQYYFPVPC
root@arm:~# MARKER='TYVA''FYUNLN' run 'echo 1190000 1190000 > /sys/kernel/mva_tesst/regulators/buck2_set'
TYVAFYUNLNTYVAFYUNLN 0
root@arm:~# echo 'JTXJ''WBQFEC'
JTXJWBQFEC
root@arm:~# MARKER='XZOE''CQPEZV' run 'i2cget -y -f 2 0x4b 0x10'
XZOECQPEZV0x31
XZOECQPEZV 0
root@arm:~# echo 'JVYQ''GYLTUG'
JVYQGYLTUG
root@arm:~# MARKER='OXGX''EFWGSA' run 'echo 1200000 1200000 > /sys/kernel/mva_tesst/regulators/buck2_set'
OXGXEFWGSAOXGXEFWGSA 0
root@arm:~# echo 'OYNP''ESJLPM'
OYNPESJLPM
root@arm:~# MARKER='EAGJ''CUEUJZ' run 'i2cget -y -f 2 0x4b 0x10'
EAGJCUEUJZ0x32
EAGJCUEUJZ 0
root@arm:~# echo 'SGWG''FPAUEP'
SGWGFPAUEP
root@arm:~# MARKER='YAQA''UCCQJV' run 'echo 1210000 1210000 > /sys/kernel/mva_tesst/regulators/buck2_set'
YAQAUCCQJVYAQAUCCQJV 0
root@arm:~# echo 'ATHO''AWAUPQ'
ATHOAWAUPQ
root@arm:~# MARKER='YUQS''GSWSGV' run 'i2cget -y -f 2 0x4b 0x10'
YUQSGSWSGV0x33
YUQSGSWSGV 0
root@arm:~# echo 'SNHO''PJSZJW'
SNHOPJSZJW
root@arm:~# MARKER='FFJO''LPEPBO' run 'echo 1220000 1220000 > /sys/kernel/mva_tesst/regulators/buck2_set'
FFJOLPEPBOFFJOLPEPBO 0
root@arm:~# echo 'HYLQ''WCBKQH'
HYLQWCBKQH
root@arm:~# MARKER='KOGU''NOUCYM' run 'i2cget -y -f 2 0x4b 0x10'
KOGUNOUCYM0x34
KOGUNOUCYM 0
root@arm:~# echo 'XHZB''ATTHSP'
XHZBATTHSP
root@arm:~# MARKER='CJQF''EGTAFT' run 'echo 1230000 1230000 > /sys/kernel/mva_tesst/regulators/buck2_set'
CJQFEGTAFTCJQFEGTAFT 0
root@arm:~# echo 'YCAQ''MBCMTU'
YCAQMBCMTU
root@arm:~# MARKER='XYZO''YXXJHM' run 'i2cget -y -f 2 0x4b 0x10'
XYZOYXXJHM0x35
XYZOYXXJHM 0
root@arm:~# echo 'EZPB''HLUWYQ'
EZPBHLUWYQ
root@arm:~# MARKER='ZNJU''JMBOTE' run 'echo 1240000 1240000 > /sys/kernel/mva_tesst/regulators/buck2_set'
ZNJUJMBOTEZNJUJMBOTE 0
root@arm:~# echo 'NZJN''BBQSEE'
NZJNBBQSEE
root@arm:~# MARKER='MSUP''JKXTSE' run 'i2cget -y -f 2 0x4b 0x10'
MSUPJKXTSE0x36
MSUPJKXTSE 0
root@arm:~# echo 'TLMX''YOCEGF'
TLMXYOCEGF
root@arm:~# MARKER='QQPM''UTYLJK' run 'echo 1250000 1250000 > /sys/kernel/mva_tesst/regulators/buck2_set'
QQPMUTYLJKQQPMUTYLJK 0
root@arm:~# echo 'ZFXP''QYSMKE'
ZFXPQYSMKE
root@arm:~# MARKER='LGBO''QONOSX' run 'i2cget -y -f 2 0x4b 0x10'
LGBOQONOSX0x37
LGBOQONOSX 0
root@arm:~# echo 'BGGG''LCNFSY'
BGGGLCNFSY
root@arm:~# MARKER='GYTK''MXBOBG' run 'echo 1260000 1260000 > /sys/kernel/mva_tesst/regulators/buck2_set'
GYTKMXBOBGGYTKMXBOBG 0
root@arm:~# echo 'FBOA''QGFKYH'
FBOAQGFKYH
root@arm:~# MARKER='AHKK''NLUHZJ' run 'i2cget -y -f 2 0x4b 0x10'
AHKKNLUHZJ0x38
AHKKNLUHZJ 0
root@arm:~# echo 'YWNF''AXKKXL'
YWNFAXKKXL
root@arm:~# MARKER='HCBO''MSBQBF' run 'echo 1270000 1270000 > /sys/kernel/mva_tesst/regulators/buck2_set'
HCBOMSBQBFHCBOMSBQBF 0
root@arm:~# echo 'HTBQ''JTKXCO'
HTBQJTKXCO
root@arm:~# MARKER='MZBE''HXBEYK' run 'i2cget -y -f 2 0x4b 0x10'
MZBEHXBEYK0x39
MZBEHXBEYK 0
root@arm:~# echo 'NQOZ''MGBWCK'
NQOZMGBWCK
root@arm:~# MARKER='NUZM''WUXENP' run 'echo 1280000 1280000 > /sys/kernel/mva_tesst/regulators/buck2_set'
NUZMWUXENPNUZMWUXENP 0
root@arm:~# echo 'KNLJ''AWYFFE'
KNLJAWYFFE
root@arm:~# MARKER='UAGX''CZTHEL' run 'i2cget -y -f 2 0x4b 0x10'
UAGXCZTHEL0x3a
UAGXCZTHEL 0
root@arm:~# echo 'BJNN''LLGBUJ'
BJNNLLGBUJ
root@arm:~# MARKER='HLNU''FMFYYY' run 'echo 1290000 1290000 > /sys/kernel/mva_tesst/regulators/buck2_set'
HLNUFMFYYYHLNUFMFYYY 0
root@arm:~# echo 'WFNK''YKCCZO'
WFNKYKCCZO
root@arm:~# MARKER='EZZJ''TMJAAQ' run 'i2cget -y -f 2 0x4b 0x10'
EZZJTMJAAQ0x3b
EZZJTMJAAQ 0
root@arm:~# echo 'SVLL''GEWYYN'
SVLLGEWYYN
root@arm:~# MARKER='BWOU''ZVMSXU' run 'echo 1300000 1300000 > /sys/kernel/mva_tesst/regulators/buck2_set'
BWOUZVMSXUBWOUZVMSXU 0
root@arm:~# echo 'ZZCV''GNKTVY'
ZZCVGNKTVY
root@arm:~# MARKER='AQPK''MCAXLV' run 'i2cget -y -f 2 0x4b 0x10'
AQPKMCAXLV0x3c
AQPKMCAXLV 0
root@arm:~# echo 'BEOV''SEHZPH'
BEOVSEHZPH
root@arm:~# MARKER='OUKF''ZUUSGO' run 'grep -r -l rohm,bd71837 /proc/device-tree  | sed '"'"'s![^/]*$!!'"'"''
OUKFZUUSGO/proc/device-tree/ocp/interconnect@48000000/segment@100000/target-module@9c000/i2c@0/pmic@4b/
OUKFZUUSGO 0
root@arm:~# echo 'FOTF''FJYSBP'
FOTFFJYSBP
root@arm:~# MARKER='MPAZ''FOGOAX' run 'test -f /proc/device-tree/ocp/interconnectt\@48000000/segment\@100000/target-module\@9c000/i2c\@0/pmic\@4b/regulators/BUCK33/rohm,no-regulator-enable-control ;echo $?'
MPAZFOGOAX0
MPAZFOGOAX 0
root@arm:~# echo 'TCUS''NSYESU'
TCUSNSYESU
root@arm:~# MARKER='BNOV''QGTQWH' run 'echo 700000 700000 > /sys/kernel/mva_test//regulators/buck3_set'
BNOVQGTQWHBNOVQGTQWH 0
root@arm:~# echo 'YHNA''WAWUFM'
YHNAWAWUFM
root@arm:~# MARKER='OYUX''BUXUKF' run 'i2cget -y -f 2 0x4b 0x12'
OYUXBUXUKF0x00
OYUXBUXUKF 0
root@arm:~# echo 'FNUX''YNQPVQ'
FNUXYNQPVQ
root@arm:~# MARKER='PYYJ''WZAXFC' run 'echo 710000 710000 > /sys/kernel/mva_test//regulators/buck3_set'
PYYJWZAXFCPYYJWZAXFC 0
root@arm:~# echo 'PTLQ''CFJJKK'
PTLQCFJJKK
root@arm:~# MARKER='XXTB''GJVQZS' run 'i2cget -y -f 2 0x4b 0x12'
XXTBGJVQZS0x01
XXTBGJVQZS 0
root@arm:~# echo 'PYVY''VEEPZN'
PYVYVEEPZN
root@arm:~# MARKER='ZPYN''UGTEKK' run 'echo 720000 720000 > /sys/kernel/mva_test//regulators/buck3_set'
ZPYNUGTEKKZPYNUGTEKK 0
root@arm:~# echo 'ZTVG''JKGQXN'
ZTVGJKGQXN
root@arm:~# MARKER='JNFX''JFLZPH' run 'i2cget -y -f 2 0x4b 0x12'
JNFXJFLZPH0x02
JNFXJFLZPH 0
root@arm:~# echo 'EMKU''FPXUFN'
EMKUFPXUFN
root@arm:~# MARKER='VVJH''QMYVEV' run 'echo 730000 730000 > /sys/kernel/mva_test//regulators/buck3_set'
VVJHQMYVEVVVJHQMYVEV 0
root@arm:~# echo 'GYYB''YYQPZA'
GYYBYYQPZA
root@arm:~# MARKER='JPJL''MTOSOK' run 'i2cget -y -f 2 0x4b 0x12'
JPJLMTOSOK0x03
JPJLMTOSOK 0
root@arm:~# echo 'QQZJ''MMSSMA'
QQZJMMSSMA
root@arm:~# MARKER='VHNC''BXZPPX' run 'echo 740000 740000 > /sys/kernel/mva_test//regulators/buck3_set'
VHNCBXZPPXVHNCBXZPPX 0
root@arm:~# echo 'YYGG''BHNNSL'
YYGGBHNNSL
root@arm:~# MARKER='NUUB''UTHZEN' run 'i2cget -y -f 2 0x4b 0x12'
NUUBUTHZEN0x04
NUUBUTHZEN 0
root@arm:~# echo 'EQHP''GBVNHP'
EQHPGBVNHP
root@arm:~# MARKER='LTAY''WSPBNC' run 'echo 750000 750000 > /sys/kernel/mva_test//regulators/buck3_set'
LTAYWSPBNCLTAYWSPBNC 0
root@arm:~# echo 'JJXY''COQPBB'
JJXYCOQPBB
root@arm:~# MARKER='ZSXO''STQQGT' run 'i2cget -y -f 2 0x4b 0x12'
ZSXOSTQQGT0x05
ZSXOSTQQGT 0
root@arm:~# echo 'EWWG''XZHMEW'
EWWGXZHMEW
root@arm:~# MARKER='ZFET''NQSOJC' run 'echo 760000 760000 > /sys/kernel/mva_test//regulators/buck3_set'
ZFETNQSOJCZFETNQSOJC 0
root@arm:~# echo 'TLMK''MWHTSA'
TLMKMWHTSA
root@arm:~# MARKER='HEUN''CSQFHP' run 'i2cget -y -f 2 0x4b 0x12'
HEUNCSQFHP0x06
HEUNCSQFHP 0
root@arm:~# echo 'QTHV''FFMQVG'
QTHVFFMQVG
root@arm:~# MARKER='LKUB''UEMEJY' run 'echo 770000 770000 > /sys/kernel/mva_test//regulators/buck3_set'
LKUBUEMEJYLKUBUEMEJY 0
root@arm:~# echo 'LCCB''GNHELW'
LCCBGNHELW
root@arm:~# MARKER='SJUA''BGLZJY' run 'i2cget -y -f 2 0x4b 0x12'
SJUABGLZJY0x07
SJUABGLZJY 0
root@arm:~# echo 'AMTY''JWYVMJ'
AMTYJWYVMJ
root@arm:~# MARKER='EVMS''SAFWJH' run 'echo 780000 780000 > /sys/kernel/mva_test//regulators/buck3_set'
EVMSSAFWJHEVMSSAFWJH 0
root@arm:~# echo 'KCJP''JPGKXZ'
KCJPJPGKXZ
root@arm:~# MARKER='NTBL''ZFNWAG' run 'i2cget -y -f 2 0x4b 0x12'
NTBLZFNWAG0x08
NTBLZFNWAG 0
root@arm:~# echo 'PKZM''NCQHSK'
PKZMNCQHSK
root@arm:~# MARKER='LNQU''UFLKPH' run 'echo 790000 790000 > /sys/kernel/mva_test//regulators/buck3_set'
LNQUUFLKPHLNQUUFLKPH 0
root@arm:~# echo 'UZYO''QYPTTM'
UZYOQYPTTM
root@arm:~# MARKER='ULAZ''MTVXWY' run 'i2cget -y -f 2 0x4b 0x12'
ULAZMTVXWY0x09
ULAZMTVXWY 0
root@arm:~# echo 'VCFQ''SGNJJH'
VCFQSGNJJH
root@arm:~# MARKER='QOGM''LVCOGH' run 'echo 800000 800000 > /sys/kernel/mva_test//regulators/buck3_set'
QOGMLVCOGHQOGMLVCOGH 0
root@arm:~# echo 'GWCG''MXQLXS'
GWCGMXQLXS
root@arm:~# MARKER='QAWL''YVTCBV' run 'i2cget -y -f 2 0x4b 0x12'
QAWLYVTCBV0x0a
QAWLYVTCBV 0
root@arm:~# echo 'QYGG''TPSVFP'
QYGGTPSVFP
root@arm:~# MARKER='ACCQ''ZQANYH' run 'echo 810000 810000 > /sys/kernel/mva_test//regulators/buck3_set'
ACCQZQANYHACCQZQANYH 0
root@arm:~# echo 'XSOP''PKXEXU'
XSOPPKXEXU
root@arm:~# MARKER='JACG''VCJCBT' run 'i2cget -y -f 2 0x4b 0x12'
JACGVCJCBT0x0b
JACGVCJCBT 0
root@arm:~# echo 'HZMA''GFUETJ'
HZMAGFUETJ
root@arm:~# MARKER='LHGM''VKFBCM' run 'echo 820000 820000 > /sys/kernel/mva_test//regulators/buck3_set'
LHGMVKFBCMLHGMVKFBCM 0
root@arm:~# echo 'ATFE''OECKWN'
ATFEOECKWN
root@arm:~# MARKER='CNFG''OAUMBX' run 'i2cget -y -f 2 0x4b 0x12'
CNFGOAUMBX0x0c
CNFGOAUMBX 0
root@arm:~# echo 'WNMW''FELOVV'
WNMWFELOVV
root@arm:~# MARKER='NLYN''JXJNZW' run 'echo 830000 830000 > /sys/kernel/mva_test//regulators/buck3_set'
NLYNJXJNZWNLYNJXJNZW 0
root@arm:~# echo 'FOWX''UVEMOH'
FOWXUVEMOH
root@arm:~# MARKER='WUMQ''FXAQSJ' run 'i2cget -y -f 2 0x4b 0x12'
WUMQFXAQSJ0x0d
WUMQFXAQSJ 0
root@arm:~# echo 'QJVO''WWQFQX'
QJVOWWQFQX
root@arm:~# MARKER='CFWM''MWQFXC' run 'echo 840000 840000 > /sys/kernel/mva_test//regulators/buck3_set'
CFWMMWQFXCCFWMMWQFXC 0
root@arm:~# echo 'OFSQ''NOGATN'
OFSQNOGATN
root@arm:~# MARKER='AQKP''OQZCYN' run 'i2cget -y -f 2 0x4b 0x12'
AQKPOQZCYN0x0e
AQKPOQZCYN 0
root@arm:~# echo 'XESV''WEGBYQ'
XESVWEGBYQ
root@arm:~# MARKER='QJLM''SSPLOX' run 'echo 850000 850000 > /sys/kernel/mva_test//regulators/buck3_set'
QJLMSSPLOXQJLMSSPLOX 0
root@arm:~# echo 'TLUW''GQYKYZ'
TLUWGQYKYZ
root@arm:~# MARKER='NBOX''JXVFNH' run 'i2cget -y -f 2 0x4b 0x12'
NBOXJXVFNH0x0f
NBOXJXVFNH 0
root@arm:~# echo 'CJTK''TWYHMJ'
CJTKTWYHMJ
root@arm:~# MARKER='UJUH''YFHHZY' run 'echo 860000 860000 > /sys/kernel/mva_test//regulators/buck3_set'
UJUHYFHHZYUJUHYFHHZY 0
root@arm:~# echo 'NBNQ''VCPHYZ'
NBNQVCPHYZ
root@arm:~# MARKER='TZAG''QEULEC' run 'i2cget -y -f 2 0x4b 0x12'
TZAGQEULEC0x10
TZAGQEULEC 0
root@arm:~# echo 'LULN''NNNHUQ'
LULNNNNHUQ
root@arm:~# MARKER='JEHE''WUFBCX' run 'echo 870000 870000 > /sys/kernel/mva_test//regulators/buck3_set'
JEHEWUFBCXJEHEWUFBCX 0
root@arm:~# echo 'KVGM''CPGKLX'
KVGMCPGKLX
root@arm:~# MARKER='MTSB''GMOGVX' run 'i2cget -y -f 2 0x4b 0x12'
MTSBGMOGVX0x11
MTSBGMOGVX 0
root@arm:~# echo 'YMVO''QNBHHJ'
YMVOQNBHHJ
root@arm:~# MARKER='CFMT''EWNGBY' run 'echo 880000 880000 > /sys/kernel/mva_test//regulators/buck3_set'
CFMTEWNGBYCFMTEWNGBY 0
root@arm:~# echo 'CNTU''FZYLKK'
CNTUFZYLKK
root@arm:~# MARKER='WUPA''QUKLSP' run 'i2cget -y -f 2 0x4b 0x12'
WUPAQUKLSP0x12
WUPAQUKLSP 0
root@arm:~# echo 'CLFS''YYFOJQ'
CLFSYYFOJQ
root@arm:~# MARKER='TLSZ''LOZKVS' run 'echo 890000 890000 > /sys/kernel/mva_test//regulators/buck3_set'
TLSZLOZKVSTLSZLOZKVS 0
root@arm:~# echo 'KJAQ''LKYJOT'
KJAQLKYJOT
root@arm:~# MARKER='HPFC''OBKFXP' run 'i2cget -y -f 2 0x4b 0x12'
HPFCOBKFXP0x13
HPFCOBKFXP 0
root@arm:~# echo 'MNGC''BZQANH'
MNGCBZQANH
root@arm:~# MARKER='ZTXB''GOLXQE' run 'echo 900000 900000 > /sys/kernel/mva_test//regulators/buck3_set'
ZTXBGOLXQEZTXBGOLXQE 0
root@arm:~# echo 'CWHZ''SOKCHN'
CWHZSOKCHN
root@arm:~# MARKER='BXMW''VHFHBY' run 'i2cget -y -f 2 0x4b 0x12'
BXMWVHFHBY0x14
BXMWVHFHBY 0
root@arm:~# echo 'GJPH''VHGNEL'
GJPHVHGNEL
root@arm:~# MARKER='WLMG''GBECTZ' run 'echo 910000 910000 > /sys/kernel/mva_test//regulators/buck3_set'
WLMGGBECTZWLMGGBECTZ 0
root@arm:~# echo 'XEUG''UOMYUH'
XEUGUOMYUH
root@arm:~# MARKER='SZPX''BHOKJZ' run 'i2cget -y -f 2 0x4b 0x12'
SZPXBHOKJZ0x15
SZPXBHOKJZ 0
root@arm:~# echo 'QBSE''QMJMKQ'
QBSEQMJMKQ
root@arm:~# MARKER='HGJZ''JAPXPW' run 'echo 920000 920000 > /sys/kernel/mva_test//regulators/buck3_set'
HGJZJAPXPWHGJZJAPXPW 0
root@arm:~# echo 'TPQE''KSFMFV'
TPQEKSFMFV
root@arm:~# MARKER='JKSG''VGOZUQ' run 'i2cget -y -f 2 0x4b 0x12'
JKSGVGOZUQ0x16
JKSGVGOZUQ 0
root@arm:~# echo 'NXBM''VQAFWN'
NXBMVQAFWN
root@arm:~# MARKER='QEFC''KVQFGJ' run 'echo 930000 930000 > /sys/kernel/mva_test//regulators/buck3_set'
QEFCKVQFGJQEFCKVQFGJ 0
root@arm:~# echo 'UEKS''HPBBOS'
UEKSHPBBOS
root@arm:~# MARKER='QKFV''GYXBVX' run 'i2cget -y -f 2 0x4b 0x12'
QKFVGYXBVX0x17
QKFVGYXBVX 0
root@arm:~# echo 'LAAC''HQFKBQ'
LAACHQFKBQ
root@arm:~# MARKER='OVOW''VZVSVM' run 'echo 940000 940000 > /sys/kernel/mva_test//regulators/buck3_set'
OVOWVZVSVMOVOWVZVSVM 0
root@arm:~# echo 'SQOA''OLGYWU'
SQOAOLGYWU
root@arm:~# MARKER='EOOA''OUYXFT' run 'i2cget -y -f 2 0x4b 0x12'
EOOAOUYXFT0x18
EOOAOUYXFT 0
root@arm:~# echo 'VVMF''CSMFUL'
VVMFCSMFUL
root@arm:~# MARKER='NFLL''KEBJGO' run 'echo 950000 950000 > /sys/kernel/mva_test//regulators/buck3_set'
NFLLKEBJGONFLLKEBJGO 0
root@arm:~# echo 'KAPG''VFBLYS'
KAPGVFBLYS
root@arm:~# MARKER='GPCE''KGVGAT' run 'i2cget -y -f 2 0x4b 0x12'
GPCEKGVGAT0x19
GPCEKGVGAT 0
root@arm:~# echo 'NTTT''ATLTXQ'
NTTTATLTXQ
root@arm:~# MARKER='UZJK''EJEZYW' run 'echo 960000 960000 > /sys/kernel/mva_test//regulators/buck3_set'
UZJKEJEZYWUZJKEJEZYW 0
root@arm:~# echo 'YOXY''GWEPVJ'
YOXYGWEPVJ
root@arm:~# MARKER='VSGZ''PCYJKN' run 'i2cget -y -f 2 0x4b 0x12'
VSGZPCYJKN0x1a
VSGZPCYJKN 0
root@arm:~# echo 'XUSY''FQMNVA'
XUSYFQMNVA
root@arm:~# MARKER='LZHO''OLPHMP' run 'echo 970000 970000 > /sys/kernel/mva_test//regulators/buck3_set'
LZHOOLPHMPLZHOOLPHMP 0
root@arm:~# echo 'WHUE''WFGLWO'
WHUEWFGLWO
root@arm:~# MARKER='KWPF''KETAWG' run 'i2cget -y -f 2 0x4b 0x12'
KWPFKETAWG0x1b
KWPFKETAWG 0
root@arm:~# echo 'SSVB''JCAQEO'
SSVBJCAQEO
root@arm:~# MARKER='OLVW''SGAZWN' run 'echo 980000 980000 > /sys/kernel/mva_test//regulators/buck3_set'
OLVWSGAZWNOLVWSGAZWN 0
root@arm:~# echo 'HXKW''WESOKQ'
HXKWWESOKQ
root@arm:~# MARKER='ZUGX''FYHEON' run 'i2cget -y -f 2 0x4b 0x12'
ZUGXFYHEON0x1c
ZUGXFYHEON 0
root@arm:~# echo 'GPOL''QVSBOU'
GPOLQVSBOU
root@arm:~# MARKER='PYVW''EEBJXP' run 'echo 990000 990000 > /sys/kernel/mva_test//regulators/buck3_set'
PYVWEEBJXPPYVWEEBJXP 0
root@arm:~# echo 'QXLU''EEVTXW'
QXLUEEVTXW
root@arm:~# MARKER='VJCX''YMEASA' run 'i2cget -y -f 2 0x4b 0x12'
VJCXYMEASA0x1d
VJCXYMEASA 0
root@arm:~# echo 'PNKV''EZWSMY'
PNKVEZWSMY
root@arm:~# MARKER='VYYZ''UUGEML' run 'echo 1000000 1000000 > /sys/kernel/mva_tesst/regulators/buck3_set'
VYYZUUGEMLVYYZUUGEML 0
root@arm:~# echo 'SELW''OBEKAX'
SELWOBEKAX
root@arm:~# MARKER='LFNN''EYKAKG' run 'i2cget -y -f 2 0x4b 0x12'
LFNNEYKAKG0x1e
LFNNEYKAKG 0
root@arm:~# echo 'VMHQ''NBYFTT'
VMHQNBYFTT
root@arm:~# MARKER='VJLV''BBTMGS' run 'echo 1010000 1010000 > /sys/kernel/mva_tesst/regulators/buck3_set'
VJLVBBTMGSVJLVBBTMGS 0
root@arm:~# echo 'YLWY''YGFJES'
YLWYYGFJES
root@arm:~# MARKER='GCNW''VOKZSW' run 'i2cget -y -f 2 0x4b 0x12'
GCNWVOKZSW0x1f
GCNWVOKZSW 0
root@arm:~# echo 'OHTQ''HSQSHN'
OHTQHSQSHN
root@arm:~# MARKER='XWCS''STQJEP' run 'echo 1020000 1020000 > /sys/kernel/mva_tesst/regulators/buck3_set'
XWCSSTQJEPXWCSSTQJEP 0
root@arm:~# echo 'TGCY''KFEYYX'
TGCYKFEYYX
root@arm:~# MARKER='TGBX''WAJWFW' run 'i2cget -y -f 2 0x4b 0x12'
TGBXWAJWFW0x20
TGBXWAJWFW 0
root@arm:~# echo 'HNQU''JENPNJ'
HNQUJENPNJ
root@arm:~# MARKER='ZXVZ''HSSFJA' run 'echo 1030000 1030000 > /sys/kernel/mva_tesst/regulators/buck3_set'
ZXVZHSSFJAZXVZHSSFJA 0
root@arm:~# echo 'PMAK''ONQHXO'
PMAKONQHXO
root@arm:~# MARKER='PLXQ''MMMPHO' run 'i2cget -y -f 2 0x4b 0x12'
PLXQMMMPHO0x21
PLXQMMMPHO 0
root@arm:~# echo 'YCPF''OAJLLT'
YCPFOAJLLT
root@arm:~# MARKER='XYGY''YECTTA' run 'echo 1040000 1040000 > /sys/kernel/mva_tesst/regulators/buck3_set'
XYGYYECTTAXYGYYECTTA 0
root@arm:~# echo 'HSKC''MHWZUN'
HSKCMHWZUN
root@arm:~# MARKER='BHJF''NENYBO' run 'i2cget -y -f 2 0x4b 0x12'
BHJFNENYBO0x22
BHJFNENYBO 0
root@arm:~# echo 'NJBT''PACPHF'
NJBTPACPHF
root@arm:~# MARKER='PESL''ZZHNXC' run 'echo 1050000 1050000 > /sys/kernel/mva_tesst/regulators/buck3_set'
PESLZZHNXCPESLZZHNXC 0
root@arm:~# echo 'LJQK''OYKGHK'
LJQKOYKGHK
root@arm:~# MARKER='MZEU''YMOTCG' run 'i2cget -y -f 2 0x4b 0x12'
MZEUYMOTCG0x23
MZEUYMOTCG 0
root@arm:~# echo 'VXUE''AQCNFA'
VXUEAQCNFA
root@arm:~# MARKER='ZTNV''OEGBHK' run 'echo 1060000 1060000 > /sys/kernel/mva_tesst/regulators/buck3_set'
ZTNVOEGBHKZTNVOEGBHK 0
root@arm:~# echo 'EAUP''GYCSON'
EAUPGYCSON
root@arm:~# MARKER='VHPU''VUAQWP' run 'i2cget -y -f 2 0x4b 0x12'
VHPUVUAQWP0x24
VHPUVUAQWP 0
root@arm:~# echo 'ONEG''CCHZXL'
ONEGCCHZXL
root@arm:~# MARKER='MPTG''YHBEJL' run 'echo 1070000 1070000 > /sys/kernel/mva_tesst/regulators/buck3_set'
MPTGYHBEJLMPTGYHBEJL 0
root@arm:~# echo 'PFLP''SKJTNZ'
PFLPSKJTNZ
root@arm:~# MARKER='ZOXE''XOOWVU' run 'i2cget -y -f 2 0x4b 0x12'
ZOXEXOOWVU0x25
ZOXEXOOWVU 0
root@arm:~# echo 'BZEV''PUHYYE'
BZEVPUHYYE
root@arm:~# MARKER='PCVM''LHUSNE' run 'echo 1080000 1080000 > /sys/kernel/mva_tesst/regulators/buck3_set'
PCVMLHUSNEPCVMLHUSNE 0
root@arm:~# echo 'KUJO''NJEJEP'
KUJONJEJEP
root@arm:~# MARKER='QWOB''WQJZZU' run 'i2cget -y -f 2 0x4b 0x12'
QWOBWQJZZU0x26
QWOBWQJZZU 0
root@arm:~# echo 'QWTY''NECAZK'
QWTYNECAZK
root@arm:~# MARKER='SVZU''JYTMCL' run 'echo 1090000 1090000 > /sys/kernel/mva_tesst/regulators/buck3_set'
SVZUJYTMCLSVZUJYTMCL 0
root@arm:~# echo 'UTJK''NGSXLP'
UTJKNGSXLP
root@arm:~# MARKER='AEUE''HFOTLW' run 'i2cget -y -f 2 0x4b 0x12'
AEUEHFOTLW0x27
AEUEHFOTLW 0
root@arm:~# echo 'XQBP''JJUHAL'
XQBPJJUHAL
root@arm:~# MARKER='UOWK''KKJAWX' run 'echo 1100000 1100000 > /sys/kernel/mva_tesst/regulators/buck3_set'
UOWKKKJAWXUOWKKKJAWX 0
root@arm:~# echo 'VZLL''VWMAMQ'
VZLLVWMAMQ
root@arm:~# MARKER='UKNM''VSWFGK' run 'i2cget -y -f 2 0x4b 0x12'
UKNMVSWFGK0x28
UKNMVSWFGK 0
root@arm:~# echo 'VQUU''JZKJAE'
VQUUJZKJAE
root@arm:~# MARKER='KSUW''HMGTCC' run 'echo 1110000 1110000 > /sys/kernel/mva_tesst/regulators/buck3_set'
KSUWHMGTCCKSUWHMGTCC 0
root@arm:~# echo 'NULZ''LMBXJP'
NULZLMBXJP
root@arm:~# MARKER='ZQOL''FZPLGW' run 'i2cget -y -f 2 0x4b 0x12'
ZQOLFZPLGW0x29
ZQOLFZPLGW 0
root@arm:~# echo 'CCUT''STVVVZ'
CCUTSTVVVZ
root@arm:~# MARKER='LGTE''ZHPULK' run 'echo 1120000 1120000 > /sys/kernel/mva_tesst/regulators/buck3_set'
LGTEZHPULKLGTEZHPULK 0
root@arm:~# echo 'XPEU''NEYHGC'
XPEUNEYHGC
root@arm:~# MARKER='MGXT''XHKTQY' run 'i2cget -y -f 2 0x4b 0x12'
MGXTXHKTQY0x2a
MGXTXHKTQY 0
root@arm:~# echo 'YKUK''NCUABE'
YKUKNCUABE
root@arm:~# MARKER='ATGQ''WAKXXF' run 'echo 1130000 1130000 > /sys/kernel/mva_tesst/regulators/buck3_set'
ATGQWAKXXFATGQWAKXXF 0
root@arm:~# echo 'GZHT''JAWAJC'
GZHTJAWAJC
root@arm:~# MARKER='HSPU''CQFCMM' run 'i2cget -y -f 2 0x4b 0x12'
HSPUCQFCMM0x2b
HSPUCQFCMM 0
root@arm:~# echo 'WSAK''QWYQHA'
WSAKQWYQHA
root@arm:~# MARKER='XGEN''TKHUBB' run 'echo 1140000 1140000 > /sys/kernel/mva_tesst/regulators/buck3_set'
XGENTKHUBBXGENTKHUBB 0
root@arm:~# echo 'NLJP''NQFYEE'
NLJPNQFYEE
root@arm:~# MARKER='KYYY''PYBOBE' run 'i2cget -y -f 2 0x4b 0x12'
KYYYPYBOBE0x2c
KYYYPYBOBE 0
root@arm:~# echo 'BQQS''PLKFPM'
BQQSPLKFPM
root@arm:~# MARKER='LFWA''VLBFSY' run 'echo 1150000 1150000 > /sys/kernel/mva_tesst/regulators/buck3_set'
LFWAVLBFSYLFWAVLBFSY 0
root@arm:~# echo 'XKJA''FJYTOC'
XKJAFJYTOC
root@arm:~# MARKER='XSZT''AEBUCH' run 'i2cget -y -f 2 0x4b 0x12'
XSZTAEBUCH0x2d
XSZTAEBUCH 0
root@arm:~# echo 'OSCU''BXMTXM'
OSCUBXMTXM
root@arm:~# MARKER='GCCZ''PPLBNB' run 'echo 1160000 1160000 > /sys/kernel/mva_tesst/regulators/buck3_set'
GCCZPPLBNBGCCZPPLBNB 0
root@arm:~# echo 'KEQG''VYGCKZ'
KEQGVYGCKZ
root@arm:~# MARKER='TOPW''CGQSBT' run 'i2cget -y -f 2 0x4b 0x12'
TOPWCGQSBT0x2e
TOPWCGQSBT 0
root@arm:~# echo 'UAFV''OMPAOZ'
UAFVOMPAOZ
root@arm:~# MARKER='SMWO''BYJONW' run 'echo 1170000 1170000 > /sys/kernel/mva_tesst/regulators/buck3_set'
SMWOBYJONWSMWOBYJONW 0
root@arm:~# echo 'AFCM''AJELVN'
AFCMAJELVN
root@arm:~# MARKER='ZPBA''GSYFHO' run 'i2cget -y -f 2 0x4b 0x12'
ZPBAGSYFHO0x2f
ZPBAGSYFHO 0
root@arm:~# echo 'OXGN''HGCVVV'
OXGNHGCVVV
root@arm:~# MARKER='ELVN''HWKMGA' run 'echo 1180000 1180000 > /sys/kernel/mva_tesst/regulators/buck3_set'
ELVNHWKMGAELVNHWKMGA 0
root@arm:~# echo 'PJWV''BLFBSL'
PJWVBLFBSL
root@arm:~# MARKER='WKSV''ALWBBU' run 'i2cget -y -f 2 0x4b 0x12'
WKSVALWBBU0x30
WKSVALWBBU 0
root@arm:~# echo 'SNFV''ASJTUF'
SNFVASJTUF
root@arm:~# MARKER='LBAB''SZLBEX' run 'echo 1190000 1190000 > /sys/kernel/mva_tesst/regulators/buck3_set'
LBABSZLBEXLBABSZLBEX 0
root@arm:~# echo 'NNKV''GVZCAZ'
NNKVGVZCAZ
root@arm:~# MARKER='VSMF''FZMEJV' run 'i2cget -y -f 2 0x4b 0x12'
VSMFFZMEJV0x31
VSMFFZMEJV 0
root@arm:~# echo 'UQSK''QGUQYU'
UQSKQGUQYU
root@arm:~# MARKER='EBWP''TWSVGV' run 'echo 1200000 1200000 > /sys/kernel/mva_tesst/regulators/buck3_set'
EBWPTWSVGVEBWPTWSVGV 0
root@arm:~# echo 'HVAY''WKWJCZ'
HVAYWKWJCZ
root@arm:~# MARKER='BFMY''FTCESM' run 'i2cget -y -f 2 0x4b 0x12'
BFMYFTCESM0x32
BFMYFTCESM 0
root@arm:~# echo 'XAPU''LAZVKF'
XAPULAZVKF
root@arm:~# MARKER='MWMB''ATXQBQ' run 'echo 1210000 1210000 > /sys/kernel/mva_tesst/regulators/buck3_set'
MWMBATXQBQMWMBATXQBQ 0
root@arm:~# echo 'MJGU''YJWEHX'
MJGUYJWEHX
root@arm:~# MARKER='TSGS''LJYUYH' run 'i2cget -y -f 2 0x4b 0x12'
TSGSLJYUYH0x33
TSGSLJYUYH 0
root@arm:~# echo 'XKPM''UOHGLG'
XKPMUOHGLG
root@arm:~# MARKER='WLWV''JGSXYE' run 'echo 1220000 1220000 > /sys/kernel/mva_tesst/regulators/buck3_set'
WLWVJGSXYEWLWVJGSXYE 0
root@arm:~# echo 'AUVL''KUHPGE'
AUVLKUHPGE
root@arm:~# MARKER='CJFB''JVETGO' run 'i2cget -y -f 2 0x4b 0x12'
CJFBJVETGO0x34
CJFBJVETGO 0
root@arm:~# echo 'XBLO''FUCXGM'
XBLOFUCXGM
root@arm:~# MARKER='QUVZ''TCZKWK' run 'echo 1230000 1230000 > /sys/kernel/mva_tesst/regulators/buck3_set'
QUVZTCZKWKQUVZTCZKWK 0
root@arm:~# echo 'WMEH''CXAMZZ'
WMEHCXAMZZ
root@arm:~# MARKER='ZTZN''SVVAGU' run 'i2cget -y -f 2 0x4b 0x12'
ZTZNSVVAGU0x35
ZTZNSVVAGU 0
root@arm:~# echo 'HYHJ''MOCUMY'
HYHJMOCUMY
root@arm:~# MARKER='GSAX''YLFZMF' run 'echo 1240000 1240000 > /sys/kernel/mva_tesst/regulators/buck3_set'
GSAXYLFZMFGSAXYLFZMF 0
root@arm:~# echo 'XNLJ''QAAYWJ'
XNLJQAAYWJ
root@arm:~# MARKER='LXSZ''LHMSXN' run 'i2cget -y -f 2 0x4b 0x12'
LXSZLHMSXN0x36
LXSZLHMSXN 0
root@arm:~# echo 'MMVV''PYMGYW'
MMVVPYMGYW
root@arm:~# MARKER='WTBS''ZLHNTU' run 'echo 1250000 1250000 > /sys/kernel/mva_tesst/regulators/buck3_set'
WTBSZLHNTUWTBSZLHNTU 0
root@arm:~# echo 'QBYV''SNPAEP'
QBYVSNPAEP
root@arm:~# MARKER='WFFN''FFMLQN' run 'i2cget -y -f 2 0x4b 0x12'
WFFNFFMLQN0x37
WFFNFFMLQN 0
root@arm:~# echo 'EBBZ''TBZKNU'
EBBZTBZKNU
root@arm:~# MARKER='PGKK''SGHHHQ' run 'echo 1260000 1260000 > /sys/kernel/mva_tesst/regulators/buck3_set'
PGKKSGHHHQPGKKSGHHHQ 0
root@arm:~# echo 'APET''WQMFSJ'
APETWQMFSJ
root@arm:~# MARKER='MCAO''ANYFAM' run 'i2cget -y -f 2 0x4b 0x12'
MCAOANYFAM0x38
MCAOANYFAM 0
root@arm:~# echo 'UCUM''VOWVHG'
UCUMVOWVHG
root@arm:~# MARKER='BOXE''ECWAXP' run 'echo 1270000 1270000 > /sys/kernel/mva_tesst/regulators/buck3_set'
BOXEECWAXPBOXEECWAXP 0
root@arm:~# echo 'XLFK''NGWSNP'
XLFKNGWSNP
root@arm:~# MARKER='MGVS''BZGWZB' run 'i2cget -y -f 2 0x4b 0x12'
MGVSBZGWZB0x39
MGVSBZGWZB 0
root@arm:~# echo 'LNTK''GPKEUW'
LNTKGPKEUW
root@arm:~# MARKER='MPJM''XPPAEE' run 'echo 1280000 1280000 > /sys/kernel/mva_tesst/regulators/buck3_set'
MPJMXPPAEEMPJMXPPAEE 0
root@arm:~# echo 'YXFC''PLKHFE'
YXFCPLKHFE
root@arm:~# MARKER='MYAT''VPXGFM' run 'i2cget -y -f 2 0x4b 0x12'
MYATVPXGFM0x3a
MYATVPXGFM 0
root@arm:~# echo 'YCMP''GCTMLQ'
YCMPGCTMLQ
root@arm:~# MARKER='GHNY''NBMTXG' run 'echo 1290000 1290000 > /sys/kernel/mva_tesst/regulators/buck3_set'
GHNYNBMTXGGHNYNBMTXG 0
root@arm:~# echo 'KMGF''ATFPMZ'
KMGFATFPMZ
root@arm:~# MARKER='NZPV''SLTUUM' run 'i2cget -y -f 2 0x4b 0x12'
NZPVSLTUUM0x3b
NZPVSLTUUM 0
root@arm:~# echo 'EJGG''PSSHTH'
EJGGPSSHTH
root@arm:~# MARKER='PPQC''TVKSOK' run 'echo 1300000 1300000 > /sys/kernel/mva_tesst/regulators/buck3_set'
PPQCTVKSOKPPQCTVKSOK 0
root@arm:~# echo 'WALO''MSGBEW'
WALOMSGBEW
root@arm:~# MARKER='XGLQ''LLCTWC' run 'i2cget -y -f 2 0x4b 0x12'
XGLQLLCTWC0x3c
XGLQLLCTWC 0
root@arm:~# echo 'JAXU''BUCAKZ'
JAXUBUCAKZ
root@arm:~# MARKER='XHTP''CVYNFX' run 'grep -r -l rohm,bd71837 /proc/device-tree  | sed '"'"'s![^/]*$!!'"'"''
XHTPCVYNFX/proc/device-tree/ocp/interconnect@48000000/segment@100000/target-module@9c000/i2c@0/pmic@4b/
XHTPCVYNFX 0
root@arm:~# echo 'HWGT''PFPNLH'
HWGTPFPNLH
root@arm:~# MARKER='OTKS''YTQKGZ' run 'test -f /proc/device-tree/ocp/interconnectt\@48000000/segment\@100000/target-module\@9c000/i2c\@0/pmic\@4b/regulators/BUCK44/rohm,no-regulator-enable-control ;echo $?'
OTKSYTQKGZ1
OTKSYTQKGZ 0
root@arm:~# echo 'UCOX''MJGEFB'
UCOXMJGEFB
root@arm:~# MARKER='ZPFH''UQATNG' run 'i2cget -y -f 2 0x4b 0x8'
ZPFHUQATNG0xc6
ZPFHUQATNG 0
root@arm:~# echo 'UHTK''NSXMMY'
UHTKNSXMMY
root@arm:~# MARKER='QNSJ''ZGKJBE' run 'echo 700000 700000 > /sys/kernel/mva_test//regulators/buck4_set'
QNSJZGKJBEQNSJZGKJBE 0
root@arm:~# echo 'XBGM''AUVCVB'
XBGMAUVCVB
root@arm:~# MARKER='TGUT''HGQMWL' run 'i2cget -y -f 2 0x4b 0x13'
TGUTHGQMWL0x00
TGUTHGQMWL 0
root@arm:~# echo 'CHNU''SWXLSM'
CHNUSWXLSM
root@arm:~# MARKER='AFHF''ZVZGZY' run 'echo 710000 710000 > /sys/kernel/mva_test//regulators/buck4_set'
AFHFZVZGZYAFHFZVZGZY 0
root@arm:~# echo 'SSPK''QKXPHL'
SSPKQKXPHL
root@arm:~# MARKER='OOHS''PQZEJE' run 'i2cget -y -f 2 0x4b 0x13'
OOHSPQZEJE0x01
OOHSPQZEJE 0
root@arm:~# echo 'XJTQ''SBUFAO'
XJTQSBUFAO
root@arm:~# MARKER='VBHC''UEYUOJ' run 'echo 720000 720000 > /sys/kernel/mva_test//regulators/buck4_set'
VBHCUEYUOJVBHCUEYUOJ 0
root@arm:~# echo 'JYBZ''HPLUSO'
JYBZHPLUSO
root@arm:~# MARKER='TELU''XKSGZK' run 'i2cget -y -f 2 0x4b 0x13'
TELUXKSGZK0x02
TELUXKSGZK 0
root@arm:~# echo 'OZEB''HNNBQP'
OZEBHNNBQP
root@arm:~# MARKER='YPPP''HSJCSV' run 'echo 730000 730000 > /sys/kernel/mva_test//regulators/buck4_set'
YPPPHSJCSVYPPPHSJCSV 0
root@arm:~# echo 'HWQQ''MZPNXS'
HWQQMZPNXS
root@arm:~# MARKER='UNNW''HOVCOV' run 'i2cget -y -f 2 0x4b 0x13'
UNNWHOVCOV0x03
UNNWHOVCOV 0
root@arm:~# echo 'JMYX''QYPPXJ'
JMYXQYPPXJ
root@arm:~# MARKER='FKPT''UBMZFK' run 'echo 740000 740000 > /sys/kernel/mva_test//regulators/buck4_set'
FKPTUBMZFKFKPTUBMZFK 0
root@arm:~# echo 'YSQZ''CJCJEX'
YSQZCJCJEX
root@arm:~# MARKER='KLGH''OTHEAW' run 'i2cget -y -f 2 0x4b 0x13'
KLGHOTHEAW0x04
KLGHOTHEAW 0
root@arm:~# echo 'QZQU''KGWQZH'
QZQUKGWQZH
root@arm:~# MARKER='XTVH''NANUOJ' run 'echo 750000 750000 > /sys/kernel/mva_test//regulators/buck4_set'
XTVHNANUOJXTVHNANUOJ 0
root@arm:~# echo 'HKJN''PNXTLL'
HKJNPNXTLL
root@arm:~# MARKER='HQCX''BGSHZH' run 'i2cget -y -f 2 0x4b 0x13'
HQCXBGSHZH0x05
HQCXBGSHZH 0
root@arm:~# echo 'SKNS''QJSEAB'
SKNSQJSEAB
root@arm:~# MARKER='YVJC''MHXKPN' run 'echo 760000 760000 > /sys/kernel/mva_test//regulators/buck4_set'
YVJCMHXKPNYVJCMHXKPN 0
root@arm:~# echo 'CAZA''LLNOFP'
CAZALLNOFP
root@arm:~# MARKER='OGVU''GYNACU' run 'i2cget -y -f 2 0x4b 0x13'
OGVUGYNACU0x06
OGVUGYNACU 0
root@arm:~# echo 'AQCN''TBLGFX'
AQCNTBLGFX
root@arm:~# MARKER='KPPG''UVXEHW' run 'echo 770000 770000 > /sys/kernel/mva_test//regulators/buck4_set'
KPPGUVXEHWKPPGUVXEHW 0
root@arm:~# echo 'QHXO''KHFLNC'
QHXOKHFLNC
root@arm:~# MARKER='YZGP''JXQPYQ' run 'i2cget -y -f 2 0x4b 0x13'
YZGPJXQPYQ0x07
YZGPJXQPYQ 0
root@arm:~# echo 'QNOH''SUVAUA'
QNOHSUVAUA
root@arm:~# MARKER='ZZYC''MZPMZW' run 'echo 780000 780000 > /sys/kernel/mva_test//regulators/buck4_set'
ZZYCMZPMZWZZYCMZPMZW 0
root@arm:~# echo 'KBUN''ABWASL'
KBUNABWASL
root@arm:~# MARKER='ELTF''AQKVSB' run 'i2cget -y -f 2 0x4b 0x13'
ELTFAQKVSB0x08
ELTFAQKVSB 0
root@arm:~# echo 'EUMZ''GQXVEO'
EUMZGQXVEO
root@arm:~# MARKER='OGCT''UQUZNB' run 'echo 790000 790000 > /sys/kernel/mva_test//regulators/buck4_set'
OGCTUQUZNBOGCTUQUZNB 0
root@arm:~# echo 'VLXA''FZLLMM'
VLXAFZLLMM
root@arm:~# MARKER='XOZU''THCVPF' run 'i2cget -y -f 2 0x4b 0x13'
XOZUTHCVPF0x09
XOZUTHCVPF 0
root@arm:~# echo 'AFCN''YCWYXY'
AFCNYCWYXY
root@arm:~# MARKER='NLUA''XHLMHJ' run 'echo 800000 800000 > /sys/kernel/mva_test//regulators/buck4_set'
NLUAXHLMHJNLUAXHLMHJ 0
root@arm:~# echo 'PWYN''FVUOQC'
PWYNFVUOQC
root@arm:~# MARKER='GKKV''NCUYWS' run 'i2cget -y -f 2 0x4b 0x13'
GKKVNCUYWS0x0a
GKKVNCUYWS 0
root@arm:~# echo 'ZSNB''QLNEJY'
ZSNBQLNEJY
root@arm:~# MARKER='JFLJ''YZPEES' run 'echo 810000 810000 > /sys/kernel/mva_test//regulators/buck4_set'
JFLJYZPEESJFLJYZPEES 0
root@arm:~# echo 'EYWS''YPSBZV'
EYWSYPSBZV
root@arm:~# MARKER='JVVL''TCUQCE' run 'i2cget -y -f 2 0x4b 0x13'
JVVLTCUQCE0x0b
JVVLTCUQCE 0
root@arm:~# echo 'FHYT''ZSJCWY'
FHYTZSJCWY
root@arm:~# MARKER='VMJT''TYXBGH' run 'echo 820000 820000 > /sys/kernel/mva_test//regulators/buck4_set'
VMJTTYXBGHVMJTTYXBGH 0
root@arm:~# echo 'APWY''EFJQCT'
APWYEFJQCT
root@arm:~# MARKER='CVJH''MQUQLN' run 'i2cget -y -f 2 0x4b 0x13'
CVJHMQUQLN0x0c
CVJHMQUQLN 0
root@arm:~# echo 'AULJ''GYVYZQ'
AULJGYVYZQ
root@arm:~# MARKER='UYPX''BSBEFW' run 'echo 830000 830000 > /sys/kernel/mva_test//regulators/buck4_set'
UYPXBSBEFWUYPXBSBEFW 0
root@arm:~# echo 'EZEZ''GPKSPF'
EZEZGPKSPF
root@arm:~# MARKER='VFCA''OYLMXO' run 'i2cget -y -f 2 0x4b 0x13'
VFCAOYLMXO0x0d
VFCAOYLMXO 0
root@arm:~# echo 'VTQZ''LUUPNH'
VTQZLUUPNH
root@arm:~# MARKER='XKOS''GABCYL' run 'echo 840000 840000 > /sys/kernel/mva_test//regulators/buck4_set'
XKOSGABCYLXKOSGABCYL 0
root@arm:~# echo 'LFOE''SZTKQE'
LFOESZTKQE
root@arm:~# MARKER='YHVE''MSUNVC' run 'i2cget -y -f 2 0x4b 0x13'
YHVEMSUNVC0x0e
YHVEMSUNVC 0
root@arm:~# echo 'HMVY''CFLOGX'
HMVYCFLOGX
root@arm:~# MARKER='ZNPJ''KOOBLV' run 'echo 850000 850000 > /sys/kernel/mva_test//regulators/buck4_set'
ZNPJKOOBLVZNPJKOOBLV 0
root@arm:~# echo 'QQOJ''PSZONW'
QQOJPSZONW
root@arm:~# MARKER='TKSS''HLBGKE' run 'i2cget -y -f 2 0x4b 0x13'
TKSSHLBGKE0x0f
TKSSHLBGKE 0
root@arm:~# echo 'NCMP''BBFMOO'
NCMPBBFMOO
root@arm:~# MARKER='SXVE''EVJXJT' run 'echo 860000 860000 > /sys/kernel/mva_test//regulators/buck4_set'
SXVEEVJXJTSXVEEVJXJT 0
root@arm:~# echo 'BZPB''MKEAJY'
BZPBMKEAJY
root@arm:~# MARKER='UGVP''OBHJWY' run 'i2cget -y -f 2 0x4b 0x13'
UGVPOBHJWY0x10
UGVPOBHJWY 0
root@arm:~# echo 'QBBZ''ASPLNO'
QBBZASPLNO
root@arm:~# MARKER='MUTG''CVZHMW' run 'echo 870000 870000 > /sys/kernel/mva_test//regulators/buck4_set'
MUTGCVZHMWMUTGCVZHMW 0
root@arm:~# echo 'XACL''LBXAQH'
XACLLBXAQH
root@arm:~# MARKER='HTSU''EAEVXN' run 'i2cget -y -f 2 0x4b 0x13'
HTSUEAEVXN0x11
HTSUEAEVXN 0
root@arm:~# echo 'QPUB''FULCNN'
QPUBFULCNN
root@arm:~# MARKER='XOOM''SQQJOQ' run 'echo 880000 880000 > /sys/kernel/mva_test//regulators/buck4_set'
XOOMSQQJOQXOOMSQQJOQ 0
root@arm:~# echo 'ZTPS''HXOELM'
ZTPSHXOELM
root@arm:~# MARKER='XFQQ''MAGBNH' run 'i2cget -y -f 2 0x4b 0x13'
XFQQMAGBNH0x12
XFQQMAGBNH 0
root@arm:~# echo 'UAXW''ZXNBMO'
UAXWZXNBMO
root@arm:~# MARKER='XYFH''CVCLFH' run 'echo 890000 890000 > /sys/kernel/mva_test//regulators/buck4_set'
XYFHCVCLFHXYFHCVCLFH 0
root@arm:~# echo 'MNQN''PGEVJQ'
MNQNPGEVJQ
root@arm:~# MARKER='ZUYT''UGAVEY' run 'i2cget -y -f 2 0x4b 0x13'
ZUYTUGAVEY0x13
ZUYTUGAVEY 0
root@arm:~# echo 'UUAZ''TMWPQK'
UUAZTMWPQK
root@arm:~# MARKER='QOJP''NPSHQK' run 'echo 900000 900000 > /sys/kernel/mva_test//regulators/buck4_set'
QOJPNPSHQKQOJPNPSHQK 0
root@arm:~# echo 'GBGG''WKHEMV'
GBGGWKHEMV
root@arm:~# MARKER='WBPY''AWNJLW' run 'i2cget -y -f 2 0x4b 0x13'
WBPYAWNJLW0x14
WBPYAWNJLW 0
root@arm:~# echo 'JCCA''BTWMOT'
JCCABTWMOT
root@arm:~# MARKER='EZPK''CVSUAT' run 'echo 910000 910000 > /sys/kernel/mva_test//regulators/buck4_set'
EZPKCVSUATEZPKCVSUAT 0
root@arm:~# echo 'YXZB''WPZCOK'
YXZBWPZCOK
root@arm:~# MARKER='EWSE''VOLSLO' run 'i2cget -y -f 2 0x4b 0x13'
EWSEVOLSLO0x15
EWSEVOLSLO 0
root@arm:~# echo 'VQZM''XAYABQ'
VQZMXAYABQ
root@arm:~# MARKER='KNLT''LKMWJZ' run 'echo 920000 920000 > /sys/kernel/mva_test//regulators/buck4_set'
KNLTLKMWJZKNLTLKMWJZ 0
root@arm:~# echo 'GUCJ''HFAVCE'
GUCJHFAVCE
root@arm:~# MARKER='YAKX''BCBNTB' run 'i2cget -y -f 2 0x4b 0x13'
YAKXBCBNTB0x16
YAKXBCBNTB 0
root@arm:~# echo 'JEEZ''TAPXSA'
JEEZTAPXSA
root@arm:~# MARKER='JAYF''KFXHUC' run 'echo 930000 930000 > /sys/kernel/mva_test//regulators/buck4_set'
JAYFKFXHUCJAYFKFXHUC 0
root@arm:~# echo 'TKOE''JLWCMK'
TKOEJLWCMK
root@arm:~# MARKER='ZPWQ''EQFNYZ' run 'i2cget -y -f 2 0x4b 0x13'
ZPWQEQFNYZ0x17
ZPWQEQFNYZ 0
root@arm:~# echo 'QQWQ''OUUVLM'
QQWQOUUVLM
