Labgrid Console Logfile for main
Logfile started at 2024-12-19 10:04:35.220681
=== Log starts here ===

root@arm:~# run() { echo -n "$MARKER"; sh -c "$@"; echo "$MARKER $?"; }
root@arm:~# echo 'EHKB''HJCFFH'
EHKBHJCFFH
root@arm:~# MARKER='YFUA''EQAFCL' run 'grep -r -l rohm,bd71837 /proc/device-tree  | sed '"'"'s![^/]*$!!'"'"''
YFUAEQAFCL/proc/device-tree/ocp/interconnect@48000000/segment@100000/target-module@9c000/i2c@0/pmic@4b/
YFUAEQAFCL 0
root@arm:~# echo 'AGTH''TLSWQS'
AGTHTLSWQS
root@arm:~# MARKER='EKFL''LGNYCQ' run 'test -f /proc/device-tree/ocp/interconnectt\@48000000/segment\@100000/target-module\@9c000/i2c\@0/pmic\@4b/regulators/BUCK11/rohm,no-regulator-enable-control ;echo $?'
EKFLLGNYCQ1
EKFLLGNYCQ 0
root@arm:~# echo 'AJAG''SPXWVZ'
AJAGSPXWVZ
root@arm:~# MARKER='XWOY''MMAHEW' run 'echo 1 > /sys/kernel/mva_test/regulators/bbuck1_en'
XWOYMMAHEWXWOYMMAHEW 0
root@arm:~# echo 'BUJV''FQNNQS'
BUJVFQNNQS
root@arm:~# MARKER='TVYF''BJELZW' run 'i2cget -y -f 2 0x4b 0x5'
TVYFBJELZW0x03
TVYFBJELZW 0
root@arm:~# echo 'ZEUA''VESBCC'
ZEUAVESBCC
root@arm:~# MARKER='ECTB''SPLTCT' run 'grep -r -l rohm,bd71837 /proc/device-tree  | sed '"'"'s![^/]*$!!'"'"''
ECTBSPLTCT/proc/device-tree/ocp/interconnect@48000000/segment@100000/target-module@9c000/i2c@0/pmic@4b/
ECTBSPLTCT 0
root@arm:~# echo 'PWKJ''ZHXKXG'
PWKJZHXKXG
root@arm:~# MARKER='MFZO''VOSCPQ' run 'test -f /proc/device-tree/ocp/interconnectt\@48000000/segment\@100000/target-module\@9c000/i2c\@0/pmic\@4b/regulators/BUCK11/rohm,no-regulator-enable-control ;echo $?'
MFZOVOSCPQ1
MFZOVOSCPQ 0
root@arm:~# echo 'WXYM''BBCPFK'
WXYMBBCPFK
root@arm:~# MARKER='BVKT''MSWEFK' run 'grep -r -l rohm,bd71837 /proc/device-tree  | sed '"'"'s![^/]*$!!'"'"''
BVKTMSWEFK/proc/device-tree/ocp/interconnect@48000000/segment@100000/target-module@9c000/i2c@0/pmic@4b/
BVKTMSWEFK 0
root@arm:~# echo 'UOCG''SPJASX'
UOCGSPJASX
root@arm:~# MARKER='BJSH''WCAKEY' run 'test -f /proc/device-tree/ocp/interconnectt\@48000000/segment\@100000/target-module\@9c000/i2c\@0/pmic\@4b/regulators/BUCK11/regulator-always-on ;echo $?'
BJSHWCAKEY1
BJSHWCAKEY 0
root@arm:~# echo 'TFOT''GOKGHO'
TFOTGOKGHO
root@arm:~# MARKER='KVFS''NNFJLW' run 'echo 0 > /sys/kernel/mva_test/regulators/bbuck1_en'
KVFSNNFJLWKVFSNNFJLW 0
root@arm:~# echo 'OQKH''LWZWTY'
OQKHLWZWTY
root@arm:~# MARKER='HNOS''HWVHHJ' run 'i2cget -y -f 2 0x4b 0x5'
HNOSHWVHHJ0x02
HNOSHWVHHJ 0
root@arm:~# echo 'XSMV''VSGPPX'
XSMVVSGPPX
root@arm:~# MARKER='GZVX''WHJMMH' run 'grep -r -l rohm,bd71837 /proc/device-tree  | sed '"'"'s![^/]*$!!'"'"''
GZVXWHJMMH/proc/device-tree/ocp/interconnect@48000000/segment@100000/target-module@9c000/i2c@0/pmic@4b/
GZVXWHJMMH 0
root@arm:~# echo 'XCUF''NXLFKS'
XCUFNXLFKS
root@arm:~# MARKER='QVPM''YYTCHJ' run 'test -f /proc/device-tree/ocp/interconnectt\@48000000/segment\@100000/target-module\@9c000/i2c\@0/pmic\@4b/regulators/BUCK 2/rohm,no-regulator-enable-control ;echo $?'
QVPMYYTCHJ1
QVPMYYTCHJ 0
root@arm:~# echo 'NPAF''UAFZWM'
NPAFUAFZWM
root@arm:~# MARKER='UEVE''XYLKNO' run 'echo 1 > /sys/kernel/mva_test/regulators/bbuck2_en'
UEVEXYLKNOUEVEXYLKNO 0
root@arm:~# echo 'TNNK''YKHELA'
TNNKYKHELA
root@arm:~# MARKER='CLZF''LOBANB' run 'i2cget -y -f 2 0x4b 0x6'
CLZFLOBANB0x43
CLZFLOBANB 0
root@arm:~# echo 'WPFZ''GMMJGK'
WPFZGMMJGK
root@arm:~# MARKER='JFQU''HPFSYY' run 'grep -r -l rohm,bd71837 /proc/device-tree  | sed '"'"'s![^/]*$!!'"'"''
JFQUHPFSYY/proc/device-tree/ocp/interconnect@48000000/segment@100000/target-module@9c000/i2c@0/pmic@4b/
JFQUHPFSYY 0
root@arm:~# echo 'OVFK''MQGWCQ'
OVFKMQGWCQ
root@arm:~# MARKER='STXN''TNLUSA' run 'test -f /proc/device-tree/ocp/interconnectt\@48000000/segment\@100000/target-module\@9c000/i2c\@0/pmic\@4b/regulators/BUCK22/rohm,no-regulator-enable-control ;echo $?'
STXNTNLUSA1
STXNTNLUSA 0
root@arm:~# echo 'WZWK''TUMOUP'
WZWKTUMOUP
root@arm:~# MARKER='MYJG''PPZGVE' run 'grep -r -l rohm,bd71837 /proc/device-tree  | sed '"'"'s![^/]*$!!'"'"''
MYJGPPZGVE/proc/device-tree/ocp/interconnect@48000000/segment@100000/target-module@9c000/i2c@0/pmic@4b/
MYJGPPZGVE 0
root@arm:~# echo 'BWWP''CHEZKZ'
BWWPCHEZKZ
root@arm:~# MARKER='BZEN''BUMLME' run 'test -f /proc/device-tree/ocp/interconnectt\@48000000/segment\@100000/target-module\@9c000/i2c\@0/pmic\@4b/regulators/BUCK22/regulator-always-on ;echo $?'
BZENBUMLME0
BZENBUMLME 0
root@arm:~# echo 'FUTA''MBXEPL'
FUTAMBXEPL
root@arm:~# MARKER='GGLE''QEUAFY' run 'grep -r -l rohm,bd71837 /proc/device-tree  | sed '"'"'s![^/]*$!!'"'"''
GGLEQEUAFY/proc/device-tree/ocp/interconnect@48000000/segment@100000/target-module@9c000/i2c@0/pmic@4b/
GGLEQEUAFY 0
root@arm:~# echo 'TFVZ''GMWVOB'
TFVZGMWVOB
root@arm:~# MARKER='AEOU''HMAXWM' run 'test -f /proc/device-tree/ocp/interconnectt\@48000000/segment\@100000/target-module\@9c000/i2c\@0/pmic\@4b/regulators/BUCK33/rohm,no-regulator-enable-control ;echo $?'
AEOUHMAXWM0
AEOUHMAXWM 0
root@arm:~# echo 'KASH''ZYBOXV'
KASHZYBOXV
root@arm:~# MARKER='YLHU''XGEUXV' run 'grep -r -l rohm,bd71837 /proc/device-tree  | sed '"'"'s![^/]*$!!'"'"''
YLHUXGEUXV/proc/device-tree/ocp/interconnect@48000000/segment@100000/target-module@9c000/i2c@0/pmic@4b/
YLHUXGEUXV 0
root@arm:~# echo 'MSAN''HWTHQS'
MSANHWTHQS
root@arm:~# MARKER='WEOE''HQMVUZ' run 'test -f /proc/device-tree/ocp/interconnectt\@48000000/segment\@100000/target-module\@9c000/i2c\@0/pmic\@4b/regulators/BUCK 3/rohm,no-regulator-enable-control ;echo $?'
WEOEHQMVUZ0
WEOEHQMVUZ 0
root@arm:~# echo 'XFSE''GVNHLQ'
XFSEGVNHLQ
root@arm:~# MARKER='XBAO''KBUOAW' run 'grep -r -l rohm,bd71837 /proc/device-tree  | sed '"'"'s![^/]*$!!'"'"''
XBAOKBUOAW/proc/device-tree/ocp/interconnect@48000000/segment@100000/target-module@9c000/i2c@0/pmic@4b/
XBAOKBUOAW 0
root@arm:~# echo 'VGWW''YNSXSU'
VGWWYNSXSU
root@arm:~# MARKER='HHBX''FSUTWC' run 'test -f /proc/device-tree/ocp/interconnectt\@48000000/segment\@100000/target-module\@9c000/i2c\@0/pmic\@4b/regulators/BUCK 4/rohm,no-regulator-enable-control ;echo $?'
HHBXFSUTWC1
HHBXFSUTWC 0
root@arm:~# echo 'MFCM''LOTNSE'
MFCMLOTNSE
root@arm:~# MARKER='VBTO''QELXEW' run 'echo 1 > /sys/kernel/mva_test/regulators/bbuck4_en'
VBTOQELXEWVBTOQELXEW 0
root@arm:~# echo 'ZFMO''MGSSBP'
ZFMOMGSSBP
root@arm:~# MARKER='LLUA''SGKOXQ' run 'i2cget -y -f 2 0x4b 0x8'
LLUASGKOXQ0xc7
LLUASGKOXQ 0
root@arm:~# echo 'OCLO''XUJUXK'
OCLOXUJUXK
root@arm:~# MARKER='SNLZ''NWFKMM' run 'grep -r -l rohm,bd71837 /proc/device-tree  | sed '"'"'s![^/]*$!!'"'"''
SNLZNWFKMM/proc/device-tree/ocp/interconnect@48000000/segment@100000/target-module@9c000/i2c@0/pmic@4b/
SNLZNWFKMM 0
root@arm:~# echo 'JQNL''LXAZXZ'
JQNLLXAZXZ
root@arm:~# MARKER='JTET''SXPHGK' run 'test -f /proc/device-tree/ocp/interconnectt\@48000000/segment\@100000/target-module\@9c000/i2c\@0/pmic\@4b/regulators/BUCK44/rohm,no-regulator-enable-control ;echo $?'
JTETSXPHGK1
JTETSXPHGK 0
root@arm:~# echo 'EQGU''TLUVQH'
EQGUTLUVQH
root@arm:~# MARKER='BYWE''MUJBZG' run 'grep -r -l rohm,bd71837 /proc/device-tree  | sed '"'"'s![^/]*$!!'"'"''
BYWEMUJBZG/proc/device-tree/ocp/interconnect@48000000/segment@100000/target-module@9c000/i2c@0/pmic@4b/
BYWEMUJBZG 0
root@arm:~# echo 'CLGU''FYCTZZ'
CLGUFYCTZZ
root@arm:~# MARKER='BEAQ''UTYSJG' run 'test -f /proc/device-tree/ocp/interconnectt\@48000000/segment\@100000/target-module\@9c000/i2c\@0/pmic\@4b/regulators/BUCK44/regulator-always-on ;echo $?'
BEAQUTYSJG1
BEAQUTYSJG 0
root@arm:~# echo 'COOT''ONGLGN'
COOTONGLGN
root@arm:~# MARKER='HHVO''ATTAUY' run 'echo 0 > /sys/kernel/mva_test/regulators/bbuck4_en'
HHVOATTAUYHHVOATTAUY 0
root@arm:~# echo 'EBZK''OCNCHW'
EBZKOCNCHW
root@arm:~# MARKER='BVMF''FKWONO' run 'i2cget -y -f 2 0x4b 0x8'
BVMFFKWONO0xc6
BVMFFKWONO 0
root@arm:~# echo 'HPZO''BYCPZQ'
HPZOBYCPZQ
root@arm:~# MARKER='FHHB''MTCMLU' run 'grep -r -l rohm,bd71837 /proc/device-tree  | sed '"'"'s![^/]*$!!'"'"''
FHHBMTCMLU/proc/device-tree/ocp/interconnect@48000000/segment@100000/target-module@9c000/i2c@0/pmic@4b/
FHHBMTCMLU 0
root@arm:~# echo 'SKOO''AMAXPN'
SKOOAMAXPN
root@arm:~# MARKER='WKKQ''SMPPCF' run 'test -f /proc/device-tree/ocp/interconnectt\@48000000/segment\@100000/target-module\@9c000/i2c\@0/pmic\@4b/regulators/BUCK 5/rohm,no-regulator-enable-control ;echo $?'
WKKQSMPPCF1
WKKQSMPPCF 0
root@arm:~# echo 'AKUT''NCQHLO'
AKUTNCQHLO
root@arm:~# MARKER='ANZA''KXHKQF' run 'echo 1 > /sys/kernel/mva_test/regulators/bbuck5_en'
ANZAKXHKQFANZAKXHKQF 0
root@arm:~# echo 'CHQC''HKTUMX'
CHQCHKTUMX
root@arm:~# MARKER='BYQN''SAJMJC' run 'i2cget -y -f 2 0x4b 0x9'
BYQNSAJMJC0x03
BYQNSAJMJC 0
root@arm:~# echo 'UWLX''UPXUKE'
UWLXUPXUKE
root@arm:~# MARKER='JWJF''TUJVVX' run 'grep -r -l rohm,bd71837 /proc/device-tree  | sed '"'"'s![^/]*$!!'"'"''
JWJFTUJVVX/proc/device-tree/ocp/interconnect@48000000/segment@100000/target-module@9c000/i2c@0/pmic@4b/
JWJFTUJVVX 0
root@arm:~# echo 'HBUP''WCMFKZ'
HBUPWCMFKZ
root@arm:~# MARKER='MWQX''YNSPTV' run 'test -f /proc/device-tree/ocp/interconnectt\@48000000/segment\@100000/target-module\@9c000/i2c\@0/pmic\@4b/regulators/BUCK55/rohm,no-regulator-enable-control ;echo $?'
MWQXYNSPTV1
MWQXYNSPTV 0
root@arm:~# echo 'YCUS''VSVGXL'
YCUSVSVGXL
root@arm:~# MARKER='WBEL''APSLEU' run 'grep -r -l rohm,bd71837 /proc/device-tree  | sed '"'"'s![^/]*$!!'"'"''
WBELAPSLEU/proc/device-tree/ocp/interconnect@48000000/segment@100000/target-module@9c000/i2c@0/pmic@4b/
WBELAPSLEU 0
root@arm:~# echo 'BUTF''LAEJML'
BUTFLAEJML
root@arm:~# MARKER='JKXU''YOMQEC' run 'test -f /proc/device-tree/ocp/interconnectt\@48000000/segment\@100000/target-module\@9c000/i2c\@0/pmic\@4b/regulators/BUCK55/regulator-always-on ;echo $?'
JKXUYOMQEC1
JKXUYOMQEC 0
root@arm:~# echo 'BJWC''GFYPKY'
BJWCGFYPKY
root@arm:~# MARKER='FSCX''OPKEKV' run 'echo 0 > /sys/kernel/mva_test/regulators/bbuck5_en'
FSCXOPKEKVFSCXOPKEKV 0
root@arm:~# echo 'NSUS''QCEYEC'
NSUSQCEYEC
root@arm:~# MARKER='YZKK''YBBKJL' run 'i2cget -y -f 2 0x4b 0x9'
YZKKYBBKJL0x02
YZKKYBBKJL 0
root@arm:~# echo 'QYKS''SMKHZA'
QYKSSMKHZA
root@arm:~# MARKER='QQWP''QSLWTA' run 'grep -r -l rohm,bd71837 /proc/device-tree  | sed '"'"'s![^/]*$!!'"'"''
QQWPQSLWTA/proc/device-tree/ocp/interconnect@48000000/segment@100000/target-module@9c000/i2c@0/pmic@4b/
QQWPQSLWTA 0
root@arm:~# echo 'YMWV''GMXAUB'
YMWVGMXAUB
root@arm:~# MARKER='QYVW''CQEPVV' run 'test -f /proc/device-tree/ocp/interconnectt\@48000000/segment\@100000/target-module\@9c000/i2c\@0/pmic\@4b/regulators/BUCK 6/rohm,no-regulator-enable-control ;echo $?'
QYVWCQEPVV1
QYVWCQEPVV 0
root@arm:~# echo 'PATV''QPEQXY'
PATVQPEQXY
root@arm:~# MARKER='BNCQ''XKVTAW' run 'echo 1 > /sys/kernel/mva_test/regulators/bbuck6_en'
BNCQXKVTAWBNCQXKVTAW 0
root@arm:~# echo 'THXK''UZBTAY'
THXKUZBTAY
root@arm:~# MARKER='HASX''GGONTF' run 'i2cget -y -f 2 0x4b 0xa'
HASXGGONTF0x03
HASXGGONTF 0
root@arm:~# echo 'WMJL''ZMWXHB'
WMJLZMWXHB
root@arm:~# MARKER='YJVP''MMCGZE' run 'grep -r -l rohm,bd71837 /proc/device-tree  | sed '"'"'s![^/]*$!!'"'"''
YJVPMMCGZE/proc/device-tree/ocp/interconnect@48000000/segment@100000/target-module@9c000/i2c@0/pmic@4b/
YJVPMMCGZE 0
root@arm:~# echo 'CTAU''COGJOA'
CTAUCOGJOA
root@arm:~# MARKER='KUVM''BSTPBE' run 'test -f /proc/device-tree/ocp/interconnectt\@48000000/segment\@100000/target-module\@9c000/i2c\@0/pmic\@4b/regulators/BUCK66/rohm,no-regulator-enable-control ;echo $?'
KUVMBSTPBE1
KUVMBSTPBE 0
root@arm:~# echo 'OLJO''VEBMTB'
OLJOVEBMTB
root@arm:~# MARKER='KNMO''VEKMLH' run 'grep -r -l rohm,bd71837 /proc/device-tree  | sed '"'"'s![^/]*$!!'"'"''
KNMOVEKMLH/proc/device-tree/ocp/interconnect@48000000/segment@100000/target-module@9c000/i2c@0/pmic@4b/
KNMOVEKMLH 0
root@arm:~# echo 'PUMO''ZQZMEN'
PUMOZQZMEN
root@arm:~# MARKER='QWUJ''ZBEJGO' run 'test -f /proc/device-tree/ocp/interconnectt\@48000000/segment\@100000/target-module\@9c000/i2c\@0/pmic\@4b/regulators/BUCK66/regulator-always-on ;echo $?'
QWUJZBEJGO1
QWUJZBEJGO 0
root@arm:~# echo 'TAKU''ALTHAT'
TAKUALTHAT
root@arm:~# MARKER='FXBY''QQECHE' run 'echo 0 > /sys/kernel/mva_test/regulators/bbuck6_en'
FXBYQQECHEFXBYQQECHE 0
root@arm:~# echo 'OZQS''QHHUXS'
OZQSQHHUXS
root@arm:~# MARKER='JGQE''GVMKML' run 'i2cget -y -f 2 0x4b 0xa'
JGQEGVMKML0x02
JGQEGVMKML 0
root@arm:~# echo 'ZVEQ''MFHSLS'
ZVEQMFHSLS
root@arm:~# MARKER='QNXG''AEGUNA' run 'grep -r -l rohm,bd71837 /proc/device-tree  | sed '"'"'s![^/]*$!!'"'"''
QNXGAEGUNA/proc/device-tree/ocp/interconnect@48000000/segment@100000/target-module@9c000/i2c@0/pmic@4b/
QNXGAEGUNA 0
root@arm:~# echo 'AOKP''TLCKEG'
AOKPTLCKEG
root@arm:~# MARKER='UHQA''MYSTVE' run 'test -f /proc/device-tree/ocp/interconnectt\@48000000/segment\@100000/target-module\@9c000/i2c\@0/pmic\@4b/regulators/BUCK 7/rohm,no-regulator-enable-control ;echo $?'
UHQAMYSTVE1
UHQAMYSTVE 0
root@arm:~# echo 'UTPM''AVNQFQ'
UTPMAVNQFQ
root@arm:~# MARKER='XVBU''AKHAXU' run 'echo 1 > /sys/kernel/mva_test/regulators/bbuck7_en'
XVBUAKHAXUXVBUAKHAXU 0
root@arm:~# echo 'MEMW''KXBSLM'
MEMWKXBSLM
root@arm:~# MARKER='QJPZ''LVSWCB' run 'i2cget -y -f 2 0x4b 0xb'
QJPZLVSWCB0x03
QJPZLVSWCB 0
root@arm:~# echo 'KGGQ''MAWYEV'
KGGQMAWYEV
root@arm:~# MARKER='YHCY''LJEAQB' run 'grep -r -l rohm,bd71837 /proc/device-tree  | sed '"'"'s![^/]*$!!'"'"''
YHCYLJEAQB/proc/device-tree/ocp/interconnect@48000000/segment@100000/target-module@9c000/i2c@0/pmic@4b/
YHCYLJEAQB 0
root@arm:~# echo 'SYEB''CKHAYQ'
SYEBCKHAYQ
root@arm:~# MARKER='UJBO''OUWWCP' run 'test -f /proc/device-tree/ocp/interconnectt\@48000000/segment\@100000/target-module\@9c000/i2c\@0/pmic\@4b/regulators/BUCK77/rohm,no-regulator-enable-control ;echo $?'
UJBOOUWWCP1
UJBOOUWWCP 0
root@arm:~# echo 'NXUB''SSYZQL'
NXUBSSYZQL
root@arm:~# MARKER='UHLE''NMLAYP' run 'grep -r -l rohm,bd71837 /proc/device-tree  | sed '"'"'s![^/]*$!!'"'"''
UHLENMLAYP/proc/device-tree/ocp/interconnect@48000000/segment@100000/target-module@9c000/i2c@0/pmic@4b/
UHLENMLAYP 0
root@arm:~# echo 'BPAF''GGUSYU'
BPAFGGUSYU
root@arm:~# MARKER='SYCO''JTXHVS' run 'test -f /proc/device-tree/ocp/interconnectt\@48000000/segment\@100000/target-module\@9c000/i2c\@0/pmic\@4b/regulators/BUCK77/regulator-always-on ;echo $?'
SYCOJTXHVS1
SYCOJTXHVS 0
root@arm:~# echo 'NAMO''YXJBTX'
NAMOYXJBTX
root@arm:~# MARKER='FXXS''UCNEEC' run 'echo 0 > /sys/kernel/mva_test/regulators/bbuck7_en'
FXXSUCNEECFXXSUCNEEC 0
root@arm:~# echo 'BHKW''SXSWEM'
BHKWSXSWEM
root@arm:~# MARKER='NCXJ''SCBGAZ' run 'i2cget -y -f 2 0x4b 0xb'
NCXJSCBGAZ0x02
NCXJSCBGAZ 0
root@arm:~# echo 'WZCL''SNKJEF'
WZCLSNKJEF
root@arm:~# MARKER='TMQV''FBECGL' run 'grep -r -l rohm,bd71837 /proc/device-tree  | sed '"'"'s![^/]*$!!'"'"''
TMQVFBECGL/proc/device-tree/ocp/interconnect@48000000/segment@100000/target-module@9c000/i2c@0/pmic@4b/
TMQVFBECGL 0
root@arm:~# echo 'WPSN''JXNPGA'
WPSNJXNPGA
root@arm:~# MARKER='YZCF''PACHLU' run 'test -f /proc/device-tree/ocp/interconnectt\@48000000/segment\@100000/target-module\@9c000/i2c\@0/pmic\@4b/regulators/BUCK88/rohm,no-regulator-enable-control ;echo $?'
YZCFPACHLU1
YZCFPACHLU 0
root@arm:~# echo 'SACU''SXFBFT'
SACUSXFBFT
root@arm:~# MARKER='JGNN''BXFAQL' run 'echo 1 > /sys/kernel/mva_test/regulators/bbuck8_en'
JGNNBXFAQLJGNNBXFAQL 0
root@arm:~# echo 'QGJJ''KNXZVH'
QGJJKNXZVH
root@arm:~# MARKER='MTEH''ZAFFJB' run 'i2cget -y -f 2 0x4b 0xc'
MTEHZAFFJB0x03
MTEHZAFFJB 0
root@arm:~# echo 'PPZQ''YXNPNQ'
PPZQYXNPNQ
root@arm:~# MARKER='KHHN''BVPBWS' run 'grep -r -l rohm,bd71837 /proc/device-tree  | sed '"'"'s![^/]*$!!'"'"''
KHHNBVPBWS/proc/device-tree/ocp/interconnect@48000000/segment@100000/target-module@9c000/i2c@0/pmic@4b/
KHHNBVPBWS 0
root@arm:~# echo 'HASH''PPAKQS'
HASHPPAKQS
root@arm:~# MARKER='JBTA''ZWZPMP' run 'test -f /proc/device-tree/ocp/interconnectt\@48000000/segment\@100000/target-module\@9c000/i2c\@0/pmic\@4b/regulators/BUCK88/rohm,no-regulator-enable-control ;echo $?'
JBTAZWZPMP1
JBTAZWZPMP 0
root@arm:~# echo 'HHJS''ACBNQC'
HHJSACBNQC
root@arm:~# MARKER='WBEU''HKVMKV' run 'grep -r -l rohm,bd71837 /proc/device-tree  | sed '"'"'s![^/]*$!!'"'"''
WBEUHKVMKV/proc/device-tree/ocp/interconnect@48000000/segment@100000/target-module@9c000/i2c@0/pmic@4b/
WBEUHKVMKV 0
root@arm:~# echo 'ZKBY''CYFPYX'
ZKBYCYFPYX
root@arm:~# MARKER='KPMV''CMLFJN' run 'test -f /proc/device-tree/ocp/interconnectt\@48000000/segment\@100000/target-module\@9c000/i2c\@0/pmic\@4b/regulators/BUCK88/regulator-always-on ;echo $?'
KPMVCMLFJN1
KPMVCMLFJN 0
root@arm:~# echo 'ZQBO''ZCVCYV'
ZQBOZCVCYV
root@arm:~# MARKER='ZMWN''QCOKNB' run 'echo 0 > /sys/kernel/mva_test/regulators/bbuck8_en'
ZMWNQCOKNBZMWNQCOKNB 0
root@arm:~# echo 'KKBS''JVEHHL'
KKBSJVEHHL
root@arm:~# MARKER='WSQY''UOQYPM' run 'i2cget -y -f 2 0x4b 0xc'
WSQYUOQYPM0x02
WSQYUOQYPM 0
root@arm:~# echo 'WHVH''QZGWCH'
WHVHQZGWCH
root@arm:~# MARKER='UMQU''MJHXHP' run 'grep -r -l rohm,bd71837 /proc/device-tree  | sed '"'"'s![^/]*$!!'"'"''
UMQUMJHXHP/proc/device-tree/ocp/interconnect@48000000/segment@100000/target-module@9c000/i2c@0/pmic@4b/
UMQUMJHXHP 0
root@arm:~# echo 'YBGY''GNVQAS'
YBGYGNVQAS
root@arm:~# MARKER='GBNU''XAMOGH' run 'test -f /proc/device-tree/ocp/interconnectt\@48000000/segment\@100000/target-module\@9c000/i2c\@0/pmic\@4b/regulators/LDO1//rohm,no-regulator-enable-control ;echo $?'
GBNUXAMOGH1
GBNUXAMOGH 0
root@arm:~# echo 'KLGH''BWCBAJ'
KLGHBWCBAJ
root@arm:~# MARKER='WVMY''LWLYPB' run 'echo 1 > /sys/kernel/mva_test/regulators/bbuck9_en'
WVMYLWLYPBWVMYLWLYPB 0
root@arm:~# echo 'XUCL''UVFKUO'
XUCLUVFKUO
root@arm:~# MARKER='GNBN''EELHGA' run 'i2cget -y -f 2 0x4b 0x18'
GNBNEELHGA0xc3
GNBNEELHGA 0
root@arm:~# echo 'BKGW''NJYXEV'
BKGWNJYXEV
root@arm:~# MARKER='UKVW''GTMGXE' run 'grep -r -l rohm,bd71837 /proc/device-tree  | sed '"'"'s![^/]*$!!'"'"''
UKVWGTMGXE/proc/device-tree/ocp/interconnect@48000000/segment@100000/target-module@9c000/i2c@0/pmic@4b/
UKVWGTMGXE 0
root@arm:~# echo 'VGFA''MXUFQO'
VGFAMXUFQO
root@arm:~# MARKER='WKPL''XTMSBO' run 'test -f /proc/device-tree/ocp/interconnectt\@48000000/segment\@100000/target-module\@9c000/i2c\@0/pmic\@4b/regulators/LDO1 /rohm,no-regulator-enable-control ;echo $?'
WKPLXTMSBO1
WKPLXTMSBO 0
root@arm:~# echo 'EZFP''ZCJQUH'
EZFPZCJQUH
root@arm:~# MARKER='ALWS''ESPYYJ' run 'grep -r -l rohm,bd71837 /proc/device-tree  | sed '"'"'s![^/]*$!!'"'"''
ALWSESPYYJ/proc/device-tree/ocp/interconnect@48000000/segment@100000/target-module@9c000/i2c@0/pmic@4b/
ALWSESPYYJ 0
root@arm:~# echo 'TLME''SPXGAW'
TLMESPXGAW
root@arm:~# MARKER='HUJV''FUOUKQ' run 'test -f /proc/device-tree/ocp/interconnectt\@48000000/segment\@100000/target-module\@9c000/i2c\@0/pmic\@4b/regulators/LDO1//regulator-always-on ;echo $?'
HUJVFUOUKQ1
HUJVFUOUKQ 0
root@arm:~# echo 'XMZT''SWHKHB'
XMZTSWHKHB
root@arm:~# MARKER='WPUB''PBJASU' run 'echo 0 > /sys/kernel/mva_test/regulators/bbuck9_en'
WPUBPBJASUWPUBPBJASU 0
root@arm:~# echo 'XUUU''BACLJX'
XUUUBACLJX
root@arm:~# MARKER='SCFZ''WLKGUJ' run 'i2cget -y -f 2 0x4b 0x18'
SCFZWLKGUJ0x83
SCFZWLKGUJ 0
root@arm:~# echo 'LQPL''PKNFBL'
LQPLPKNFBL
root@arm:~# MARKER='NMLK''BCGAWQ' run 'grep -r -l rohm,bd71837 /proc/device-tree  | sed '"'"'s![^/]*$!!'"'"''
NMLKBCGAWQ/proc/device-tree/ocp/interconnect@48000000/segment@100000/target-module@9c000/i2c@0/pmic@4b/
NMLKBCGAWQ 0
root@arm:~# echo 'TWWX''KYANOH'
TWWXKYANOH
root@arm:~# MARKER='NUUH''UYQXNN' run 'test -f /proc/device-tree/ocp/interconnectt\@48000000/segment\@100000/target-module\@9c000/i2c\@0/pmic\@4b/regulators/LDO2//rohm,no-regulator-enable-control ;echo $?'
NUUHUYQXNN1
NUUHUYQXNN 0
root@arm:~# echo 'ZVPZ''MKBGLL'
ZVPZMKBGLL
root@arm:~# MARKER='FPGT''VJUGMF' run 'echo 1 > /sys/kernel/mva_test/regulators/bbuck10_en'
FPGTVJUGMFFPGTVJUGMF 0
root@arm:~# echo 'EKFE''YNAMEA'
EKFEYNAMEA
root@arm:~# MARKER='AVSN''FOKPYG' run 'i2cget -y -f 2 0x4b 0x19'
AVSNFOKPYG0xc0
AVSNFOKPYG 0
root@arm:~# echo 'PJZH''UQFYMK'
PJZHUQFYMK
root@arm:~# MARKER='YMNW''KMKSQO' run 'grep -r -l rohm,bd71837 /proc/device-tree  | sed '"'"'s![^/]*$!!'"'"''
YMNWKMKSQO/proc/device-tree/ocp/interconnect@48000000/segment@100000/target-module@9c000/i2c@0/pmic@4b/
YMNWKMKSQO 0
root@arm:~# echo 'HKTP''WEJMZL'
HKTPWEJMZL
root@arm:~# MARKER='CJNP''CUYPJJ' run 'test -f /proc/device-tree/ocp/interconnectt\@48000000/segment\@100000/target-module\@9c000/i2c\@0/pmic\@4b/regulators/LDO2//rohm,no-regulator-enable-control ;echo $?'
CJNPCUYPJJ1
CJNPCUYPJJ 0
root@arm:~# echo 'AHZQ''HKVJHL'
AHZQHKVJHL
root@arm:~# MARKER='JQNL''PFBXHK' run 'grep -r -l rohm,bd71837 /proc/device-tree  | sed '"'"'s![^/]*$!!'"'"''
JQNLPFBXHK/proc/device-tree/ocp/interconnect@48000000/segment@100000/target-module@9c000/i2c@0/pmic@4b/
JQNLPFBXHK 0
root@arm:~# echo 'PFUA''ACKVKC'
PFUAACKVKC
root@arm:~# MARKER='CEQU''MVZXHK' run 'test -f /proc/device-tree/ocp/interconnectt\@48000000/segment\@100000/target-module\@9c000/i2c\@0/pmic\@4b/regulators/LDO2//regulator-always-on ;echo $?'
CEQUMVZXHK1
CEQUMVZXHK 0
root@arm:~# echo 'MQBQ''YNEEHX'
MQBQYNEEHX
root@arm:~# MARKER='UUSW''VZGHOH' run 'echo 0 > /sys/kernel/mva_test/regulators/bbuck10_en'
UUSWVZGHOHUUSWVZGHOH 0
root@arm:~# echo 'ZHNH''UPMQNY'
ZHNHUPMQNY
root@arm:~# MARKER='SMFN''ZAMLHY' run 'i2cget -y -f 2 0x4b 0x19'
SMFNZAMLHY0x80
SMFNZAMLHY 0
root@arm:~# echo 'ZCBM''AHJSTS'
ZCBMAHJSTS
root@arm:~# MARKER='XLLU''VVBBPF' run 'grep -r -l rohm,bd71837 /proc/device-tree  | sed '"'"'s![^/]*$!!'"'"''
XLLUVVBBPF/proc/device-tree/ocp/interconnect@48000000/segment@100000/target-module@9c000/i2c@0/pmic@4b/
XLLUVVBBPF 0
root@arm:~# echo 'OSEU''BJCLYQ'
OSEUBJCLYQ
root@arm:~# MARKER='XOXC''MNNNMA' run 'test -f /proc/device-tree/ocp/interconnectt\@48000000/segment\@100000/target-module\@9c000/i2c\@0/pmic\@4b/regulators/LDO3 /rohm,no-regulator-enable-control ;echo $?'
XOXCMNNNMA1
XOXCMNNNMA 0
root@arm:~# echo 'SFQP''SBCUHL'
SFQPSBCUHL
root@arm:~# MARKER='KSYK''TLYJUP' run 'echo 1 > /sys/kernel/mva_test/regulators/bbuck11_en'
KSYKTLYJUPKSYKTLYJUP 0
root@arm:~# echo 'LAAX''NWFSMC'
LAAXNWFSMC
root@arm:~# MARKER='EQKO''LUWHEH' run 'i2cget -y -f 2 0x4b 0x1a'
EQKOLUWHEH0xc0
EQKOLUWHEH 0
root@arm:~# echo 'BKPJ''KJMGXB'
BKPJKJMGXB
root@arm:~# MARKER='LLGQ''LYYPXS' run 'grep -r -l rohm,bd71837 /proc/device-tree  | sed '"'"'s![^/]*$!!'"'"''
LLGQLYYPXS/proc/device-tree/ocp/interconnect@48000000/segment@100000/target-module@9c000/i2c@0/pmic@4b/
LLGQLYYPXS 0
root@arm:~# echo 'UVUH''EXYXTG'
UVUHEXYXTG
root@arm:~# MARKER='YBKF''OUFZOA' run 'test -f /proc/device-tree/ocp/interconnectt\@48000000/segment\@100000/target-module\@9c000/i2c\@0/pmic\@4b/regulators/LDO3//rohm,no-regulator-enable-control ;echo $?'
YBKFOUFZOA1
YBKFOUFZOA 0
root@arm:~# echo 'JUVG''KBLJXU'
JUVGKBLJXU
root@arm:~# MARKER='ZKKH''VYHOHW' run 'grep -r -l rohm,bd71837 /proc/device-tree  | sed '"'"'s![^/]*$!!'"'"''
ZKKHVYHOHW/proc/device-tree/ocp/interconnect@48000000/segment@100000/target-module@9c000/i2c@0/pmic@4b/
ZKKHVYHOHW 0
root@arm:~# echo 'XYFM''KYNJFZ'
XYFMKYNJFZ
root@arm:~# MARKER='JUNE''NAAULL' run 'test -f /proc/device-tree/ocp/interconnectt\@48000000/segment\@100000/target-module\@9c000/i2c\@0/pmic\@4b/regulators/LDO3//regulator-always-on ;echo $?'
JUNENAAULL1
JUNENAAULL 0
root@arm:~# echo 'NOGK''FUSLFE'
NOGKFUSLFE
root@arm:~# MARKER='YEYF''GVYVTL' run 'echo 0 > /sys/kernel/mva_test/regulators/bbuck11_en'
YEYFGVYVTLYEYFGVYVTL 0
root@arm:~# echo 'LYBL''PKZBGT'
LYBLPKZBGT
root@arm:~# MARKER='LPQV''JXOHHB' run 'i2cget -y -f 2 0x4b 0x1a'
LPQVJXOHHB0x80
LPQVJXOHHB 0
root@arm:~# echo 'MFZW''HUOYGG'
MFZWHUOYGG
root@arm:~# MARKER='QUHW''PUQMTL' run 'grep -r -l rohm,bd71837 /proc/device-tree  | sed '"'"'s![^/]*$!!'"'"''
QUHWPUQMTL/proc/device-tree/ocp/interconnect@48000000/segment@100000/target-module@9c000/i2c@0/pmic@4b/
QUHWPUQMTL 0
root@arm:~# echo 'TFFG''AMXKAQ'
TFFGAMXKAQ
root@arm:~# MARKER='LFMG''JAGOFX' run 'test -f /proc/device-tree/ocp/interconnectt\@48000000/segment\@100000/target-module\@9c000/i2c\@0/pmic\@4b/regulators/LDO4//rohm,no-regulator-enable-control ;echo $?'
LFMGJAGOFX1
LFMGJAGOFX 0
root@arm:~# echo 'TFQL''KLXHGA'
TFQLKLXHGA
root@arm:~# MARKER='STMT''WEEVJK' run 'echo 1 > /sys/kernel/mva_test/regulators/bbuck12_en'
STMTWEEVJKSTMTWEEVJK 0
root@arm:~# echo 'BBUT''OBQQCN'
BBUTOBQQCN
root@arm:~# MARKER='BMFW''TQVUYG' run 'i2cget -y -f 2 0x4b 0x1b'
BMFWTQVUYG0xc0
BMFWTQVUYG 0
root@arm:~# echo 'ZNQC''BWLQKX'
ZNQCBWLQKX
root@arm:~# MARKER='ZHXC''OLWQFT' run 'grep -r -l rohm,bd71837 /proc/device-tree  | sed '"'"'s![^/]*$!!'"'"''
ZHXCOLWQFT/proc/device-tree/ocp/interconnect@48000000/segment@100000/target-module@9c000/i2c@0/pmic@4b/
ZHXCOLWQFT 0
root@arm:~# echo 'OTZU''YOMCFO'
OTZUYOMCFO
root@arm:~# MARKER='UBUB''SELCQN' run 'test -f /proc/device-tree/ocp/interconnectt\@48000000/segment\@100000/target-module\@9c000/i2c\@0/pmic\@4b/regulators/LDO4//rohm,no-regulator-enable-control ;echo $?'
UBUBSELCQN1
UBUBSELCQN 0
root@arm:~# echo 'EGXW''JWVBMX'
EGXWJWVBMX
root@arm:~# MARKER='HBZO''WXZOMS' run 'grep -r -l rohm,bd71837 /proc/device-tree  | sed '"'"'s![^/]*$!!'"'"''
HBZOWXZOMS/proc/device-tree/ocp/interconnect@48000000/segment@100000/target-module@9c000/i2c@0/pmic@4b/
HBZOWXZOMS 0
root@arm:~# echo 'ASXJ''WWUZEH'
ASXJWWUZEH
root@arm:~# MARKER='AZNA''SXOGBJ' run 'test -f /proc/device-tree/ocp/interconnectt\@48000000/segment\@100000/target-module\@9c000/i2c\@0/pmic\@4b/regulators/LDO4//regulator-always-on ;echo $?'
AZNASXOGBJ1
AZNASXOGBJ 0
root@arm:~# echo 'PLPK''QHTJCO'
PLPKQHTJCO
root@arm:~# MARKER='LGSE''PMUZMK' run 'echo 0 > /sys/kernel/mva_test/regulators/bbuck12_en'
LGSEPMUZMKLGSEPMUZMK 0
root@arm:~# echo 'ZUKP''FBYMGP'
ZUKPFBYMGP
root@arm:~# MARKER='AXNM''VMSKLS' run 'i2cget -y -f 2 0x4b 0x1b'
AXNMVMSKLS0x80
AXNMVMSKLS 0
root@arm:~# echo 'LUNY''GWHEUW'
LUNYGWHEUW
root@arm:~# MARKER='NGEY''ECGMGT' run 'grep -r -l rohm,bd71837 /proc/device-tree  | sed '"'"'s![^/]*$!!'"'"''
NGEYECGMGT/proc/device-tree/ocp/interconnect@48000000/segment@100000/target-module@9c000/i2c@0/pmic@4b/
NGEYECGMGT 0
root@arm:~# echo 'AHUJ''UZCFMW'
AHUJUZCFMW
root@arm:~# MARKER='ZOWL''AFCXAW' run 'test -f /proc/device-tree/ocp/interconnectt\@48000000/segment\@100000/target-module\@9c000/i2c\@0/pmic\@4b/regulators/LDO5//rohm,no-regulator-enable-control ;echo $?'
ZOWLAFCXAW0
ZOWLAFCXAW 0
root@arm:~# echo 'YOYP''VNFFYN'
YOYPVNFFYN
root@arm:~# MARKER='JKEL''COWZLK' run 'grep -r -l rohm,bd71837 /proc/device-tree  | sed '"'"'s![^/]*$!!'"'"''
JKELCOWZLK/proc/device-tree/ocp/interconnect@48000000/segment@100000/target-module@9c000/i2c@0/pmic@4b/
JKELCOWZLK 0
root@arm:~# echo 'STLO''YKGTNV'
STLOYKGTNV
root@arm:~# MARKER='MWBB''TWJPZZ' run 'test -f /proc/device-tree/ocp/interconnectt\@48000000/segment\@100000/target-module\@9c000/i2c\@0/pmic\@4b/regulators/LDO5//rohm,no-regulator-enable-control ;echo $?'
MWBBTWJPZZ0
MWBBTWJPZZ 0
root@arm:~# echo 'MZNN''HATSUB'
MZNNHATSUB
root@arm:~# MARKER='KFLE''GOZPKE' run 'grep -r -l rohm,bd71837 /proc/device-tree  | sed '"'"'s![^/]*$!!'"'"''
KFLEGOZPKE/proc/device-tree/ocp/interconnect@48000000/segment@100000/target-module@9c000/i2c@0/pmic@4b/
KFLEGOZPKE 0
root@arm:~# echo 'VUNJ''BBPQNC'
VUNJBBPQNC
root@arm:~# MARKER='GGXZ''MXKXON' run 'test -f /proc/device-tree/ocp/interconnectt\@48000000/segment\@100000/target-module\@9c000/i2c\@0/pmic\@4b/regulators/LDO6//rohm,no-regulator-enable-control ;echo $?'
GGXZMXKXON1
GGXZMXKXON 0
root@arm:~# echo 'HYNO''SFKBNC'
HYNOSFKBNC
root@arm:~# MARKER='TBZF''TEMCEG' run 'echo 1 > /sys/kernel/mva_test/regulators/bbuck14_en'
TBZFTEMCEGTBZFTEMCEG 0
root@arm:~# echo 'BSHP''QMWFGC'
BSHPQMWFGC
root@arm:~# MARKER='CKJF''XAAFSN' run 'i2cget -y -f 2 0x4b 0x1d'
CKJFXAAFSN0xc0
CKJFXAAFSN 0
root@arm:~# echo 'KENB''WJZBYJ'
KENBWJZBYJ
root@arm:~# MARKER='CWMH''HOMSAG' run 'grep -r -l rohm,bd71837 /proc/device-tree  | sed '"'"'s![^/]*$!!'"'"''
CWMHHOMSAG/proc/device-tree/ocp/interconnect@48000000/segment@100000/target-module@9c000/i2c@0/pmic@4b/
CWMHHOMSAG 0
root@arm:~# echo 'PTZU''KTFHWV'
PTZUKTFHWV
root@arm:~# MARKER='CXMU''ENHCZS' run 'test -f /proc/device-tree/ocp/interconnectt\@48000000/segment\@100000/target-module\@9c000/i2c\@0/pmic\@4b/regulators/LDO6//rohm,no-regulator-enable-control ;echo $?'
CXMUENHCZS1
CXMUENHCZS 0
root@arm:~# echo 'YLHJ''SUASTM'
YLHJSUASTM
root@arm:~# MARKER='PNFV''XNFTZP' run 'grep -r -l rohm,bd71837 /proc/device-tree  | sed '"'"'s![^/]*$!!'"'"''
PNFVXNFTZP/proc/device-tree/ocp/interconnect@48000000/segment@100000/target-module@9c000/i2c@0/pmic@4b/
PNFVXNFTZP 0
root@arm:~# echo 'LQLH''YOZEPZ'
LQLHYOZEPZ
root@arm:~# MARKER='FOTO''OXLEFP' run 'test -f /proc/device-tree/ocp/interconnectt\@48000000/segment\@100000/target-module\@9c000/i2c\@0/pmic\@4b/regulators/LDO6//regulator-always-on ;echo $?'
FOTOOXLEFP1
FOTOOXLEFP 0
root@arm:~# echo 'MOUN''CUPUXF'
MOUNCUPUXF
root@arm:~# MARKER='CJMT''TBUYGW' run 'echo 0 > /sys/kernel/mva_test/regulators/bbuck14_en'
CJMTTBUYGWCJMTTBUYGW 0
root@arm:~# echo 'XNCA''QBELLT'
XNCAQBELLT
root@arm:~# MARKER='NQZK''YGOWAU' run 'i2cget -y -f 2 0x4b 0x1d'
NQZKYGOWAU0x80
NQZKYGOWAU 0
root@arm:~# echo 'KXZA''YZABKN'
KXZAYZABKN
root@arm:~# MARKER='UKFM''NGOWYL' run 'grep -r -l rohm,bd71837 /proc/device-tree  | sed '"'"'s![^/]*$!!'"'"''
UKFMNGOWYL/proc/device-tree/ocp/interconnect@48000000/segment@100000/target-module@9c000/i2c@0/pmic@4b/
UKFMNGOWYL 0
root@arm:~# echo 'VSML''TSOGCE'
VSMLTSOGCE
root@arm:~# MARKER='MKYU''XKPZAX' run 'test -f /proc/device-tree/ocp/interconnectt\@48000000/segment\@100000/target-module\@9c000/i2c\@0/pmic\@4b/regulators/LDO7//rohm,no-regulator-enable-control ;echo $?'
MKYUXKPZAX1
MKYUXKPZAX 0
root@arm:~# echo 'LUXS''NNXHEA'
LUXSNNXHEA
root@arm:~# MARKER='UXXL''THEUTM' run 'echo 1 > /sys/kernel/mva_test/regulators/bbuck15_en'
UXXLTHEUTMUXXLTHEUTM 0
root@arm:~# echo 'FENH''QJYOOT'
FENHQJYOOT
root@arm:~# MARKER='VGLZ''VTMHET' run 'i2cget -y -f 2 0x4b 0x1e'
VGLZVTMHET0xcf
VGLZVTMHET 0
root@arm:~# echo 'QXPH''XFYTFY'
QXPHXFYTFY
root@arm:~# MARKER='LQTC''JMZLEW' run 'grep -r -l rohm,bd71837 /proc/device-tree  | sed '"'"'s![^/]*$!!'"'"''
LQTCJMZLEW/proc/device-tree/ocp/interconnect@48000000/segment@100000/target-module@9c000/i2c@0/pmic@4b/
LQTCJMZLEW 0
root@arm:~# echo 'SKFO''CZXXAJ'
SKFOCZXXAJ
root@arm:~# MARKER='ETSV''UPHEJG' run 'test -f /proc/device-tree/ocp/interconnectt\@48000000/segment\@100000/target-module\@9c000/i2c\@0/pmic\@4b/regulators/LDO7//rohm,no-regulator-enable-control ;echo $?'
ETSVUPHEJG1
ETSVUPHEJG 0
root@arm:~# echo 'GHNO''QUOWNE'
GHNOQUOWNE
root@arm:~# MARKER='TZBA''FSFVHN' run 'grep -r -l rohm,bd71837 /proc/device-tree  | sed '"'"'s![^/]*$!!'"'"''
TZBAFSFVHN/proc/device-tree/ocp/interconnect@48000000/segment@100000/target-module@9c000/i2c@0/pmic@4b/
TZBAFSFVHN 0
root@arm:~# echo 'JLMJ''YTJLBV'
JLMJYTJLBV
root@arm:~# MARKER='OVPV''ESAEBP' run 'test -f /proc/device-tree/ocp/interconnectt\@48000000/segment\@100000/target-module\@9c000/i2c\@0/pmic\@4b/regulators/LDO7//regulator-always-on ;echo $?'
OVPVESAEBP1
OVPVESAEBP 0
root@arm:~# echo 'MPME''VXFUHM'
MPMEVXFUHM
root@arm:~# MARKER='LCYV''CBPGWT' run 'echo 0 > /sys/kernel/mva_test/regulators/bbuck15_en'
LCYVCBPGWTLCYVCBPGWT 0
root@arm:~# echo 'NBBM''WKXBPK'
NBBMWKXBPK
root@arm:~# MARKER='CCKS''ZBJQWN' run 'i2cget -y -f 2 0x4b 0x1e'
CCKSZBJQWN0x8f
CCKSZBJQWN 0
root@arm:~# Labgrid Console Logfile for main
Logfile started at 2024-12-19 10:05:10.108640
=== Log starts here ===

root@arm:~# run() { echo -n "$MARKER"; sh -c "$@"; echo "$MARKER $?"; }
root@arm:~# echo 'MQZP''PLKUJA'
MQZPPLKUJA
root@arm:~# MARKER='PLNV''PPSHVJ' run 'grep -r -l rohm,bd71837 /proc/device-tree  | sed '"'"'s![^/]*$!!'"'"''
PLNVPPSHVJ/proc/device-tree/ocp/interconnect@48000000/segment@100000/target-module@9c000/i2c@0/pmic@4b/
PLNVPPSHVJ 0
root@arm:~# echo 'PMEQ''AQSKCY'
PMEQAQSKCY
root@arm:~# MARKER='NNAU''THESCX' run 'test -f /proc/device-tree/ocp/interconnectt\@48000000/segment\@100000/target-module\@9c000/i2c\@0/pmic\@4b/regulators/BUCK11/rohm,no-regulator-enable-control ;echo $?'
NNAUTHESCX1
NNAUTHESCX 0
root@arm:~# echo 'YXET''ZTGYZG'
YXETZTGYZG
root@arm:~# MARKER='OVLA''EYPNYZ' run 'i2cget -y -f 2 0x4b 0x5'
OVLAEYPNYZ0x02
OVLAEYPNYZ 0
root@arm:~# echo 'PSBO''YZOTYK'
PSBOYZOTYK
root@arm:~# MARKER='QKAW''TYUSFT' run 'echo 700000 700000 > /sys/kernel/mva_test//regulators/buck1_set'
QKAWTYUSFTQKAWTYUSFT 0
root@arm:~# echo 'ZXVE''QQGNZU'
ZXVEQQGNZU
root@arm:~# MARKER='CVTP''LWZNEY' run 'i2cget -y -f 2 0x4b 0xd'
CVTPLWZNEY0x00
CVTPLWZNEY 0
root@arm:~# echo 'KUAX''NZMUAH'
KUAXNZMUAH
root@arm:~# MARKER='GBST''GHJCAT' run 'echo 710000 710000 > /sys/kernel/mva_test//regulators/buck1_set'
GBSTGHJCATGBSTGHJCAT 0
root@arm:~# echo 'WQKY''OVQFFY'
WQKYOVQFFY
root@arm:~# MARKER='QFWK''WAWKOK' run 'i2cget -y -f 2 0x4b 0xd'
QFWKWAWKOK0x01
QFWKWAWKOK 0
root@arm:~# echo 'UKTC''FYZOTE'
UKTCFYZOTE
root@arm:~# MARKER='HEKH''WHNTZM' run 'echo 720000 720000 > /sys/kernel/mva_test//regulators/buck1_set'
HEKHWHNTZMHEKHWHNTZM 0
root@arm:~# echo 'XXSZ''YHUATB'
XXSZYHUATB
root@arm:~# MARKER='JZEA''THOSBC' run 'i2cget -y -f 2 0x4b 0xd'
JZEATHOSBC0x02
JZEATHOSBC 0
root@arm:~# echo 'BLXG''YMXSGQ'
BLXGYMXSGQ
root@arm:~# MARKER='KFTZ''XOPUJZ' run 'echo 730000 730000 > /sys/kernel/mva_test//regulators/buck1_set'
KFTZXOPUJZKFTZXOPUJZ 0
root@arm:~# echo 'LKTB''FKKUNX'
LKTBFKKUNX
root@arm:~# MARKER='FXWU''JAOQPU' run 'i2cget -y -f 2 0x4b 0xd'
FXWUJAOQPU0x03
FXWUJAOQPU 0
root@arm:~# echo 'OHTM''EULXXQ'
OHTMEULXXQ
root@arm:~# MARKER='MXJK''GSYHZE' run 'echo 740000 740000 > /sys/kernel/mva_test//regulators/buck1_set'
MXJKGSYHZEMXJKGSYHZE 0
root@arm:~# echo 'XXWG''ABHUOW'
XXWGABHUOW
root@arm:~# MARKER='XMAH''XXYYVP' run 'i2cget -y -f 2 0x4b 0xd'
XMAHXXYYVP0x04
XMAHXXYYVP 0
root@arm:~# echo 'JCNU''BTWQFH'
JCNUBTWQFH
root@arm:~# MARKER='SCXA''ZPPQYE' run 'echo 750000 750000 > /sys/kernel/mva_test//regulators/buck1_set'
SCXAZPPQYESCXAZPPQYE 0
root@arm:~# echo 'LFTL''XSKZTL'
LFTLXSKZTL
root@arm:~# MARKER='FQAA''KHHNXY' run 'i2cget -y -f 2 0x4b 0xd'
FQAAKHHNXY0x05
FQAAKHHNXY 0
root@arm:~# echo 'SFZG''NFQFUF'
SFZGNFQFUF
root@arm:~# MARKER='PWNP''GBLLVC' run 'echo 760000 760000 > /sys/kernel/mva_test//regulators/buck1_set'
PWNPGBLLVCPWNPGBLLVC 0
root@arm:~# echo 'YVCK''LOLXMP'
YVCKLOLXMP
root@arm:~# MARKER='XZTM''JXPZKM' run 'i2cget -y -f 2 0x4b 0xd'
XZTMJXPZKM0x06
XZTMJXPZKM 0
root@arm:~# echo 'HZTB''NYCAZH'
HZTBNYCAZH
root@arm:~# MARKER='HOAN''NNPFZT' run 'echo 770000 770000 > /sys/kernel/mva_test//regulators/buck1_set'
HOANNNPFZTHOANNNPFZT 0
root@arm:~# echo 'HXMK''LCGHAW'
HXMKLCGHAW
root@arm:~# MARKER='SVPP''NCSZOY' run 'i2cget -y -f 2 0x4b 0xd'
SVPPNCSZOY0x07
SVPPNCSZOY 0
root@arm:~# echo 'QPMX''VEQVUJ'
QPMXVEQVUJ
root@arm:~# MARKER='OCBZ''CSPJTH' run 'echo 780000 780000 > /sys/kernel/mva_test//regulators/buck1_set'
OCBZCSPJTHOCBZCSPJTH 0
root@arm:~# echo 'NEEC''WCYLOW'
NEECWCYLOW
root@arm:~# MARKER='ZMWK''OAJSOB' run 'i2cget -y -f 2 0x4b 0xd'
ZMWKOAJSOB0x08
ZMWKOAJSOB 0
root@arm:~# echo 'FBKX''AWLQBO'
FBKXAWLQBO
root@arm:~# MARKER='UPFM''JOMVXU' run 'echo 790000 790000 > /sys/kernel/mva_test//regulators/buck1_set'
UPFMJOMVXUUPFMJOMVXU 0
root@arm:~# echo 'WFXC''LCASTZ'
WFXCLCASTZ
root@arm:~# MARKER='VKUM''MHFYWE' run 'i2cget -y -f 2 0x4b 0xd'
VKUMMHFYWE0x09
VKUMMHFYWE 0
root@arm:~# echo 'LAKX''BYKHTY'
LAKXBYKHTY
root@arm:~# MARKER='XOFP''ALXWSH' run 'echo 800000 800000 > /sys/kernel/mva_test//regulators/buck1_set'
XOFPALXWSHXOFPALXWSH 0
root@arm:~# echo 'YAHA''YAJLGA'
YAHAYAJLGA
root@arm:~# MARKER='HEWK''XYKQPP' run 'i2cget -y -f 2 0x4b 0xd'
HEWKXYKQPP0x0a
HEWKXYKQPP 0
root@arm:~# echo 'TNFK''GQTWTP'
TNFKGQTWTP
root@arm:~# MARKER='LEJK''LCNYAW' run 'echo 810000 810000 > /sys/kernel/mva_test//regulators/buck1_set'
LEJKLCNYAWLEJKLCNYAW 0
root@arm:~# echo 'LKEN''XWBTST'
LKENXWBTST
root@arm:~# MARKER='GCAO''QSTWZE' run 'i2cget -y -f 2 0x4b 0xd'
GCAOQSTWZE0x0b
GCAOQSTWZE 0
root@arm:~# echo 'VBKP''PTZKQM'
VBKPPTZKQM
root@arm:~# MARKER='TXPO''PHFTNG' run 'echo 820000 820000 > /sys/kernel/mva_test//regulators/buck1_set'
TXPOPHFTNGTXPOPHFTNG 0
root@arm:~# echo 'BUWA''CQZCGZ'
BUWACQZCGZ
root@arm:~# MARKER='CESU''SUMNCC' run 'i2cget -y -f 2 0x4b 0xd'
CESUSUMNCC0x0c
CESUSUMNCC 0
root@arm:~# echo 'VTHW''JMBFVK'
VTHWJMBFVK
root@arm:~# MARKER='YUPN''LUVJNL' run 'echo 830000 830000 > /sys/kernel/mva_test//regulators/buck1_set'
YUPNLUVJNLYUPNLUVJNL 0
root@arm:~# echo 'ZZLX''CAATYM'
ZZLXCAATYM
root@arm:~# MARKER='OEUO''XLQFGT' run 'i2cget -y -f 2 0x4b 0xd'
OEUOXLQFGT0x0d
OEUOXLQFGT 0
root@arm:~# echo 'CAHF''MEYYOP'
CAHFMEYYOP
root@arm:~# MARKER='JSKU''HYZMPJ' run 'echo 840000 840000 > /sys/kernel/mva_test//regulators/buck1_set'
JSKUHYZMPJJSKUHYZMPJ 0
root@arm:~# echo 'LLPM''OMHWFH'
LLPMOMHWFH
root@arm:~# MARKER='WVCG''ACVYLK' run 'i2cget -y -f 2 0x4b 0xd'
WVCGACVYLK0x0e
WVCGACVYLK 0
root@arm:~# echo 'EGWU''QEPKEP'
EGWUQEPKEP
root@arm:~# MARKER='CEFC''UPFEPJ' run 'echo 850000 850000 > /sys/kernel/mva_test//regulators/buck1_set'
CEFCUPFEPJCEFCUPFEPJ 0
root@arm:~# echo 'CZWH''VMFBAK'
CZWHVMFBAK
root@arm:~# MARKER='AGTC''OFUHSU' run 'i2cget -y -f 2 0x4b 0xd'
AGTCOFUHSU0x0f
AGTCOFUHSU 0
root@arm:~# echo 'STLW''UNJFQS'
STLWUNJFQS
root@arm:~# MARKER='WUFC''WJSSZB' run 'echo 860000 860000 > /sys/kernel/mva_test//regulators/buck1_set'
WUFCWJSSZBWUFCWJSSZB 0
root@arm:~# echo 'SXZF''YZCOXT'
SXZFYZCOXT
root@arm:~# MARKER='YWKO''MWYHQW' run 'i2cget -y -f 2 0x4b 0xd'
YWKOMWYHQW0x10
YWKOMWYHQW 0
root@arm:~# echo 'CBNE''PBKOFY'
CBNEPBKOFY
root@arm:~# MARKER='WLCL''XNQAMO' run 'echo 870000 870000 > /sys/kernel/mva_test//regulators/buck1_set'
WLCLXNQAMOWLCLXNQAMO 0
root@arm:~# echo 'WJMH''PLWYWC'
WJMHPLWYWC
root@arm:~# MARKER='ZOPV''FMANYM' run 'i2cget -y -f 2 0x4b 0xd'
ZOPVFMANYM0x11
ZOPVFMANYM 0
root@arm:~# echo 'GCMH''SNMJXB'
GCMHSNMJXB
root@arm:~# MARKER='TYWX''KCBVTT' run 'echo 880000 880000 > /sys/kernel/mva_test//regulators/buck1_set'
TYWXKCBVTTTYWXKCBVTT 0
root@arm:~# echo 'JHUN''EGLYGH'
JHUNEGLYGH
root@arm:~# MARKER='HLSV''XXSTSL' run 'i2cget -y -f 2 0x4b 0xd'
HLSVXXSTSL0x12
HLSVXXSTSL 0
root@arm:~# echo 'UWYA''FYAOZF'
UWYAFYAOZF
root@arm:~# MARKER='EESF''ZVGSAA' run 'echo 890000 890000 > /sys/kernel/mva_test//regulators/buck1_set'
EESFZVGSAAEESFZVGSAA 0
root@arm:~# echo 'EJNP''EMVQNC'
EJNPEMVQNC
root@arm:~# MARKER='NUCC''HKHSCN' run 'i2cget -y -f 2 0x4b 0xd'
NUCCHKHSCN0x13
NUCCHKHSCN 0
root@arm:~# echo 'LVXW''TSXOGU'
LVXWTSXOGU
root@arm:~# MARKER='GTGF''FCQPUP' run 'echo 900000 900000 > /sys/kernel/mva_test//regulators/buck1_set'
GTGFFCQPUPGTGFFCQPUP 0
root@arm:~# echo 'NBYY''GJUJGG'
NBYYGJUJGG
root@arm:~# MARKER='PZOZ''MNHWHK' run 'i2cget -y -f 2 0x4b 0xd'
PZOZMNHWHK0x14
PZOZMNHWHK 0
root@arm:~# echo 'UOBE''GOYEHB'
UOBEGOYEHB
root@arm:~# MARKER='UKPN''SLBJME' run 'echo 910000 910000 > /sys/kernel/mva_test//regulators/buck1_set'
UKPNSLBJMEUKPNSLBJME 0
root@arm:~# echo 'TTUB''WGOTBY'
TTUBWGOTBY
root@arm:~# MARKER='VCBP''FGUOJA' run 'i2cget -y -f 2 0x4b 0xd'
VCBPFGUOJA0x15
VCBPFGUOJA 0
root@arm:~# echo 'HAPJ''NYHZPE'
HAPJNYHZPE
root@arm:~# MARKER='LZBK''HBVPMB' run 'echo 920000 920000 > /sys/kernel/mva_test//regulators/buck1_set'
LZBKHBVPMBLZBKHBVPMB 0
root@arm:~# echo 'UGKQ''VPQSUP'
UGKQVPQSUP
root@arm:~# MARKER='VVMP''ZPAXTT' run 'i2cget -y -f 2 0x4b 0xd'
VVMPZPAXTT0x16
VVMPZPAXTT 0
root@arm:~# echo 'YCJL''HLAWJC'
YCJLHLAWJC
root@arm:~# MARKER='BOCV''MWSGXP' run 'echo 930000 930000 > /sys/kernel/mva_test//regulators/buck1_set'
BOCVMWSGXPBOCVMWSGXP 0
root@arm:~# echo 'ZAJA''BSPYTE'
ZAJABSPYTE
root@arm:~# MARKER='VNUT''QMXOPW' run 'i2cget -y -f 2 0x4b 0xd'
VNUTQMXOPW0x17
VNUTQMXOPW 0
root@arm:~# echo 'NLHE''TCCNZX'
NLHETCCNZX
root@arm:~# MARKER='ZHNW''JUFYTB' run 'echo 940000 940000 > /sys/kernel/mva_test//regulators/buck1_set'
ZHNWJUFYTBZHNWJUFYTB 0
root@arm:~# echo 'WQEM''TFYYGE'
WQEMTFYYGE
root@arm:~# MARKER='CGYY''CKCMKO' run 'i2cget -y -f 2 0x4b 0xd'
CGYYCKCMKO0x18
CGYYCKCMKO 0
root@arm:~# echo 'JHGH''XQQENP'
JHGHXQQENP
root@arm:~# MARKER='LVMK''PYOAHF' run 'echo 950000 950000 > /sys/kernel/mva_test//regulators/buck1_set'
LVMKPYOAHFLVMKPYOAHF 0
root@arm:~# echo 'GAWH''LGAZLX'
GAWHLGAZLX
root@arm:~# MARKER='PFUO''WASSOK' run 'i2cget -y -f 2 0x4b 0xd'
PFUOWASSOK0x19
PFUOWASSOK 0
root@arm:~# echo 'XAQG''ZHONWN'
XAQGZHONWN
root@arm:~# MARKER='ZUAK''BKCUHN' run 'echo 960000 960000 > /sys/kernel/mva_test//regulators/buck1_set'
ZUAKBKCUHNZUAKBKCUHN 0
root@arm:~# echo 'CAPE''CBBLZW'
CAPECBBLZW
root@arm:~# MARKER='OSJZ''EWMFHU' run 'i2cget -y -f 2 0x4b 0xd'
OSJZEWMFHU0x1a
OSJZEWMFHU 0
root@arm:~# echo 'ALVQ''PWGXME'
ALVQPWGXME
root@arm:~# MARKER='XYUC''NVFLSM' run 'echo 970000 970000 > /sys/kernel/mva_test//regulators/buck1_set'
XYUCNVFLSMXYUCNVFLSM 0
root@arm:~# echo 'YYUY''APBZLW'
YYUYAPBZLW
root@arm:~# MARKER='CUTW''FYLXAQ' run 'i2cget -y -f 2 0x4b 0xd'
CUTWFYLXAQ0x1b
CUTWFYLXAQ 0
root@arm:~# echo 'JXKE''TUBAWJ'
JXKETUBAWJ
root@arm:~# MARKER='HJNA''BWQGKQ' run 'echo 980000 980000 > /sys/kernel/mva_test//regulators/buck1_set'
HJNABWQGKQHJNABWQGKQ 0
root@arm:~# echo 'HQOU''YYYGPX'
HQOUYYYGPX
root@arm:~# MARKER='QYTW''LQYYYM' run 'i2cget -y -f 2 0x4b 0xd'
QYTWLQYYYM0x1c
QYTWLQYYYM 0
root@arm:~# echo 'JGVL''SHPSZW'
JGVLSHPSZW
root@arm:~# MARKER='KTOY''LUSXMZ' run 'echo 990000 990000 > /sys/kernel/mva_test//regulators/buck1_set'
KTOYLUSXMZKTOYLUSXMZ 0
root@arm:~# echo 'XZSO''PFMZLG'
XZSOPFMZLG
root@arm:~# MARKER='OAHN''YFMGOH' run 'i2cget -y -f 2 0x4b 0xd'
OAHNYFMGOH0x1d
OAHNYFMGOH 0
root@arm:~# echo 'ZKQB''BAKTZC'
ZKQBBAKTZC
root@arm:~# MARKER='ZCOW''FJFYVQ' run 'echo 1000000 1000000 > /sys/kernel/mva_tesst/regulators/buck1_set'
ZCOWFJFYVQZCOWFJFYVQ 0
root@arm:~# echo 'TVGH''HEHUAV'
TVGHHEHUAV
root@arm:~# MARKER='BMKS''MHMSFE' run 'i2cget -y -f 2 0x4b 0xd'
BMKSMHMSFE0x1e
BMKSMHMSFE 0
root@arm:~# echo 'SOBC''KASPTF'
SOBCKASPTF
root@arm:~# MARKER='TFAE''PFAJOB' run 'echo 1010000 1010000 > /sys/kernel/mva_tesst/regulators/buck1_set'
TFAEPFAJOBTFAEPFAJOB 0
root@arm:~# echo 'XPNH''FVJPVJ'
XPNHFVJPVJ
root@arm:~# MARKER='WBFF''WMJEXA' run 'i2cget -y -f 2 0x4b 0xd'
WBFFWMJEXA0x1f
WBFFWMJEXA 0
root@arm:~# echo 'XWLW''GABHHQ'
XWLWGABHHQ
root@arm:~# MARKER='XVTT''SCNMNF' run 'echo 1020000 1020000 > /sys/kernel/mva_tesst/regulators/buck1_set'
XVTTSCNMNFXVTTSCNMNF 0
root@arm:~# echo 'SMUJ''UWOKWF'
SMUJUWOKWF
root@arm:~# MARKER='ZJTH''NWPNPC' run 'i2cget -y -f 2 0x4b 0xd'
ZJTHNWPNPC0x20
ZJTHNWPNPC 0
root@arm:~# echo 'BKMJ''OEZQTW'
BKMJOEZQTW
root@arm:~# MARKER='CCJL''JFHVTP' run 'echo 1030000 1030000 > /sys/kernel/mva_tesst/regulators/buck1_set'
CCJLJFHVTPCCJLJFHVTP 0
root@arm:~# echo 'CWQY''GQJSFY'
CWQYGQJSFY
root@arm:~# MARKER='MVSK''MZBJGO' run 'i2cget -y -f 2 0x4b 0xd'
MVSKMZBJGO0x21
MVSKMZBJGO 0
root@arm:~# echo 'VOVX''GTMQNL'
VOVXGTMQNL
root@arm:~# MARKER='UVZO''UEMZJF' run 'echo 1040000 1040000 > /sys/kernel/mva_tesst/regulators/buck1_set'
UVZOUEMZJFUVZOUEMZJF 0
root@arm:~# echo 'PAJY''QVWNMY'
PAJYQVWNMY
root@arm:~# MARKER='PCGF''YACVJM' run 'i2cget -y -f 2 0x4b 0xd'
PCGFYACVJM0x22
PCGFYACVJM 0
root@arm:~# echo 'EVQL''TOXVOZ'
EVQLTOXVOZ
root@arm:~# MARKER='TVMV''KVNNBP' run 'echo 1050000 1050000 > /sys/kernel/mva_tesst/regulators/buck1_set'
TVMVKVNNBPTVMVKVNNBP 0
root@arm:~# echo 'TTGP''LVBYVZ'
TTGPLVBYVZ
root@arm:~# MARKER='TBAK''WUAFMV' run 'i2cget -y -f 2 0x4b 0xd'
TBAKWUAFMV0x23
TBAKWUAFMV 0
root@arm:~# echo 'BLAY''EQNAEA'
BLAYEQNAEA
root@arm:~# MARKER='TOMC''SNUHWN' run 'echo 1060000 1060000 > /sys/kernel/mva_tesst/regulators/buck1_set'
TOMCSNUHWNTOMCSNUHWN 0
root@arm:~# echo 'XYUQ''CPSLOE'
XYUQCPSLOE
root@arm:~# MARKER='JZSS''QTGZHP' run 'i2cget -y -f 2 0x4b 0xd'
JZSSQTGZHP0x24
JZSSQTGZHP 0
root@arm:~# echo 'ANWA''BLLQGU'
ANWABLLQGU
root@arm:~# MARKER='VHHN''POBBYT' run 'echo 1070000 1070000 > /sys/kernel/mva_tesst/regulators/buck1_set'
VHHNPOBBYTVHHNPOBBYT 0
root@arm:~# echo 'UCVP''CLHKXN'
UCVPCLHKXN
root@arm:~# MARKER='NBBC''HXNBQP' run 'i2cget -y -f 2 0x4b 0xd'
NBBCHXNBQP0x25
NBBCHXNBQP 0
root@arm:~# echo 'SACX''CXLXVN'
SACXCXLXVN
root@arm:~# MARKER='XPYV''NMAFGK' run 'echo 1080000 1080000 > /sys/kernel/mva_tesst/regulators/buck1_set'
XPYVNMAFGKXPYVNMAFGK 0
root@arm:~# echo 'JPCW''QTQMNK'
JPCWQTQMNK
root@arm:~# MARKER='QBCA''LAMWXP' run 'i2cget -y -f 2 0x4b 0xd'
QBCALAMWXP0x26
QBCALAMWXP 0
root@arm:~# echo 'MPHF''JSBBCK'
MPHFJSBBCK
root@arm:~# MARKER='AUTN''UOKAGS' run 'echo 1090000 1090000 > /sys/kernel/mva_tesst/regulators/buck1_set'
AUTNUOKAGSAUTNUOKAGS 0
root@arm:~# echo 'CBGS''SJHHUH'
CBGSSJHHUH
root@arm:~# MARKER='GTVV''PHXLHL' run 'i2cget -y -f 2 0x4b 0xd'
GTVVPHXLHL0x27
GTVVPHXLHL 0
root@arm:~# echo 'XXVY''ZAQHVA'
XXVYZAQHVA
root@arm:~# MARKER='PYKU''EJQYHO' run 'echo 1100000 1100000 > /sys/kernel/mva_tesst/regulators/buck1_set'
PYKUEJQYHOPYKUEJQYHO 0
root@arm:~# echo 'ZKBK''XKQYBC'
ZKBKXKQYBC
root@arm:~# MARKER='AZXQ''JLNPTC' run 'i2cget -y -f 2 0x4b 0xd'
AZXQJLNPTC0x28
AZXQJLNPTC 0
root@arm:~# echo 'SXJA''THZAGX'
SXJATHZAGX
root@arm:~# MARKER='UEWG''XSEUTH' run 'echo 1110000 1110000 > /sys/kernel/mva_tesst/regulators/buck1_set'
UEWGXSEUTHUEWGXSEUTH 0
root@arm:~# echo 'HGPU''MTCNYF'
HGPUMTCNYF
root@arm:~# MARKER='LLAT''QNPGQX' run 'i2cget -y -f 2 0x4b 0xd'
LLATQNPGQX0x29
LLATQNPGQX 0
root@arm:~# echo 'KGSF''MPHUZT'
KGSFMPHUZT
root@arm:~# MARKER='BPBX''UUVAUE' run 'echo 1120000 1120000 > /sys/kernel/mva_tesst/regulators/buck1_set'
BPBXUUVAUEBPBXUUVAUE 0
root@arm:~# echo 'QNLA''UMVJJY'
QNLAUMVJJY
root@arm:~# MARKER='ZAAK''UHEMMS' run 'i2cget -y -f 2 0x4b 0xd'
ZAAKUHEMMS0x2a
ZAAKUHEMMS 0
root@arm:~# echo 'EGZV''QOEGKH'
EGZVQOEGKH
root@arm:~# MARKER='VLNS''SMPKYQ' run 'echo 1130000 1130000 > /sys/kernel/mva_tesst/regulators/buck1_set'
VLNSSMPKYQVLNSSMPKYQ 0
root@arm:~# echo 'SPLX''EKTAQC'
SPLXEKTAQC
root@arm:~# MARKER='EQAA''UGZQQA' run 'i2cget -y -f 2 0x4b 0xd'
EQAAUGZQQA0x2b
EQAAUGZQQA 0
root@arm:~# echo 'XVYZ''EASKAU'
XVYZEASKAU
root@arm:~# MARKER='VSHS''WEQEBP' run 'echo 1140000 1140000 > /sys/kernel/mva_tesst/regulators/buck1_set'
VSHSWEQEBPVSHSWEQEBP 0
root@arm:~# echo 'FQWN''AYQZKF'
FQWNAYQZKF
root@arm:~# MARKER='QMBA''UWCPOV' run 'i2cget -y -f 2 0x4b 0xd'
QMBAUWCPOV0x2c
QMBAUWCPOV 0
root@arm:~# echo 'HWAZ''KVKZTT'
HWAZKVKZTT
root@arm:~# MARKER='QHOB''HSZFTO' run 'echo 1150000 1150000 > /sys/kernel/mva_tesst/regulators/buck1_set'
QHOBHSZFTOQHOBHSZFTO 0
root@arm:~# echo 'JTUU''ZMGVMU'
JTUUZMGVMU
root@arm:~# MARKER='SYVQ''BVQZJT' run 'i2cget -y -f 2 0x4b 0xd'
SYVQBVQZJT0x2d
SYVQBVQZJT 0
root@arm:~# echo 'XXPH''NNGBBL'
XXPHNNGBBL
root@arm:~# MARKER='BOZK''KSLBEX' run 'echo 1160000 1160000 > /sys/kernel/mva_tesst/regulators/buck1_set'
BOZKKSLBEXBOZKKSLBEX 0
root@arm:~# echo 'JMBK''EJLQQP'
JMBKEJLQQP
root@arm:~# MARKER='BCOB''EKGQBT' run 'i2cget -y -f 2 0x4b 0xd'
BCOBEKGQBT0x2e
BCOBEKGQBT 0
root@arm:~# echo 'XWTN''JLXOCA'
XWTNJLXOCA
root@arm:~# MARKER='UEBB''MPPEAM' run 'echo 1170000 1170000 > /sys/kernel/mva_tesst/regulators/buck1_set'
UEBBMPPEAMUEBBMPPEAM 0
root@arm:~# echo 'ZLHB''HJFUUU'
ZLHBHJFUUU
root@arm:~# MARKER='OKHB''CVOVVH' run 'i2cget -y -f 2 0x4b 0xd'
OKHBCVOVVH0x2f
OKHBCVOVVH 0
root@arm:~# echo 'HSCN''FNQFKY'
HSCNFNQFKY
root@arm:~# MARKER='YXJZ''UGMSQE' run 'echo 1180000 1180000 > /sys/kernel/mva_tesst/regulators/buck1_set'
YXJZUGMSQEYXJZUGMSQE 0
root@arm:~# echo 'HVHC''UGHXQN'
HVHCUGHXQN
root@arm:~# MARKER='VSBF''JJQNVU' run 'i2cget -y -f 2 0x4b 0xd'
VSBFJJQNVU0x30
VSBFJJQNVU 0
root@arm:~# echo 'UZWP''CUZAHP'
UZWPCUZAHP
root@arm:~# MARKER='TJCT''TTWWGL' run 'echo 1190000 1190000 > /sys/kernel/mva_tesst/regulators/buck1_set'
TJCTTTWWGLTJCTTTWWGL 0
root@arm:~# echo 'BVHT''CXTMOW'
BVHTCXTMOW
root@arm:~# MARKER='HFTX''BXNNOL' run 'i2cget -y -f 2 0x4b 0xd'
HFTXBXNNOL0x31
HFTXBXNNOL 0
root@arm:~# echo 'ZZLH''SNYMBS'
ZZLHSNYMBS
root@arm:~# MARKER='GBKV''QWYOUQ' run 'echo 1200000 1200000 > /sys/kernel/mva_tesst/regulators/buck1_set'
GBKVQWYOUQGBKVQWYOUQ 0
root@arm:~# echo 'SUKX''GGMQYW'
SUKXGGMQYW
root@arm:~# MARKER='BQYS''XBNFSJ' run 'i2cget -y -f 2 0x4b 0xd'
BQYSXBNFSJ0x32
BQYSXBNFSJ 0
root@arm:~# echo 'WLNY''TUYCVH'
WLNYTUYCVH
root@arm:~# MARKER='GFLW''JVUQOA' run 'echo 1210000 1210000 > /sys/kernel/mva_tesst/regulators/buck1_set'
GFLWJVUQOAGFLWJVUQOA 0
root@arm:~# echo 'LSJT''JVXFTC'
LSJTJVXFTC
root@arm:~# MARKER='EVAF''GPWJJT' run 'i2cget -y -f 2 0x4b 0xd'
EVAFGPWJJT0x33
EVAFGPWJJT 0
root@arm:~# echo 'MCNB''GEKHMT'
MCNBGEKHMT
root@arm:~# MARKER='TMQT''YYLFFW' run 'echo 1220000 1220000 > /sys/kernel/mva_tesst/regulators/buck1_set'
TMQTYYLFFWTMQTYYLFFW 0
root@arm:~# echo 'SHGT''AHQJZC'
SHGTAHQJZC
root@arm:~# MARKER='MKAG''GQFPZZ' run 'i2cget -y -f 2 0x4b 0xd'
MKAGGQFPZZ0x34
MKAGGQFPZZ 0
root@arm:~# echo 'YSHL''XOHJUZ'
YSHLXOHJUZ
root@arm:~# MARKER='VSEH''SJFMFS' run 'echo 1230000 1230000 > /sys/kernel/mva_tesst/regulators/buck1_set'
VSEHSJFMFSVSEHSJFMFS 0
root@arm:~# echo 'MLCY''PCOAHF'
MLCYPCOAHF
root@arm:~# MARKER='VTGP''UBZOKQ' run 'i2cget -y -f 2 0x4b 0xd'
VTGPUBZOKQ0x35
VTGPUBZOKQ 0
root@arm:~# echo 'JFSZ''HOFVPC'
JFSZHOFVPC
root@arm:~# MARKER='SVTC''AHOXSS' run 'echo 1240000 1240000 > /sys/kernel/mva_tesst/regulators/buck1_set'
SVTCAHOXSSSVTCAHOXSS 0
root@arm:~# echo 'PGKM''AASPBX'
PGKMAASPBX
root@arm:~# MARKER='VFBB''PXMWUM' run 'i2cget -y -f 2 0x4b 0xd'
VFBBPXMWUM0x36
VFBBPXMWUM 0
root@arm:~# echo 'NQBT''MBYUPZ'
NQBTMBYUPZ
root@arm:~# MARKER='BNWL''MHXHZX' run 'echo 1250000 1250000 > /sys/kernel/mva_tesst/regulators/buck1_set'
BNWLMHXHZXBNWLMHXHZX 0
root@arm:~# echo 'CYPM''SJOUMH'
CYPMSJOUMH
root@arm:~# MARKER='CXYF''SPKNWN' run 'i2cget -y -f 2 0x4b 0xd'
CXYFSPKNWN0x37
CXYFSPKNWN 0
root@arm:~# echo 'CFAT''AHSZEJ'
CFATAHSZEJ
root@arm:~# MARKER='GKNY''JNSLLW' run 'echo 1260000 1260000 > /sys/kernel/mva_tesst/regulators/buck1_set'
GKNYJNSLLWGKNYJNSLLW 0
root@arm:~# echo 'BJJY''VKNPLQ'
BJJYVKNPLQ
root@arm:~# MARKER='HMUP''ZEMNGN' run 'i2cget -y -f 2 0x4b 0xd'
HMUPZEMNGN0x38
HMUPZEMNGN 0
root@arm:~# echo 'VOGK''KFKWMX'
VOGKKFKWMX
root@arm:~# MARKER='KQOP''HMPCCZ' run 'echo 1270000 1270000 > /sys/kernel/mva_tesst/regulators/buck1_set'
KQOPHMPCCZKQOPHMPCCZ 0
root@arm:~# echo 'ANYT''YKJULT'
ANYTYKJULT
root@arm:~# MARKER='WUEU''YEFTEM' run 'i2cget -y -f 2 0x4b 0xd'
WUEUYEFTEM0x39
WUEUYEFTEM 0
root@arm:~# echo 'CXMZ''CNSCLX'
CXMZCNSCLX
root@arm:~# MARKER='PBLV''PQNXKX' run 'echo 1280000 1280000 > /sys/kernel/mva_tesst/regulators/buck1_set'
PBLVPQNXKXPBLVPQNXKX 0
root@arm:~# echo 'VNMY''LQLFQA'
VNMYLQLFQA
root@arm:~# MARKER='WHEF''MYAXGJ' run 'i2cget -y -f 2 0x4b 0xd'
WHEFMYAXGJ0x3a
WHEFMYAXGJ 0
root@arm:~# echo 'UKVH''PMEQMA'
UKVHPMEQMA
root@arm:~# MARKER='QCUG''CSXEBC' run 'echo 1290000 1290000 > /sys/kernel/mva_tesst/regulators/buck1_set'
QCUGCSXEBCQCUGCSXEBC 0
root@arm:~# echo 'KFML''ZOJMLM'
KFMLZOJMLM
root@arm:~# MARKER='BQLL''OJECNC' run 'i2cget -y -f 2 0x4b 0xd'
BQLLOJECNC0x3b
BQLLOJECNC 0
root@arm:~# echo 'FVEK''LMNMCA'
FVEKLMNMCA
root@arm:~# MARKER='KQUW''CZXGBB' run 'echo 1300000 1300000 > /sys/kernel/mva_tesst/regulators/buck1_set'
KQUWCZXGBBKQUWCZXGBB 0
root@arm:~# echo 'CPNX''HNCBKC'
CPNXHNCBKC
root@arm:~# MARKER='YPAX''ZWLKUH' run 'i2cget -y -f 2 0x4b 0xd'
YPAXZWLKUH0x3c
YPAXZWLKUH 0
root@arm:~# echo 'NBPH''NAQUXH'
NBPHNAQUXH
root@arm:~# MARKER='ZSVP''HPUZYJ' run 'grep -r -l rohm,bd71837 /proc/device-tree  | sed '"'"'s![^/]*$!!'"'"''
ZSVPHPUZYJ/proc/device-tree/ocp/interconnect@48000000/segment@100000/target-module@9c000/i2c@0/pmic@4b/
ZSVPHPUZYJ 0
root@arm:~# echo 'AQWE''BCGLQO'
AQWEBCGLQO
root@arm:~# MARKER='BLKZ''OAPMMH' run 'test -f /proc/device-tree/ocp/interconnectt\@48000000/segment\@100000/target-module\@9c000/i2c\@0/pmic\@4b/regulators/BUCK22/rohm,no-regulator-enable-control ;echo $?'
BLKZOAPMMH1
BLKZOAPMMH 0
root@arm:~# echo 'UKJL''KVVNLJ'
UKJLKVVNLJ
root@arm:~# MARKER='GQZV''HABOVP' run 'i2cget -y -f 2 0x4b 0x6'
GQZVHABOVP0x43
GQZVHABOVP 0
root@arm:~# echo 'BHXO''ULFHHX'
BHXOULFHHX
root@arm:~# MARKER='YLOQ''AHWCJM' run 'echo 700000 700000 > /sys/kernel/mva_test//regulators/buck2_set'
YLOQAHWCJMYLOQAHWCJM 0
root@arm:~# echo 'QNVB''SBYGSN'
QNVBSBYGSN
root@arm:~# MARKER='AUBA''GHZYHK' run 'i2cget -y -f 2 0x4b 0x10'
AUBAGHZYHK0x00
AUBAGHZYHK 0
root@arm:~# echo 'QUMV''NGCQZX'
QUMVNGCQZX
root@arm:~# MARKER='JCXC''LMUQFN' run 'echo 710000 710000 > /sys/kernel/mva_test//regulators/buck2_set'
JCXCLMUQFNJCXCLMUQFN 0
root@arm:~# echo 'FOJG''TUBQQP'
FOJGTUBQQP
root@arm:~# MARKER='OKWN''CBCAJK' run 'i2cget -y -f 2 0x4b 0x10'
OKWNCBCAJK0x01
OKWNCBCAJK 0
root@arm:~# echo 'UXSW''VOUEYO'
UXSWVOUEYO
root@arm:~# MARKER='QCWU''CBPFQM' run 'echo 720000 720000 > /sys/kernel/mva_test//regulators/buck2_set'
QCWUCBPFQMQCWUCBPFQM 0
root@arm:~# echo 'FZTM''ULGZPF'
FZTMULGZPF
root@arm:~# MARKER='EVTJ''ZOYYVO' run 'i2cget -y -f 2 0x4b 0x10'
EVTJZOYYVO0x02
EVTJZOYYVO 0
root@arm:~# echo 'SHYB''GXAPTX'
SHYBGXAPTX
root@arm:~# MARKER='PFOT''UEHKSO' run 'echo 730000 730000 > /sys/kernel/mva_test//regulators/buck2_set'
PFOTUEHKSOPFOTUEHKSO 0
root@arm:~# echo 'BSBQ''ZHKGZM'
BSBQZHKGZM
root@arm:~# MARKER='PBEL''PEXVWP' run 'i2cget -y -f 2 0x4b 0x10'
PBELPEXVWP0x03
PBELPEXVWP 0
root@arm:~# echo 'XJAE''LXLXEN'
XJAELXLXEN
root@arm:~# MARKER='AUVX''BYMMPJ' run 'echo 740000 740000 > /sys/kernel/mva_test//regulators/buck2_set'
AUVXBYMMPJAUVXBYMMPJ 0
root@arm:~# echo 'QHOM''LUCLSV'
QHOMLUCLSV
root@arm:~# MARKER='FVLJ''XASNXL' run 'i2cget -y -f 2 0x4b 0x10'
FVLJXASNXL0x04
FVLJXASNXL 0
root@arm:~# echo 'JKSK''GGJHYC'
JKSKGGJHYC
root@arm:~# MARKER='EKEL''OQLVVH' run 'echo 750000 750000 > /sys/kernel/mva_test//regulators/buck2_set'
EKELOQLVVHEKELOQLVVH 0
root@arm:~# echo 'LLVE''TAFVZW'
LLVETAFVZW
root@arm:~# MARKER='STSM''EQCWYS' run 'i2cget -y -f 2 0x4b 0x10'
STSMEQCWYS0x05
STSMEQCWYS 0
root@arm:~# echo 'MFYK''FQANBZ'
MFYKFQANBZ
root@arm:~# MARKER='VUMH''JTVQFC' run 'echo 760000 760000 > /sys/kernel/mva_test//regulators/buck2_set'
VUMHJTVQFCVUMHJTVQFC 0
root@arm:~# echo 'KAVQ''GTZOQN'
KAVQGTZOQN
root@arm:~# MARKER='MKCN''NOZGEA' run 'i2cget -y -f 2 0x4b 0x10'
MKCNNOZGEA0x06
MKCNNOZGEA 0
root@arm:~# echo 'GQLE''OSVAWU'
GQLEOSVAWU
root@arm:~# MARKER='ABMJ''YUOKPW' run 'echo 770000 770000 > /sys/kernel/mva_test//regulators/buck2_set'
ABMJYUOKPWABMJYUOKPW 0
root@arm:~# echo 'KUCG''KMEJBU'
KUCGKMEJBU
root@arm:~# MARKER='EUQF''AHHFEK' run 'i2cget -y -f 2 0x4b 0x10'
EUQFAHHFEK0x07
EUQFAHHFEK 0
root@arm:~# echo 'ZSEC''ECEYXT'
ZSECECEYXT
root@arm:~# MARKER='BXJC''JGQTLA' run 'echo 780000 780000 > /sys/kernel/mva_test//regulators/buck2_set'
BXJCJGQTLABXJCJGQTLA 0
root@arm:~# echo 'YNSX''TTQAGK'
YNSXTTQAGK
root@arm:~# MARKER='HTSA''FZGNBC' run 'i2cget -y -f 2 0x4b 0x10'
HTSAFZGNBC0x08
HTSAFZGNBC 0
root@arm:~# echo 'CSSK''TGYJYA'
CSSKTGYJYA
root@arm:~# MARKER='CZUB''QLNMAG' run 'echo 790000 790000 > /sys/kernel/mva_test//regulators/buck2_set'
CZUBQLNMAGCZUBQLNMAG 0
root@arm:~# echo 'LBAT''UWAHAJ'
LBATUWAHAJ
root@arm:~# MARKER='EJFE''ZLPMJA' run 'i2cget -y -f 2 0x4b 0x10'
EJFEZLPMJA0x09
EJFEZLPMJA 0
root@arm:~# echo 'ZOWM''CNZPKQ'
ZOWMCNZPKQ
root@arm:~# MARKER='TPKQ''AUWJTF' run 'echo 800000 800000 > /sys/kernel/mva_test//regulators/buck2_set'
TPKQAUWJTFTPKQAUWJTF 0
root@arm:~# echo 'ESKZ''MFFQJZ'
ESKZMFFQJZ
root@arm:~# MARKER='HUFT''HUYKAP' run 'i2cget -y -f 2 0x4b 0x10'
HUFTHUYKAP0x0a
HUFTHUYKAP 0
root@arm:~# echo 'XJWM''HCWETO'
XJWMHCWETO
root@arm:~# MARKER='NXUU''XLKPUF' run 'echo 810000 810000 > /sys/kernel/mva_test//regulators/buck2_set'
NXUUXLKPUFNXUUXLKPUF 0
root@arm:~# echo 'LYEM''EWKYBQ'
LYEMEWKYBQ
root@arm:~# MARKER='XWYZ''CJNHLV' run 'i2cget -y -f 2 0x4b 0x10'
XWYZCJNHLV0x0b
XWYZCJNHLV 0
root@arm:~# echo 'VFAV''WYCUMC'
VFAVWYCUMC
root@arm:~# MARKER='MUXK''ECHAQQ' run 'echo 820000 820000 > /sys/kernel/mva_test//regulators/buck2_set'
MUXKECHAQQMUXKECHAQQ 0
root@arm:~# echo 'YASO''TKYKBF'
YASOTKYKBF
root@arm:~# MARKER='QCYG''ESMEZZ' run 'i2cget -y -f 2 0x4b 0x10'
QCYGESMEZZ0x0c
QCYGESMEZZ 0
root@arm:~# echo 'CEWB''MEXLZA'
CEWBMEXLZA
root@arm:~# MARKER='WYLG''ZTTJTE' run 'echo 830000 830000 > /sys/kernel/mva_test//regulators/buck2_set'
WYLGZTTJTEWYLGZTTJTE 0
root@arm:~# echo 'LGJL''BKCGBA'
LGJLBKCGBA
root@arm:~# MARKER='ECVS''XAXKYM' run 'i2cget -y -f 2 0x4b 0x10'
ECVSXAXKYM0x0d
ECVSXAXKYM 0
root@arm:~# echo 'PUYF''FJEPCC'
PUYFFJEPCC
root@arm:~# MARKER='CMZH''GEXJTZ' run 'echo 840000 840000 > /sys/kernel/mva_test//regulators/buck2_set'
CMZHGEXJTZCMZHGEXJTZ 0
root@arm:~# echo 'NKCT''LVSKYH'
NKCTLVSKYH
root@arm:~# MARKER='AOVB''PEWHXW' run 'i2cget -y -f 2 0x4b 0x10'
AOVBPEWHXW0x0e
AOVBPEWHXW 0
root@arm:~# echo 'BZGK''BOCQHY'
BZGKBOCQHY
root@arm:~# MARKER='AXGN''QJCHUG' run 'echo 850000 850000 > /sys/kernel/mva_test//regulators/buck2_set'
AXGNQJCHUGAXGNQJCHUG 0
root@arm:~# echo 'VVOJ''LQOKOU'
VVOJLQOKOU
root@arm:~# MARKER='PLWK''JHLSPT' run 'i2cget -y -f 2 0x4b 0x10'
PLWKJHLSPT0x0f
PLWKJHLSPT 0
root@arm:~# echo 'CCZV''XBCOQC'
CCZVXBCOQC
root@arm:~# MARKER='UTQY''FOQSPT' run 'echo 860000 860000 > /sys/kernel/mva_test//regulators/buck2_set'
UTQYFOQSPTUTQYFOQSPT 0
root@arm:~# echo 'XJUL''GJBVKC'
XJULGJBVKC
root@arm:~# MARKER='CXLG''VSKPZE' run 'i2cget -y -f 2 0x4b 0x10'
CXLGVSKPZE0x10
CXLGVSKPZE 0
root@arm:~# echo 'LMCQ''EGWVHS'
LMCQEGWVHS
root@arm:~# MARKER='JEBU''FZVXEL' run 'echo 870000 870000 > /sys/kernel/mva_test//regulators/buck2_set'
JEBUFZVXELJEBUFZVXEL 0
root@arm:~# echo 'NVYH''CLOCZQ'
NVYHCLOCZQ
root@arm:~# MARKER='AZQM''BQTHBH' run 'i2cget -y -f 2 0x4b 0x10'
AZQMBQTHBH0x11
AZQMBQTHBH 0
root@arm:~# echo 'KWNU''ASAQSE'
KWNUASAQSE
root@arm:~# MARKER='TUNO''BQMAWE' run 'echo 880000 880000 > /sys/kernel/mva_test//regulators/buck2_set'
TUNOBQMAWETUNOBQMAWE 0
root@arm:~# echo 'QPGG''KBHOHB'
QPGGKBHOHB
root@arm:~# MARKER='QBGS''KKZXAC' run 'i2cget -y -f 2 0x4b 0x10'
QBGSKKZXAC0x12
QBGSKKZXAC 0
root@arm:~# echo 'ABZQ''YKZLQN'
ABZQYKZLQN
root@arm:~# MARKER='NVZT''VEYPJE' run 'echo 890000 890000 > /sys/kernel/mva_test//regulators/buck2_set'
NVZTVEYPJENVZTVEYPJE 0
root@arm:~# echo 'WWJP''PJCSWE'
WWJPPJCSWE
root@arm:~# MARKER='UWYU''NPFWEF' run 'i2cget -y -f 2 0x4b 0x10'
UWYUNPFWEF0x13
UWYUNPFWEF 0
root@arm:~# echo 'STUL''EJZSOT'
STULEJZSOT
root@arm:~# MARKER='TGJB''EJXQPU' run 'echo 900000 900000 > /sys/kernel/mva_test//regulators/buck2_set'
TGJBEJXQPUTGJBEJXQPU 0
root@arm:~# echo 'JGUE''QWTVHB'
JGUEQWTVHB
root@arm:~# MARKER='LJQG''QOXGJW' run 'i2cget -y -f 2 0x4b 0x10'
LJQGQOXGJW0x14
LJQGQOXGJW 0
root@arm:~# echo 'UFAC''BHHFFU'
UFACBHHFFU
root@arm:~# MARKER='PCNN''LGEFZQ' run 'echo 910000 910000 > /sys/kernel/mva_test//regulators/buck2_set'
PCNNLGEFZQPCNNLGEFZQ 0
root@arm:~# echo 'EGWK''XPQGCP'
EGWKXPQGCP
root@arm:~# MARKER='WKGF''KPPFEA' run 'i2cget -y -f 2 0x4b 0x10'
WKGFKPPFEA0x15
WKGFKPPFEA 0
root@arm:~# echo 'VXTC''JYMVEZ'
VXTCJYMVEZ
root@arm:~# MARKER='MLHZ''FXMOVL' run 'echo 920000 920000 > /sys/kernel/mva_test//regulators/buck2_set'
MLHZFXMOVLMLHZFXMOVL 0
root@arm:~# echo 'GBST''CTZMWJ'
GBSTCTZMWJ
root@arm:~# MARKER='TEMB''OVGFOV' run 'i2cget -y -f 2 0x4b 0x10'
TEMBOVGFOV0x16
TEMBOVGFOV 0
root@arm:~# echo 'EHYN''NTTGKM'
EHYNNTTGKM
root@arm:~# MARKER='CFCN''BVGWZA' run 'echo 930000 930000 > /sys/kernel/mva_test//regulators/buck2_set'
CFCNBVGWZACFCNBVGWZA 0
root@arm:~# echo 'TKKE''VQMVWV'
TKKEVQMVWV
root@arm:~# MARKER='UGTL''BUOKMQ' run 'i2cget -y -f 2 0x4b 0x10'
UGTLBUOKMQ0x17
UGTLBUOKMQ 0
root@arm:~# echo 'CHEJ''GCAJJZ'
CHEJGCAJJZ
root@arm:~# MARKER='HBPO''HKZKUG' run 'echo 940000 940000 > /sys/kernel/mva_test//regulators/buck2_set'
HBPOHKZKUGHBPOHKZKUG 0
root@arm:~# echo 'HUMU''TSCSYO'
HUMUTSCSYO
root@arm:~# MARKER='HWUH''XPPHMT' run 'i2cget -y -f 2 0x4b 0x10'
HWUHXPPHMT0x18
HWUHXPPHMT 0
root@arm:~# echo 'MSOK''JPGBWN'
MSOKJPGBWN
root@arm:~# MARKER='GEEO''LZXOBE' run 'echo 950000 950000 > /sys/kernel/mva_test//regulators/buck2_set'
GEEOLZXOBEGEEOLZXOBE 0
root@arm:~# echo 'CANT''SHSJTQ'
CANTSHSJTQ
root@arm:~# MARKER='QLPB''XCUOTS' run 'i2cget -y -f 2 0x4b 0x10'
QLPBXCUOTS0x19
QLPBXCUOTS 0
root@arm:~# echo 'THGU''FYSVVT'
THGUFYSVVT
root@arm:~# MARKER='LAXQ''TOHQVY' run 'echo 960000 960000 > /sys/kernel/mva_test//regulators/buck2_set'
LAXQTOHQVYLAXQTOHQVY 0
root@arm:~# echo 'PFBV''WASFEN'
PFBVWASFEN
root@arm:~# MARKER='QMCB''NTMJJL' run 'i2cget -y -f 2 0x4b 0x10'
QMCBNTMJJL0x1a
QMCBNTMJJL 0
root@arm:~# echo 'VNFA''XXKCUK'
VNFAXXKCUK
root@arm:~# MARKER='ZJGP''EFMXWX' run 'echo 970000 970000 > /sys/kernel/mva_test//regulators/buck2_set'
ZJGPEFMXWXZJGPEFMXWX 0
root@arm:~# echo 'SJZM''XTEPCX'
SJZMXTEPCX
root@arm:~# MARKER='EYSM''NWCCYB' run 'i2cget -y -f 2 0x4b 0x10'
EYSMNWCCYB0x1b
EYSMNWCCYB 0
root@arm:~# echo 'BZFP''LBGMVX'
BZFPLBGMVX
root@arm:~# MARKER='CMFL''LHXMKV' run 'echo 980000 980000 > /sys/kernel/mva_test//regulators/buck2_set'
CMFLLHXMKVCMFLLHXMKV 0
root@arm:~# echo 'TKYN''PSJBBX'
TKYNPSJBBX
root@arm:~# MARKER='BLJE''AXMBOT' run 'i2cget -y -f 2 0x4b 0x10'
BLJEAXMBOT0x1c
BLJEAXMBOT 0
root@arm:~# echo 'BNCV''WUBVTX'
BNCVWUBVTX
root@arm:~# MARKER='XXLX''OWFPUU' run 'echo 990000 990000 > /sys/kernel/mva_test//regulators/buck2_set'
XXLXOWFPUUXXLXOWFPUU 0
root@arm:~# echo 'HKPJ''AKSZMV'
HKPJAKSZMV
root@arm:~# MARKER='QXYU''WTEAHJ' run 'i2cget -y -f 2 0x4b 0x10'
QXYUWTEAHJ0x1d
QXYUWTEAHJ 0
root@arm:~# echo 'CAGC''MBXCXJ'
CAGCMBXCXJ
root@arm:~# MARKER='XKEL''UNCPEP' run 'echo 1000000 1000000 > /sys/kernel/mva_tesst/regulators/buck2_set'
XKELUNCPEPXKELUNCPEP 0
root@arm:~# echo 'ZTFQ''UFNMHQ'
ZTFQUFNMHQ
root@arm:~# MARKER='NSVV''XQSZCY' run 'i2cget -y -f 2 0x4b 0x10'
NSVVXQSZCY0x1e
NSVVXQSZCY 0
root@arm:~# echo 'MWGL''JGMYHB'
MWGLJGMYHB
root@arm:~# MARKER='UKHX''OPCCEY' run 'echo 1010000 1010000 > /sys/kernel/mva_tesst/regulators/buck2_set'
UKHXOPCCEYUKHXOPCCEY 0
root@arm:~# echo 'GEAU''FOSFFE'
GEAUFOSFFE
root@arm:~# MARKER='JEKM''ZSCOUO' run 'i2cget -y -f 2 0x4b 0x10'
JEKMZSCOUO0x1f
JEKMZSCOUO 0
root@arm:~# echo 'VTLS''NPOYEM'
VTLSNPOYEM
root@arm:~# MARKER='KJOM''EKKJOJ' run 'echo 1020000 1020000 > /sys/kernel/mva_tesst/regulators/buck2_set'
KJOMEKKJOJKJOMEKKJOJ 0
root@arm:~# echo 'BWTB''FJAAYX'
BWTBFJAAYX
root@arm:~# MARKER='FXCS''JCEYZG' run 'i2cget -y -f 2 0x4b 0x10'
FXCSJCEYZG0x20
FXCSJCEYZG 0
root@arm:~# echo 'KXLO''GBTCJN'
KXLOGBTCJN
root@arm:~# MARKER='OCKO''YSVVNP' run 'echo 1030000 1030000 > /sys/kernel/mva_tesst/regulators/buck2_set'
OCKOYSVVNPOCKOYSVVNP 0
root@arm:~# echo 'AFZM''WUOZMP'
AFZMWUOZMP
root@arm:~# MARKER='OZKB''YYQFSU' run 'i2cget -y -f 2 0x4b 0x10'
OZKBYYQFSU0x21
OZKBYYQFSU 0
root@arm:~# echo 'COLT''USEWJN'
COLTUSEWJN
root@arm:~# MARKER='KUJT''GWLKZM' run 'echo 1040000 1040000 > /sys/kernel/mva_tesst/regulators/buck2_set'
KUJTGWLKZMKUJTGWLKZM 0
root@arm:~# echo 'KTMX''AGJJGW'
KTMXAGJJGW
root@arm:~# MARKER='HTHK''VMXJBV' run 'i2cget -y -f 2 0x4b 0x10'
HTHKVMXJBV0x22
HTHKVMXJBV 0
root@arm:~# echo 'SYBC''JNSLFM'
SYBCJNSLFM
root@arm:~# MARKER='YJEH''WKUYOT' run 'echo 1050000 1050000 > /sys/kernel/mva_tesst/regulators/buck2_set'
YJEHWKUYOTYJEHWKUYOT 0
root@arm:~# echo 'HYHZ''SLTQFV'
HYHZSLTQFV
root@arm:~# MARKER='PCXE''LFMUSO' run 'i2cget -y -f 2 0x4b 0x10'
PCXELFMUSO0x23
PCXELFMUSO 0
root@arm:~# echo 'BSTE''GFHYXQ'
BSTEGFHYXQ
root@arm:~# MARKER='QOCC''WQYMMJ' run 'echo 1060000 1060000 > /sys/kernel/mva_tesst/regulators/buck2_set'
QOCCWQYMMJQOCCWQYMMJ 0
root@arm:~# echo 'BAOM''TWFTBY'
BAOMTWFTBY
root@arm:~# MARKER='KJTE''VVBHBY' run 'i2cget -y -f 2 0x4b 0x10'
KJTEVVBHBY0x24
KJTEVVBHBY 0
root@arm:~# echo 'PQVF''JECAHW'
PQVFJECAHW
root@arm:~# MARKER='AVJQ''VPZKAL' run 'echo 1070000 1070000 > /sys/kernel/mva_tesst/regulators/buck2_set'
AVJQVPZKALAVJQVPZKAL 0
root@arm:~# echo 'NFJN''CQLVAE'
NFJNCQLVAE
root@arm:~# MARKER='QCNG''VETVGP' run 'i2cget -y -f 2 0x4b 0x10'
QCNGVETVGP0x25
QCNGVETVGP 0
root@arm:~# echo 'WGJS''HSSJYA'
WGJSHSSJYA
root@arm:~# MARKER='HJHK''XOEFZY' run 'echo 1080000 1080000 > /sys/kernel/mva_tesst/regulators/buck2_set'
HJHKXOEFZYHJHKXOEFZY 0
root@arm:~# echo 'NSYA''NFUTXZ'
NSYANFUTXZ
root@arm:~# MARKER='XOOO''AONEFM' run 'i2cget -y -f 2 0x4b 0x10'
XOOOAONEFM0x26
XOOOAONEFM 0
root@arm:~# echo 'ONZL''EBFTOF'
ONZLEBFTOF
root@arm:~# MARKER='PNCO''ZKQHZX' run 'echo 1090000 1090000 > /sys/kernel/mva_tesst/regulators/buck2_set'
PNCOZKQHZXPNCOZKQHZX 0
root@arm:~# echo 'LUNL''LCPLFX'
LUNLLCPLFX
root@arm:~# MARKER='SQLB''XCWNTL' run 'i2cget -y -f 2 0x4b 0x10'
SQLBXCWNTL0x27
SQLBXCWNTL 0
root@arm:~# echo 'UYXJ''MEMCHV'
UYXJMEMCHV
root@arm:~# MARKER='MUWG''PYQEHU' run 'echo 1100000 1100000 > /sys/kernel/mva_tesst/regulators/buck2_set'
MUWGPYQEHUMUWGPYQEHU 0
root@arm:~# echo 'XBNL''ONYOBO'
XBNLONYOBO
root@arm:~# MARKER='MQSX''EKLYWF' run 'i2cget -y -f 2 0x4b 0x10'
MQSXEKLYWF0x28
MQSXEKLYWF 0
root@arm:~# echo 'WJFP''QBTSSO'
WJFPQBTSSO
root@arm:~# MARKER='OAMV''WFKSHU' run 'echo 1110000 1110000 > /sys/kernel/mva_tesst/regulators/buck2_set'
OAMVWFKSHUOAMVWFKSHU 0
root@arm:~# echo 'AULQ''NLMMBZ'
AULQNLMMBZ
root@arm:~# MARKER='WJQC''GHZBTG' run 'i2cget -y -f 2 0x4b 0x10'
WJQCGHZBTG0x29
WJQCGHZBTG 0
root@arm:~# echo 'UZTQ''WEJUXV'
UZTQWEJUXV
root@arm:~# MARKER='OEEA''HVPEBL' run 'echo 1120000 1120000 > /sys/kernel/mva_tesst/regulators/buck2_set'
OEEAHVPEBLOEEAHVPEBL 0
root@arm:~# echo 'WCEH''USMMFK'
WCEHUSMMFK
root@arm:~# MARKER='TMZN''KFKFYZ' run 'i2cget -y -f 2 0x4b 0x10'
TMZNKFKFYZ0x2a
TMZNKFKFYZ 0
root@arm:~# echo 'OAEZ''KYTUBE'
OAEZKYTUBE
root@arm:~# MARKER='UNCF''BTZVQK' run 'echo 1130000 1130000 > /sys/kernel/mva_tesst/regulators/buck2_set'
UNCFBTZVQKUNCFBTZVQK 0
root@arm:~# echo 'NVVT''WGLEWC'
NVVTWGLEWC
root@arm:~# MARKER='ZUBE''QBOEUN' run 'i2cget -y -f 2 0x4b 0x10'
ZUBEQBOEUN0x2b
ZUBEQBOEUN 0
root@arm:~# echo 'OKLW''QOOTUV'
OKLWQOOTUV
root@arm:~# MARKER='PPJO''OTTLZH' run 'echo 1140000 1140000 > /sys/kernel/mva_tesst/regulators/buck2_set'
PPJOOTTLZHPPJOOTTLZH 0
root@arm:~# echo 'HEFY''LZAASY'
HEFYLZAASY
root@arm:~# MARKER='ALJC''HUWQZN' run 'i2cget -y -f 2 0x4b 0x10'
ALJCHUWQZN0x2c
ALJCHUWQZN 0
root@arm:~# echo 'SPSG''HULWBG'
SPSGHULWBG
root@arm:~# MARKER='UEPY''GJOTSH' run 'echo 1150000 1150000 > /sys/kernel/mva_tesst/regulators/buck2_set'
UEPYGJOTSHUEPYGJOTSH 0
root@arm:~# echo 'KNVY''FATJKQ'
KNVYFATJKQ
root@arm:~# MARKER='TOAX''NEASON' run 'i2cget -y -f 2 0x4b 0x10'
TOAXNEASON0x2d
TOAXNEASON 0
root@arm:~# echo 'JFJQ''BPXGGZ'
JFJQBPXGGZ
root@arm:~# MARKER='HOAT''PJEWWH' run 'echo 1160000 1160000 > /sys/kernel/mva_tesst/regulators/buck2_set'
HOATPJEWWHHOATPJEWWH 0
root@arm:~# echo 'QZFJ''HQAJEZ'
QZFJHQAJEZ
root@arm:~# MARKER='FXSL''HCGUUY' run 'i2cget -y -f 2 0x4b 0x10'
FXSLHCGUUY0x2e
FXSLHCGUUY 0
root@arm:~# echo 'CJWG''KWTVOC'
CJWGKWTVOC
root@arm:~# MARKER='WWFL''KJPFAY' run 'echo 1170000 1170000 > /sys/kernel/mva_tesst/regulators/buck2_set'
WWFLKJPFAYWWFLKJPFAY 0
root@arm:~# echo 'QGMO''XKYZUM'
QGMOXKYZUM
root@arm:~# MARKER='JUOZ''SONEJH' run 'i2cget -y -f 2 0x4b 0x10'
JUOZSONEJH0x2f
JUOZSONEJH 0
root@arm:~# echo 'UUZM''FVSPWN'
UUZMFVSPWN
root@arm:~# MARKER='TUVG''NSGCJP' run 'echo 1180000 1180000 > /sys/kernel/mva_tesst/regulators/buck2_set'
TUVGNSGCJPTUVGNSGCJP 0
root@arm:~# echo 'PXBL''YFGHJW'
PXBLYFGHJW
root@arm:~# MARKER='TULC''JGQTKS' run 'i2cget -y -f 2 0x4b 0x10'
TULCJGQTKS0x30
TULCJGQTKS 0
root@arm:~# echo 'STWY''LXSZOT'
STWYLXSZOT
root@arm:~# MARKER='PNGM''WWSNFW' run 'echo 1190000 1190000 > /sys/kernel/mva_tesst/regulators/buck2_set'
PNGMWWSNFWPNGMWWSNFW 0
root@arm:~# echo 'CMXX''ZCSUQP'
CMXXZCSUQP
root@arm:~# MARKER='NLSQ''EGLAZK' run 'i2cget -y -f 2 0x4b 0x10'
NLSQEGLAZK0x31
NLSQEGLAZK 0
root@arm:~# echo 'KNMK''GWXMKO'
KNMKGWXMKO
root@arm:~# MARKER='BWET''ZWSCMH' run 'echo 1200000 1200000 > /sys/kernel/mva_tesst/regulators/buck2_set'
BWETZWSCMHBWETZWSCMH 0
root@arm:~# echo 'VWBB''OXJEUZ'
VWBBOXJEUZ
root@arm:~# MARKER='YKAY''JNLAJC' run 'i2cget -y -f 2 0x4b 0x10'
YKAYJNLAJC0x32
YKAYJNLAJC 0
root@arm:~# echo 'NTEZ''MMTCZJ'
NTEZMMTCZJ
root@arm:~# MARKER='OQYJ''SLCNBT' run 'echo 1210000 1210000 > /sys/kernel/mva_tesst/regulators/buck2_set'
OQYJSLCNBTOQYJSLCNBT 0
root@arm:~# echo 'TQJQ''ZZXQJS'
TQJQZZXQJS
root@arm:~# MARKER='FCFQ''EEPFHL' run 'i2cget -y -f 2 0x4b 0x10'
FCFQEEPFHL0x33
FCFQEEPFHL 0
root@arm:~# echo 'WFGS''JJXZMT'
WFGSJJXZMT
root@arm:~# MARKER='EPLX''MTTWUJ' run 'echo 1220000 1220000 > /sys/kernel/mva_tesst/regulators/buck2_set'
EPLXMTTWUJEPLXMTTWUJ 0
root@arm:~# echo 'TONY''BHALZM'
TONYBHALZM
root@arm:~# MARKER='YVJH''OWUNSN' run 'i2cget -y -f 2 0x4b 0x10'
YVJHOWUNSN0x34
YVJHOWUNSN 0
root@arm:~# echo 'TJUP''NGXOWC'
TJUPNGXOWC
root@arm:~# MARKER='STTQ''YVBPZK' run 'echo 1230000 1230000 > /sys/kernel/mva_tesst/regulators/buck2_set'
STTQYVBPZKSTTQYVBPZK 0
root@arm:~# echo 'CPCQ''QVBBTB'
CPCQQVBBTB
root@arm:~# MARKER='ZBYM''GTKPPY' run 'i2cget -y -f 2 0x4b 0x10'
ZBYMGTKPPY0x35
ZBYMGTKPPY 0
root@arm:~# echo 'JWJN''TBYZQA'
JWJNTBYZQA
root@arm:~# MARKER='ZMVE''SYJYJW' run 'echo 1240000 1240000 > /sys/kernel/mva_tesst/regulators/buck2_set'
ZMVESYJYJWZMVESYJYJW 0
root@arm:~# echo 'XFBG''VNOFOP'
XFBGVNOFOP
root@arm:~# MARKER='CTBG''OZUOXQ' run 'i2cget -y -f 2 0x4b 0x10'
CTBGOZUOXQ0x36
CTBGOZUOXQ 0
root@arm:~# echo 'XTZX''HCOWTU'
XTZXHCOWTU
root@arm:~# MARKER='FZKK''JHXQAE' run 'echo 1250000 1250000 > /sys/kernel/mva_tesst/regulators/buck2_set'
FZKKJHXQAEFZKKJHXQAE 0
root@arm:~# echo 'WSUO''WUBFXV'
WSUOWUBFXV
root@arm:~# MARKER='UHUE''OHHEUL' run 'i2cget -y -f 2 0x4b 0x10'
UHUEOHHEUL0x37
UHUEOHHEUL 0
root@arm:~# echo 'SOYC''LFNVHS'
SOYCLFNVHS
root@arm:~# MARKER='FNLX''MOQFEF' run 'echo 1260000 1260000 > /sys/kernel/mva_tesst/regulators/buck2_set'
FNLXMOQFEFFNLXMOQFEF 0
root@arm:~# echo 'JOGO''KAEYMZ'
JOGOKAEYMZ
root@arm:~# MARKER='YLUU''KVJUSK' run 'i2cget -y -f 2 0x4b 0x10'
YLUUKVJUSK0x38
YLUUKVJUSK 0
root@arm:~# echo 'WUPH''ETWEUL'
WUPHETWEUL
root@arm:~# MARKER='QVZF''SUGJBC' run 'echo 1270000 1270000 > /sys/kernel/mva_tesst/regulators/buck2_set'
QVZFSUGJBCQVZFSUGJBC 0
root@arm:~# echo 'CHMJ''VPJXVS'
CHMJVPJXVS
root@arm:~# MARKER='YSEK''LSESKZ' run 'i2cget -y -f 2 0x4b 0x10'
YSEKLSESKZ0x39
YSEKLSESKZ 0
root@arm:~# echo 'EVUV''VJFCJX'
EVUVVJFCJX
root@arm:~# MARKER='LFCV''WWMXMB' run 'echo 1280000 1280000 > /sys/kernel/mva_tesst/regulators/buck2_set'
LFCVWWMXMBLFCVWWMXMB 0
root@arm:~# echo 'WQKY''PVMKSJ'
WQKYPVMKSJ
root@arm:~# MARKER='EAKC''YTVVUN' run 'i2cget -y -f 2 0x4b 0x10'
EAKCYTVVUN0x3a
EAKCYTVVUN 0
root@arm:~# echo 'UUZS''NBLPBE'
UUZSNBLPBE
root@arm:~# MARKER='FHKS''AVOLPA' run 'echo 1290000 1290000 > /sys/kernel/mva_tesst/regulators/buck2_set'
FHKSAVOLPAFHKSAVOLPA 0
root@arm:~# echo 'ZZAK''VLCLSK'
ZZAKVLCLSK
root@arm:~# MARKER='LGYK''HBMFUS' run 'i2cget -y -f 2 0x4b 0x10'
LGYKHBMFUS0x3b
LGYKHBMFUS 0
root@arm:~# echo 'FEXO''FKAKKE'
FEXOFKAKKE
root@arm:~# MARKER='GEUL''XWJPPW' run 'echo 1300000 1300000 > /sys/kernel/mva_tesst/regulators/buck2_set'
GEULXWJPPWGEULXWJPPW 0
root@arm:~# echo 'VCWH''WXHOYZ'
VCWHWXHOYZ
root@arm:~# MARKER='BJAU''QHANQW' run 'i2cget -y -f 2 0x4b 0x10'
BJAUQHANQW0x3c
BJAUQHANQW 0
root@arm:~# echo 'PONF''FEFXUW'
PONFFEFXUW
root@arm:~# MARKER='ZYTN''YKGAGQ' run 'grep -r -l rohm,bd71837 /proc/device-tree  | sed '"'"'s![^/]*$!!'"'"''
ZYTNYKGAGQ/proc/device-tree/ocp/interconnect@48000000/segment@100000/target-module@9c000/i2c@0/pmic@4b/
ZYTNYKGAGQ 0
root@arm:~# echo 'PPQK''ZTZFHT'
PPQKZTZFHT
root@arm:~# MARKER='FXUN''XQSYPY' run 'test -f /proc/device-tree/ocp/interconnectt\@48000000/segment\@100000/target-module\@9c000/i2c\@0/pmic\@4b/regulators/BUCK33/rohm,no-regulator-enable-control ;echo $?'
FXUNXQSYPY0
FXUNXQSYPY 0
root@arm:~# echo 'OZBK''BKMVUN'
OZBKBKMVUN
root@arm:~# MARKER='VGJO''MZFLFW' run 'echo 700000 700000 > /sys/kernel/mva_test//regulators/buck3_set'
VGJOMZFLFWVGJOMZFLFW 0
root@arm:~# echo 'VFTZ''TJWYSY'
VFTZTJWYSY
root@arm:~# MARKER='BSEF''CUPHCC' run 'i2cget -y -f 2 0x4b 0x12'
BSEFCUPHCC0x00
BSEFCUPHCC 0
root@arm:~# echo 'JVBM''SVGMLH'
JVBMSVGMLH
root@arm:~# MARKER='TWFL''VNPBUG' run 'echo 710000 710000 > /sys/kernel/mva_test//regulators/buck3_set'
TWFLVNPBUGTWFLVNPBUG 0
root@arm:~# echo 'OEZB''TESZUP'
OEZBTESZUP
root@arm:~# MARKER='NYLE''QCLYQQ' run 'i2cget -y -f 2 0x4b 0x12'
NYLEQCLYQQ0x01
NYLEQCLYQQ 0
root@arm:~# echo 'SLYA''MJMTUV'
SLYAMJMTUV
root@arm:~# MARKER='MAEP''JLQGCC' run 'echo 720000 720000 > /sys/kernel/mva_test//regulators/buck3_set'
MAEPJLQGCCMAEPJLQGCC 0
root@arm:~# echo 'VFGA''SJKVBN'
VFGASJKVBN
root@arm:~# MARKER='CTLA''FBFYBX' run 'i2cget -y -f 2 0x4b 0x12'
CTLAFBFYBX0x02
CTLAFBFYBX 0
root@arm:~# echo 'TZHS''JVTZYF'
TZHSJVTZYF
root@arm:~# MARKER='YPGS''KOMYFN' run 'echo 730000 730000 > /sys/kernel/mva_test//regulators/buck3_set'
YPGSKOMYFNYPGSKOMYFN 0
root@arm:~# echo 'LGGP''EKPNHN'
LGGPEKPNHN
root@arm:~# MARKER='OYYF''EVBZCU' run 'i2cget -y -f 2 0x4b 0x12'
OYYFEVBZCU0x03
OYYFEVBZCU 0
root@arm:~# echo 'JLFM''HJULWW'
JLFMHJULWW
root@arm:~# MARKER='TAHB''QCPUPN' run 'echo 740000 740000 > /sys/kernel/mva_test//regulators/buck3_set'
TAHBQCPUPNTAHBQCPUPN 0
root@arm:~# echo 'WBYL''LJLVYU'
WBYLLJLVYU
root@arm:~# MARKER='PYSU''CVEJGP' run 'i2cget -y -f 2 0x4b 0x12'
PYSUCVEJGP0x04
PYSUCVEJGP 0
root@arm:~# echo 'ANYM''TMJKZJ'
ANYMTMJKZJ
root@arm:~# MARKER='ECCT''MLPUFT' run 'echo 750000 750000 > /sys/kernel/mva_test//regulators/buck3_set'
ECCTMLPUFTECCTMLPUFT 0
root@arm:~# echo 'BQAF''CCTKUP'
BQAFCCTKUP
root@arm:~# MARKER='XLVG''JWVQVC' run 'i2cget -y -f 2 0x4b 0x12'
XLVGJWVQVC0x05
XLVGJWVQVC 0
root@arm:~# echo 'CQUG''ZYOXFY'
CQUGZYOXFY
root@arm:~# MARKER='EATH''OQUPCQ' run 'echo 760000 760000 > /sys/kernel/mva_test//regulators/buck3_set'
EATHOQUPCQEATHOQUPCQ 0
root@arm:~# echo 'LOES''MCVLAH'
LOESMCVLAH
root@arm:~# MARKER='FPYK''BTYZQN' run 'i2cget -y -f 2 0x4b 0x12'
FPYKBTYZQN0x06
FPYKBTYZQN 0
root@arm:~# echo 'USZQ''MYCJVH'
USZQMYCJVH
root@arm:~# MARKER='SENE''MEGOMH' run 'echo 770000 770000 > /sys/kernel/mva_test//regulators/buck3_set'
SENEMEGOMHSENEMEGOMH 0
root@arm:~# echo 'QSPT''VYGVBU'
QSPTVYGVBU
root@arm:~# MARKER='BXNQ''ASKOXA' run 'i2cget -y -f 2 0x4b 0x12'
BXNQASKOXA0x07
BXNQASKOXA 0
root@arm:~# echo 'QMCA''SZHKSJ'
QMCASZHKSJ
root@arm:~# MARKER='LVJU''GVSXYG' run 'echo 780000 780000 > /sys/kernel/mva_test//regulators/buck3_set'
LVJUGVSXYGLVJUGVSXYG 0
root@arm:~# echo 'LCGU''HOATYF'
LCGUHOATYF
root@arm:~# MARKER='WGJW''ZVUFCF' run 'i2cget -y -f 2 0x4b 0x12'
WGJWZVUFCF0x08
WGJWZVUFCF 0
root@arm:~# echo 'ZFJL''TGUXMM'
ZFJLTGUXMM
root@arm:~# MARKER='FLNF''QYMPOO' run 'echo 790000 790000 > /sys/kernel/mva_test//regulators/buck3_set'
FLNFQYMPOOFLNFQYMPOO 0
root@arm:~# echo 'GEUN''AVBTWN'
GEUNAVBTWN
root@arm:~# MARKER='OOYN''OUZCGY' run 'i2cget -y -f 2 0x4b 0x12'
OOYNOUZCGY0x09
OOYNOUZCGY 0
root@arm:~# echo 'FLJN''YUUVUB'
FLJNYUUVUB
root@arm:~# MARKER='SXVY''XQEQQX' run 'echo 800000 800000 > /sys/kernel/mva_test//regulators/buck3_set'
SXVYXQEQQXSXVYXQEQQX 0
root@arm:~# echo 'NCJB''FFPNGA'
NCJBFFPNGA
root@arm:~# MARKER='ZWAJ''EZWNJU' run 'i2cget -y -f 2 0x4b 0x12'
ZWAJEZWNJU0x0a
ZWAJEZWNJU 0
root@arm:~# echo 'YAZT''GZQWOS'
YAZTGZQWOS
root@arm:~# MARKER='JNOU''ASMPXT' run 'echo 810000 810000 > /sys/kernel/mva_test//regulators/buck3_set'
JNOUASMPXTJNOUASMPXT 0
root@arm:~# echo 'JNHM''TOXFVL'
JNHMTOXFVL
root@arm:~# MARKER='WVNB''QBVEOZ' run 'i2cget -y -f 2 0x4b 0x12'
WVNBQBVEOZ0x0b
WVNBQBVEOZ 0
root@arm:~# echo 'XMNS''GJVGPB'
XMNSGJVGPB
root@arm:~# MARKER='MTNG''NHHWPZ' run 'echo 820000 820000 > /sys/kernel/mva_test//regulators/buck3_set'
MTNGNHHWPZMTNGNHHWPZ 0
root@arm:~# echo 'NALU''CGLCUK'
NALUCGLCUK
root@arm:~# MARKER='EVXV''FSJMGC' run 'i2cget -y -f 2 0x4b 0x12'
EVXVFSJMGC0x0c
EVXVFSJMGC 0
root@arm:~# echo 'WNJT''AVQLEZ'
WNJTAVQLEZ
root@arm:~# MARKER='ZUAU''LZCWZN' run 'echo 830000 830000 > /sys/kernel/mva_test//regulators/buck3_set'
ZUAULZCWZNZUAULZCWZN 0
root@arm:~# echo 'OOOA''WJHOMB'
OOOAWJHOMB
root@arm:~# MARKER='TVBY''NQYCXZ' run 'i2cget -y -f 2 0x4b 0x12'
TVBYNQYCXZ0x0d
TVBYNQYCXZ 0
root@arm:~# echo 'JZJY''OFFKCM'
JZJYOFFKCM
root@arm:~# MARKER='ENSL''ENUTVZ' run 'echo 840000 840000 > /sys/kernel/mva_test//regulators/buck3_set'
ENSLENUTVZENSLENUTVZ 0
root@arm:~# echo 'JBNV''ZCKPHW'
JBNVZCKPHW
root@arm:~# MARKER='PUUO''BMYAUO' run 'i2cget -y -f 2 0x4b 0x12'
PUUOBMYAUO0x0e
PUUOBMYAUO 0
root@arm:~# echo 'SPFT''ETSGUW'
SPFTETSGUW
root@arm:~# MARKER='AVHY''QVLCQG' run 'echo 850000 850000 > /sys/kernel/mva_test//regulators/buck3_set'
AVHYQVLCQGAVHYQVLCQG 0
root@arm:~# echo 'VMBY''UHFVUL'
VMBYUHFVUL
root@arm:~# MARKER='OMVN''NHQQEZ' run 'i2cget -y -f 2 0x4b 0x12'
OMVNNHQQEZ0x0f
OMVNNHQQEZ 0
root@arm:~# echo 'SFGH''OWOVNK'
SFGHOWOVNK
root@arm:~# MARKER='WGFL''JJKWSY' run 'echo 860000 860000 > /sys/kernel/mva_test//regulators/buck3_set'
WGFLJJKWSYWGFLJJKWSY 0
root@arm:~# echo 'AJUL''LJBMGS'
AJULLJBMGS
root@arm:~# MARKER='KEZQ''JKPQUT' run 'i2cget -y -f 2 0x4b 0x12'
KEZQJKPQUT0x10
KEZQJKPQUT 0
root@arm:~# echo 'EBUZ''ZSLYYV'
EBUZZSLYYV
root@arm:~# MARKER='WKZT''GFZQTY' run 'echo 870000 870000 > /sys/kernel/mva_test//regulators/buck3_set'
WKZTGFZQTYWKZTGFZQTY 0
root@arm:~# echo 'AKKT''BQTUNK'
AKKTBQTUNK
root@arm:~# MARKER='UWLK''YYKNKL' run 'i2cget -y -f 2 0x4b 0x12'
UWLKYYKNKL0x11
UWLKYYKNKL 0
root@arm:~# echo 'AZLL''YYOTVW'
AZLLYYOTVW
root@arm:~# MARKER='KOUE''MVZNZN' run 'echo 880000 880000 > /sys/kernel/mva_test//regulators/buck3_set'
KOUEMVZNZNKOUEMVZNZN 0
root@arm:~# echo 'WZOB''LTJCZA'
WZOBLTJCZA
root@arm:~# MARKER='KMZV''CQNYOY' run 'i2cget -y -f 2 0x4b 0x12'
KMZVCQNYOY0x12
KMZVCQNYOY 0
root@arm:~# echo 'HLAE''YYPELF'
HLAEYYPELF
root@arm:~# MARKER='CYNQ''AVVVVP' run 'echo 890000 890000 > /sys/kernel/mva_test//regulators/buck3_set'
CYNQAVVVVPCYNQAVVVVP 0
root@arm:~# echo 'GUMX''SCLLTP'
GUMXSCLLTP
root@arm:~# MARKER='ZVZW''GMPVBA' run 'i2cget -y -f 2 0x4b 0x12'
ZVZWGMPVBA0x13
ZVZWGMPVBA 0
root@arm:~# echo 'AHLH''AOJPLK'
AHLHAOJPLK
root@arm:~# MARKER='CAFU''EMBCJA' run 'echo 900000 900000 > /sys/kernel/mva_test//regulators/buck3_set'
CAFUEMBCJACAFUEMBCJA 0
root@arm:~# echo 'TVXE''YEMTEF'
TVXEYEMTEF
root@arm:~# MARKER='EGZN''KPPFHG' run 'i2cget -y -f 2 0x4b 0x12'
EGZNKPPFHG0x14
EGZNKPPFHG 0
root@arm:~# echo 'SWWP''YSQYJV'
SWWPYSQYJV
root@arm:~# MARKER='ZZVM''YJYFJT' run 'echo 910000 910000 > /sys/kernel/mva_test//regulators/buck3_set'
ZZVMYJYFJTZZVMYJYFJT 0
root@arm:~# echo 'XWOO''ZCZMFH'
XWOOZCZMFH
root@arm:~# MARKER='PXLH''NXKYUP' run 'i2cget -y -f 2 0x4b 0x12'
PXLHNXKYUP0x15
PXLHNXKYUP 0
root@arm:~# echo 'PYYF''EWHJTT'
PYYFEWHJTT
root@arm:~# MARKER='UNJW''BAOKEB' run 'echo 920000 920000 > /sys/kernel/mva_test//regulators/buck3_set'
UNJWBAOKEBUNJWBAOKEB 0
root@arm:~# echo 'SONQ''UGUUXA'
SONQUGUUXA
root@arm:~# MARKER='XEQF''AYJSNZ' run 'i2cget -y -f 2 0x4b 0x12'
XEQFAYJSNZ0x16
XEQFAYJSNZ 0
root@arm:~# echo 'SNMF''HFMFFA'
SNMFHFMFFA
root@arm:~# MARKER='XSNA''QYNFFJ' run 'echo 930000 930000 > /sys/kernel/mva_test//regulators/buck3_set'
XSNAQYNFFJXSNAQYNFFJ 0
root@arm:~# echo 'KZQN''SOVWOU'
KZQNSOVWOU
root@arm:~# MARKER='XCQQ''KWMFYU' run 'i2cget -y -f 2 0x4b 0x12'
XCQQKWMFYU0x17
XCQQKWMFYU 0
root@arm:~# echo 'EBCK''UVACPF'
EBCKUVACPF
root@arm:~# MARKER='KZHP''LFOEXE' run 'echo 940000 940000 > /sys/kernel/mva_test//regulators/buck3_set'
KZHPLFOEXEKZHPLFOEXE 0
root@arm:~# echo 'CVWQ''PCKWZV'
CVWQPCKWZV
root@arm:~# MARKER='APVQ''CVZCYW' run 'i2cget -y -f 2 0x4b 0x12'
APVQCVZCYW0x18
APVQCVZCYW 0
root@arm:~# echo 'FMTY''XYSZJB'
FMTYXYSZJB
root@arm:~# MARKER='FXPK''LZPVMB' run 'echo 950000 950000 > /sys/kernel/mva_test//regulators/buck3_set'
FXPKLZPVMBFXPKLZPVMB 0
root@arm:~# echo 'GMUE''FOMSCO'
GMUEFOMSCO
root@arm:~# MARKER='TLHB''KYQPVP' run 'i2cget -y -f 2 0x4b 0x12'
TLHBKYQPVP0x19
TLHBKYQPVP 0
root@arm:~# echo 'KFCQ''PFYGFT'
KFCQPFYGFT
root@arm:~# MARKER='YOSM''OUFHKL' run 'echo 960000 960000 > /sys/kernel/mva_test//regulators/buck3_set'
YOSMOUFHKLYOSMOUFHKL 0
root@arm:~# echo 'EGTJ''ZONAWV'
EGTJZONAWV
root@arm:~# MARKER='OLJV''WSCAOS' run 'i2cget -y -f 2 0x4b 0x12'
OLJVWSCAOS0x1a
OLJVWSCAOS 0
root@arm:~# echo 'JUVB''XYUYXN'
JUVBXYUYXN
root@arm:~# MARKER='JHMP''JQCPML' run 'echo 970000 970000 > /sys/kernel/mva_test//regulators/buck3_set'
JHMPJQCPMLJHMPJQCPML 0
root@arm:~# echo 'HGBO''EYKCOA'
HGBOEYKCOA
root@arm:~# MARKER='NUWF''ABMGXL' run 'i2cget -y -f 2 0x4b 0x12'
NUWFABMGXL0x1b
NUWFABMGXL 0
root@arm:~# echo 'LQPX''PQGVHP'
LQPXPQGVHP
root@arm:~# MARKER='LSPY''FKPQLH' run 'echo 980000 980000 > /sys/kernel/mva_test//regulators/buck3_set'
LSPYFKPQLHLSPYFKPQLH 0
root@arm:~# echo 'UCVE''YZHOJU'
UCVEYZHOJU
root@arm:~# MARKER='MNSL''LAJFNP' run 'i2cget -y -f 2 0x4b 0x12'
MNSLLAJFNP0x1c
MNSLLAJFNP 0
root@arm:~# echo 'EHUA''PJOWZP'
EHUAPJOWZP
root@arm:~# MARKER='LFUH''SSKKXG' run 'echo 990000 990000 > /sys/kernel/mva_test//regulators/buck3_set'
LFUHSSKKXGLFUHSSKKXG 0
root@arm:~# echo 'CHNN''AKBYTA'
CHNNAKBYTA
root@arm:~# MARKER='NGHV''FLTHOC' run 'i2cget -y -f 2 0x4b 0x12'
NGHVFLTHOC0x1d
NGHVFLTHOC 0
root@arm:~# echo 'SOOX''UELOKT'
SOOXUELOKT
root@arm:~# MARKER='XCPJ''LLYHVS' run 'echo 1000000 1000000 > /sys/kernel/mva_tesst/regulators/buck3_set'
XCPJLLYHVSXCPJLLYHVS 0
root@arm:~# echo 'BLYM''BZSHWO'
BLYMBZSHWO
root@arm:~# MARKER='QWWV''QHULNW' run 'i2cget -y -f 2 0x4b 0x12'
QWWVQHULNW0x1e
QWWVQHULNW 0
root@arm:~# echo 'COJW''AKHTYW'
COJWAKHTYW
root@arm:~# MARKER='VOGA''FQLVWQ' run 'echo 1010000 1010000 > /sys/kernel/mva_tesst/regulators/buck3_set'
VOGAFQLVWQVOGAFQLVWQ 0
root@arm:~# echo 'AWAJ''TPUZNL'
AWAJTPUZNL
root@arm:~# MARKER='CVFG''OMSKZO' run 'i2cget -y -f 2 0x4b 0x12'
CVFGOMSKZO0x1f
CVFGOMSKZO 0
root@arm:~# echo 'XBQM''JFGSHJ'
XBQMJFGSHJ
root@arm:~# MARKER='OOGN''AEWKWN' run 'echo 1020000 1020000 > /sys/kernel/mva_tesst/regulators/buck3_set'
OOGNAEWKWNOOGNAEWKWN 0
root@arm:~# echo 'BOOS''KTLNQJ'
BOOSKTLNQJ
root@arm:~# MARKER='KZKH''UJCJEC' run 'i2cget -y -f 2 0x4b 0x12'
KZKHUJCJEC0x20
KZKHUJCJEC 0
root@arm:~# echo 'SAAU''ZFCTEA'
SAAUZFCTEA
root@arm:~# MARKER='AVAJ''JCWMJK' run 'echo 1030000 1030000 > /sys/kernel/mva_tesst/regulators/buck3_set'
AVAJJCWMJKAVAJJCWMJK 0
root@arm:~# echo 'XHSL''JNEKZO'
XHSLJNEKZO
root@arm:~# MARKER='XBVM''WKEHXW' run 'i2cget -y -f 2 0x4b 0x12'
XBVMWKEHXW0x21
XBVMWKEHXW 0
root@arm:~# echo 'NBOV''NYJGFM'
NBOVNYJGFM
root@arm:~# MARKER='FUFT''PQXVXW' run 'echo 1040000 1040000 > /sys/kernel/mva_tesst/regulators/buck3_set'
FUFTPQXVXWFUFTPQXVXW 0
root@arm:~# echo 'YJXA''YLQPEG'
YJXAYLQPEG
root@arm:~# MARKER='HZOQ''CWMCMQ' run 'i2cget -y -f 2 0x4b 0x12'
HZOQCWMCMQ0x22
HZOQCWMCMQ 0
root@arm:~# echo 'FYVS''OGEZQA'
FYVSOGEZQA
root@arm:~# MARKER='CYJK''OQWBGS' run 'echo 1050000 1050000 > /sys/kernel/mva_tesst/regulators/buck3_set'
CYJKOQWBGSCYJKOQWBGS 0
root@arm:~# echo 'AYWV''GGJJUK'
AYWVGGJJUK
root@arm:~# MARKER='TPZN''LFOMAQ' run 'i2cget -y -f 2 0x4b 0x12'
TPZNLFOMAQ0x23
TPZNLFOMAQ 0
root@arm:~# echo 'EVVX''OHAYXQ'
EVVXOHAYXQ
root@arm:~# MARKER='YFAK''LFXCJX' run 'echo 1060000 1060000 > /sys/kernel/mva_tesst/regulators/buck3_set'
YFAKLFXCJXYFAKLFXCJX 0
root@arm:~# echo 'XJMV''PFTNVS'
XJMVPFTNVS
root@arm:~# MARKER='PPQH''KYHCJW' run 'i2cget -y -f 2 0x4b 0x12'
PPQHKYHCJW0x24
PPQHKYHCJW 0
root@arm:~# echo 'SHFZ''NOVPKK'
SHFZNOVPKK
root@arm:~# MARKER='WAGY''TEKAKS' run 'echo 1070000 1070000 > /sys/kernel/mva_tesst/regulators/buck3_set'
WAGYTEKAKSWAGYTEKAKS 0
root@arm:~# echo 'XSAT''CCFQPJ'
XSATCCFQPJ
root@arm:~# MARKER='UJMW''FXPAPJ' run 'i2cget -y -f 2 0x4b 0x12'
UJMWFXPAPJ0x25
UJMWFXPAPJ 0
root@arm:~# echo 'TJAM''HTOPWE'
TJAMHTOPWE
root@arm:~# MARKER='XCNA''WLOQBV' run 'echo 1080000 1080000 > /sys/kernel/mva_tesst/regulators/buck3_set'
XCNAWLOQBVXCNAWLOQBV 0
root@arm:~# echo 'OSMH''LXAHQJ'
OSMHLXAHQJ
root@arm:~# MARKER='NKUG''AEKBCT' run 'i2cget -y -f 2 0x4b 0x12'
NKUGAEKBCT0x26
NKUGAEKBCT 0
root@arm:~# echo 'KSFC''GCHKAJ'
KSFCGCHKAJ
root@arm:~# MARKER='KNYN''CXVTZY' run 'echo 1090000 1090000 > /sys/kernel/mva_tesst/regulators/buck3_set'
KNYNCXVTZYKNYNCXVTZY 0
root@arm:~# echo 'PMHZ''BOQZZW'
PMHZBOQZZW
root@arm:~# MARKER='XQZG''QXQGMY' run 'i2cget -y -f 2 0x4b 0x12'
XQZGQXQGMY0x27
XQZGQXQGMY 0
root@arm:~# echo 'SGQT''VFHJGY'
SGQTVFHJGY
root@arm:~# MARKER='CMBS''PWUVAJ' run 'echo 1100000 1100000 > /sys/kernel/mva_tesst/regulators/buck3_set'
CMBSPWUVAJCMBSPWUVAJ 0
root@arm:~# echo 'LXNC''APWAKY'
LXNCAPWAKY
root@arm:~# MARKER='TYNV''NXPSQP' run 'i2cget -y -f 2 0x4b 0x12'
TYNVNXPSQP0x28
TYNVNXPSQP 0
root@arm:~# echo 'NOTN''SYOLYN'
NOTNSYOLYN
root@arm:~# MARKER='CLLT''TTKHYH' run 'echo 1110000 1110000 > /sys/kernel/mva_tesst/regulators/buck3_set'
CLLTTTKHYHCLLTTTKHYH 0
root@arm:~# echo 'ENPH''VJCBTX'
ENPHVJCBTX
root@arm:~# MARKER='QBVA''PXZCKY' run 'i2cget -y -f 2 0x4b 0x12'
QBVAPXZCKY0x29
QBVAPXZCKY 0
root@arm:~# echo 'OOMF''YXHNSG'
OOMFYXHNSG
root@arm:~# MARKER='YYAJ''VLSGMV' run 'echo 1120000 1120000 > /sys/kernel/mva_tesst/regulators/buck3_set'
YYAJVLSGMVYYAJVLSGMV 0
root@arm:~# echo 'YOCL''UHLTUB'
YOCLUHLTUB
root@arm:~# MARKER='ZGPA''GPWHNM' run 'i2cget -y -f 2 0x4b 0x12'
ZGPAGPWHNM0x2a
ZGPAGPWHNM 0
root@arm:~# echo 'VLLM''WMNVVN'
VLLMWMNVVN
root@arm:~# MARKER='QOAQ''GZSLSO' run 'echo 1130000 1130000 > /sys/kernel/mva_tesst/regulators/buck3_set'
QOAQGZSLSOQOAQGZSLSO 0
root@arm:~# echo 'BVBE''YPUEKY'
BVBEYPUEKY
root@arm:~# MARKER='UWWK''OYQHXP' run 'i2cget -y -f 2 0x4b 0x12'
UWWKOYQHXP0x2b
UWWKOYQHXP 0
root@arm:~# echo 'YQYJ''GMYFMQ'
YQYJGMYFMQ
root@arm:~# MARKER='CPHY''XKUMUJ' run 'echo 1140000 1140000 > /sys/kernel/mva_tesst/regulators/buck3_set'
CPHYXKUMUJCPHYXKUMUJ 0
root@arm:~# echo 'UJXK''ABKGMH'
UJXKABKGMH
root@arm:~# MARKER='WNOP''GNMCSH' run 'i2cget -y -f 2 0x4b 0x12'
WNOPGNMCSH0x2c
WNOPGNMCSH 0
root@arm:~# echo 'ZONT''KBQAXN'
ZONTKBQAXN
root@arm:~# MARKER='OMLM''EWFWOY' run 'echo 1150000 1150000 > /sys/kernel/mva_tesst/regulators/buck3_set'
OMLMEWFWOYOMLMEWFWOY 0
root@arm:~# echo 'JMUL''VVJSZT'
JMULVVJSZT
root@arm:~# MARKER='HHSE''ZCYNKK' run 'i2cget -y -f 2 0x4b 0x12'
HHSEZCYNKK0x2d
HHSEZCYNKK 0
root@arm:~# echo 'NUVO''VALSEL'
NUVOVALSEL
root@arm:~# MARKER='VJEO''HCLZUC' run 'echo 1160000 1160000 > /sys/kernel/mva_tesst/regulators/buck3_set'
VJEOHCLZUCVJEOHCLZUC 0
root@arm:~# echo 'VEWM''XOHKCJ'
VEWMXOHKCJ
root@arm:~# MARKER='GEOT''XVSCWO' run 'i2cget -y -f 2 0x4b 0x12'
GEOTXVSCWO0x2e
GEOTXVSCWO 0
root@arm:~# echo 'QLPO''CLFECA'
QLPOCLFECA
root@arm:~# MARKER='HXQJ''GFAZKH' run 'echo 1170000 1170000 > /sys/kernel/mva_tesst/regulators/buck3_set'
HXQJGFAZKHHXQJGFAZKH 0
root@arm:~# echo 'MVEU''YSGYVG'
MVEUYSGYVG
root@arm:~# MARKER='VPQE''OALNEY' run 'i2cget -y -f 2 0x4b 0x12'
VPQEOALNEY0x2f
VPQEOALNEY 0
root@arm:~# echo 'GQCQ''MUXNUZ'
GQCQMUXNUZ
root@arm:~# MARKER='UZPA''CTTYUW' run 'echo 1180000 1180000 > /sys/kernel/mva_tesst/regulators/buck3_set'
UZPACTTYUWUZPACTTYUW 0
root@arm:~# echo 'HJQX''BHOSOT'
HJQXBHOSOT
root@arm:~# MARKER='FZYB''VYXANK' run 'i2cget -y -f 2 0x4b 0x12'
FZYBVYXANK0x30
FZYBVYXANK 0
root@arm:~# echo 'CPJM''BOZAHS'
CPJMBOZAHS
root@arm:~# MARKER='XOLJ''MPLFEB' run 'echo 1190000 1190000 > /sys/kernel/mva_tesst/regulators/buck3_set'
XOLJMPLFEBXOLJMPLFEB 0
root@arm:~# echo 'POPC''NCJPEO'
POPCNCJPEO
root@arm:~# MARKER='GBGJ''KVOMBT' run 'i2cget -y -f 2 0x4b 0x12'
GBGJKVOMBT0x31
GBGJKVOMBT 0
root@arm:~# echo 'MMOO''KKOZZY'
MMOOKKOZZY
root@arm:~# MARKER='ZYZY''GMWJQA' run 'echo 1200000 1200000 > /sys/kernel/mva_tesst/regulators/buck3_set'
ZYZYGMWJQAZYZYGMWJQA 0
root@arm:~# echo 'VOXW''KMECMV'
VOXWKMECMV
root@arm:~# MARKER='XOZT''CONGCL' run 'i2cget -y -f 2 0x4b 0x12'
XOZTCONGCL0x32
XOZTCONGCL 0
root@arm:~# echo 'HQZP''PPCKZM'
HQZPPPCKZM
root@arm:~# MARKER='AFGS''YXKUWY' run 'echo 1210000 1210000 > /sys/kernel/mva_tesst/regulators/buck3_set'
AFGSYXKUWYAFGSYXKUWY 0
root@arm:~# echo 'NYZS''GYTYPZ'
NYZSGYTYPZ
root@arm:~# MARKER='AVYJ''TJBLEQ' run 'i2cget -y -f 2 0x4b 0x12'
AVYJTJBLEQ0x33
AVYJTJBLEQ 0
root@arm:~# echo 'CTJV''HKKBNW'
CTJVHKKBNW
root@arm:~# MARKER='OCJH''CKQGZZ' run 'echo 1220000 1220000 > /sys/kernel/mva_tesst/regulators/buck3_set'
OCJHCKQGZZOCJHCKQGZZ 0
root@arm:~# echo 'KTSF''BWHHHW'
KTSFBWHHHW
root@arm:~# MARKER='ZPTV''PSLHPL' run 'i2cget -y -f 2 0x4b 0x12'
ZPTVPSLHPL0x34
ZPTVPSLHPL 0
root@arm:~# echo 'XLVX''SASLFP'
XLVXSASLFP
root@arm:~# MARKER='HFVF''BHBOWK' run 'echo 1230000 1230000 > /sys/kernel/mva_tesst/regulators/buck3_set'
HFVFBHBOWKHFVFBHBOWK 0
root@arm:~# echo 'UFHC''WCXLFS'
UFHCWCXLFS
root@arm:~# MARKER='XXJX''BXZOQJ' run 'i2cget -y -f 2 0x4b 0x12'
XXJXBXZOQJ0x35
XXJXBXZOQJ 0
root@arm:~# echo 'HCOC''BXZUAS'
HCOCBXZUAS
root@arm:~# MARKER='LJHH''VEUYZT' run 'echo 1240000 1240000 > /sys/kernel/mva_tesst/regulators/buck3_set'
LJHHVEUYZTLJHHVEUYZT 0
root@arm:~# echo 'ZEJB''EAKXNP'
ZEJBEAKXNP
root@arm:~# MARKER='XLQG''OGUKGE' run 'i2cget -y -f 2 0x4b 0x12'
XLQGOGUKGE0x36
XLQGOGUKGE 0
root@arm:~# echo 'CGMW''YSWNTK'
CGMWYSWNTK
root@arm:~# MARKER='CEZP''TZMSGZ' run 'echo 1250000 1250000 > /sys/kernel/mva_tesst/regulators/buck3_set'
CEZPTZMSGZCEZPTZMSGZ 0
root@arm:~# echo 'JQOF''CUUQLY'
JQOFCUUQLY
root@arm:~# MARKER='MFBV''TCNSXL' run 'i2cget -y -f 2 0x4b 0x12'
MFBVTCNSXL0x37
MFBVTCNSXL 0
root@arm:~# echo 'PPOJ''KFMUNG'
PPOJKFMUNG
root@arm:~# MARKER='AKQT''YKCJEY' run 'echo 1260000 1260000 > /sys/kernel/mva_tesst/regulators/buck3_set'
AKQTYKCJEYAKQTYKCJEY 0
root@arm:~# echo 'XZYL''XCVYKP'
XZYLXCVYKP
root@arm:~# MARKER='NTHU''JNEBWM' run 'i2cget -y -f 2 0x4b 0x12'
NTHUJNEBWM0x38
NTHUJNEBWM 0
root@arm:~# echo 'XOVE''UJQFXA'
XOVEUJQFXA
root@arm:~# MARKER='AFCE''GGAXWN' run 'echo 1270000 1270000 > /sys/kernel/mva_tesst/regulators/buck3_set'
AFCEGGAXWNAFCEGGAXWN 0
root@arm:~# echo 'HCNG''GEMWCQ'
HCNGGEMWCQ
root@arm:~# MARKER='NQUM''SUSHJM' run 'i2cget -y -f 2 0x4b 0x12'
NQUMSUSHJM0x39
NQUMSUSHJM 0
root@arm:~# echo 'PKLJ''SBKOGZ'
PKLJSBKOGZ
root@arm:~# MARKER='LJWH''PKKKTA' run 'echo 1280000 1280000 > /sys/kernel/mva_tesst/regulators/buck3_set'
LJWHPKKKTALJWHPKKKTA 0
root@arm:~# echo 'WKWT''YAZXHL'
WKWTYAZXHL
root@arm:~# MARKER='QFAY''MAOTHP' run 'i2cget -y -f 2 0x4b 0x12'
QFAYMAOTHP0x3a
QFAYMAOTHP 0
root@arm:~# echo 'LXGP''WWXEJA'
LXGPWWXEJA
root@arm:~# MARKER='TMGM''WWATJY' run 'echo 1290000 1290000 > /sys/kernel/mva_tesst/regulators/buck3_set'
TMGMWWATJYTMGMWWATJY 0
root@arm:~# echo 'JHJV''KYNNLX'
JHJVKYNNLX
root@arm:~# MARKER='ALPJ''NPPKLS' run 'i2cget -y -f 2 0x4b 0x12'
ALPJNPPKLS0x3b
ALPJNPPKLS 0
root@arm:~# echo 'VOJO''POLAOM'
VOJOPOLAOM
root@arm:~# MARKER='NXYL''CUAOGZ' run 'echo 1300000 1300000 > /sys/kernel/mva_tesst/regulators/buck3_set'
NXYLCUAOGZNXYLCUAOGZ 0
root@arm:~# echo 'BWQY''KJWUJP'
BWQYKJWUJP
root@arm:~# MARKER='QJLV''WSNLSE' run 'i2cget -y -f 2 0x4b 0x12'
QJLVWSNLSE0x3c
QJLVWSNLSE 0
root@arm:~# echo 'QKSJ''WYELHG'
QKSJWYELHG
root@arm:~# MARKER='BQGA''KUJYPA' run 'grep -r -l rohm,bd71837 /proc/device-tree  | sed '"'"'s![^/]*$!!'"'"''
BQGAKUJYPA/proc/device-tree/ocp/interconnect@48000000/segment@100000/target-module@9c000/i2c@0/pmic@4b/
BQGAKUJYPA 0
root@arm:~# echo 'HLFM''EKYNCN'
HLFMEKYNCN
root@arm:~# MARKER='TLHP''ENUYMO' run 'test -f /proc/device-tree/ocp/interconnectt\@48000000/segment\@100000/target-module\@9c000/i2c\@0/pmic\@4b/regulators/BUCK 4/rohm,no-regulator-enable-control ;echo $?'
TLHPENUYMO1
TLHPENUYMO 0
root@arm:~# echo 'WYVJ''YLONLL'
WYVJYLONLL
root@arm:~# MARKER='GMGF''HTBMSB' run 'i2cget -y -f 2 0x4b 0x8'
GMGFHTBMSB0xc6
GMGFHTBMSB 0
root@arm:~# echo 'SQEM''ZHLBFF'
SQEMZHLBFF
root@arm:~# MARKER='BYLM''UVNFPG' run 'echo 700000 700000 > /sys/kernel/mva_test//regulators/buck4_set'
BYLMUVNFPGBYLMUVNFPG 0
root@arm:~# echo 'HYLX''BXQLJM'
HYLXBXQLJM
root@arm:~# MARKER='HOBX''HUEJHV' run 'i2cget -y -f 2 0x4b 0x13'
HOBXHUEJHV0x00
HOBXHUEJHV 0
root@arm:~# echo 'FQFA''QYNNEW'
FQFAQYNNEW
root@arm:~# MARKER='CQSH''XCNHMM' run 'echo 710000 710000 > /sys/kernel/mva_test//regulators/buck4_set'
CQSHXCNHMMCQSHXCNHMM 0
root@arm:~# echo 'LGCU''COXEHQ'
LGCUCOXEHQ
root@arm:~# MARKER='BHKA''ASEHVY' run 'i2cget -y -f 2 0x4b 0x13'
BHKAASEHVY0x01
BHKAASEHVY 0
root@arm:~# echo 'LWXE''GZEUET'
LWXEGZEUET
root@arm:~# MARKER='FVCQ''OSVVOU' run 'echo 720000 720000 > /sys/kernel/mva_test//regulators/buck4_set'
FVCQOSVVOUFVCQOSVVOU 0
root@arm:~# echo 'UYJX''QMWFVV'
UYJXQMWFVV
root@arm:~# MARKER='PQWW''UVGQQB' run 'i2cget -y -f 2 0x4b 0x13'
PQWWUVGQQB0x02
PQWWUVGQQB 0
root@arm:~# echo 'NABY''NKKAGL'
NABYNKKAGL
root@arm:~# MARKER='MCKS''KMGCOF' run 'echo 730000 730000 > /sys/kernel/mva_test//regulators/buck4_set'
MCKSKMGCOFMCKSKMGCOF 0
root@arm:~# echo 'ANJP''CAUOCK'
ANJPCAUOCK
root@arm:~# MARKER='PJLU''ZNPUSP' run 'i2cget -y -f 2 0x4b 0x13'
PJLUZNPUSP0x03
PJLUZNPUSP 0
root@arm:~# echo 'TZUX''GJFTHU'
TZUXGJFTHU
root@arm:~# MARKER='HMGZ''LMAKVQ' run 'echo 740000 740000 > /sys/kernel/mva_test//regulators/buck4_set'
HMGZLMAKVQHMGZLMAKVQ 0
root@arm:~# echo 'SUXN''HKVMUB'
SUXNHKVMUB
root@arm:~# MARKER='NQEB''SWUWXN' run 'i2cget -y -f 2 0x4b 0x13'
NQEBSWUWXN0x04
NQEBSWUWXN 0
root@arm:~# echo 'VALX''OMPMTB'
VALXOMPMTB
root@arm:~# MARKER='FJPX''PTXKCS' run 'echo 750000 750000 > /sys/kernel/mva_test//regulators/buck4_set'
FJPXPTXKCSFJPXPTXKCS 0
root@arm:~# echo 'MJGT''NUSECG'
MJGTNUSECG
root@arm:~# MARKER='ELKE''OLEMVY' run 'i2cget -y -f 2 0x4b 0x13'
ELKEOLEMVY0x05
ELKEOLEMVY 0
root@arm:~# echo 'HHNV''JVBXWO'
HHNVJVBXWO
root@arm:~# MARKER='EAVB''FWFGSN' run 'echo 760000 760000 > /sys/kernel/mva_test//regulators/buck4_set'
EAVBFWFGSNEAVBFWFGSN 0
root@arm:~# echo 'TWKX''SNXQUX'
TWKXSNXQUX
root@arm:~# MARKER='AOEO''BLSYLU' run 'i2cget -y -f 2 0x4b 0x13'
AOEOBLSYLU0x06
AOEOBLSYLU 0
root@arm:~# echo 'FLUK''SUVCFO'
FLUKSUVCFO
root@arm:~# MARKER='OUMT''VBZAQL' run 'echo 770000 770000 > /sys/kernel/mva_test//regulators/buck4_set'
OUMTVBZAQLOUMTVBZAQL 0
root@arm:~# echo 'MMYU''QNANSL'
MMYUQNANSL
root@arm:~# MARKER='WPEQ''PXXLHP' run 'i2cget -y -f 2 0x4b 0x13'
WPEQPXXLHP0x07
WPEQPXXLHP 0
root@arm:~# echo 'JGCA''SEWWOV'
JGCASEWWOV
root@arm:~# MARKER='NTPG''XHWXWT' run 'echo 780000 780000 > /sys/kernel/mva_test//regulators/buck4_set'
NTPGXHWXWTNTPGXHWXWT 0
root@arm:~# echo 'GWMK''JEWBFN'
GWMKJEWBFN
root@arm:~# MARKER='GHFW''KXNXNZ' run 'i2cget -y -f 2 0x4b 0x13'
GHFWKXNXNZ0x08
GHFWKXNXNZ 0
root@arm:~# echo 'UTMZ''SEMHGQ'
UTMZSEMHGQ
root@arm:~# MARKER='UOSZ''MNSNTF' run 'echo 790000 790000 > /sys/kernel/mva_test//regulators/buck4_set'
UOSZMNSNTFUOSZMNSNTF 0
root@arm:~# echo 'VEBP''HQFBTS'
VEBPHQFBTS
root@arm:~# MARKER='XKTH''UAUHLH' run 'i2cget -y -f 2 0x4b 0x13'
XKTHUAUHLH0x09
XKTHUAUHLH 0
root@arm:~# echo 'SJUN''SJPTMV'
SJUNSJPTMV
root@arm:~# MARKER='HYBU''LVVANT' run 'echo 800000 800000 > /sys/kernel/mva_test//regulators/buck4_set'
HYBULVVANTHYBULVVANT 0
root@arm:~# echo 'WZPE''JZJWSP'
WZPEJZJWSP
root@arm:~# MARKER='AYPQ''VXEFUK' run 'i2cget -y -f 2 0x4b 0x13'
AYPQVXEFUK0x0a
AYPQVXEFUK 0
root@arm:~# echo 'KYGY''UYAWLZ'
KYGYUYAWLZ
root@arm:~# MARKER='PEEJ''ZPPUKL' run 'echo 810000 810000 > /sys/kernel/mva_test//regulators/buck4_set'
PEEJZPPUKLPEEJZPPUKL 0
root@arm:~# echo 'ZPHU''LPHQNS'
ZPHULPHQNS
root@arm:~# MARKER='TPWY''NYMFVQ' run 'i2cget -y -f 2 0x4b 0x13'
TPWYNYMFVQ0x0b
TPWYNYMFVQ 0
root@arm:~# echo 'XSYE''FLVMVX'
XSYEFLVMVX
root@arm:~# MARKER='QXLX''CUSEUO' run 'echo 820000 820000 > /sys/kernel/mva_test//regulators/buck4_set'
QXLXCUSEUOQXLXCUSEUO 0
root@arm:~# echo 'ELGE''PLSKKB'
ELGEPLSKKB
root@arm:~# MARKER='YJZO''OJUWGG' run 'i2cget -y -f 2 0x4b 0x13'
YJZOOJUWGG0x0c
YJZOOJUWGG 0
root@arm:~# echo 'SAMY''NQAJGY'
SAMYNQAJGY
root@arm:~# MARKER='LFPX''GBQNFM' run 'echo 830000 830000 > /sys/kernel/mva_test//regulators/buck4_set'
LFPXGBQNFMLFPXGBQNFM 0
root@arm:~# echo 'JUUU''JJXCGV'
JUUUJJXCGV
root@arm:~# MARKER='BSOQ''HOJUAW' run 'i2cget -y -f 2 0x4b 0x13'
BSOQHOJUAW0x0d
BSOQHOJUAW 0
root@arm:~# echo 'UQPU''GSGPOV'
UQPUGSGPOV
root@arm:~# MARKER='LGNZ''TQMJOT' run 'echo 840000 840000 > /sys/kernel/mva_test//regulators/buck4_set'
LGNZTQMJOTLGNZTQMJOT 0
root@arm:~# echo 'GUFX''OHNWTQ'
GUFXOHNWTQ
root@arm:~# MARKER='BCAX''UPZASM' run 'i2cget -y -f 2 0x4b 0x13'
BCAXUPZASM0x0e
BCAXUPZASM 0
root@arm:~# echo 'OTFG''OZJKFK'
OTFGOZJKFK
root@arm:~# MARKER='UMYW''LEUBSL' run 'echo 850000 850000 > /sys/kernel/mva_test//regulators/buck4_set'
UMYWLEUBSLUMYWLEUBSL 0
root@arm:~# echo 'NGTC''JUAJXQ'
NGTCJUAJXQ
root@arm:~# MARKER='EFNB''KPBJLP' run 'i2cget -y -f 2 0x4b 0x13'
EFNBKPBJLP0x0f
EFNBKPBJLP 0
root@arm:~# echo 'MPYE''XKCLQV'
MPYEXKCLQV
root@arm:~# MARKER='BQVT''SNMFUG' run 'echo 860000 860000 > /sys/kernel/mva_test//regulators/buck4_set'
BQVTSNMFUGBQVTSNMFUG 0
root@arm:~# echo 'TBMS''GGLQCB'
TBMSGGLQCB
root@arm:~# MARKER='GVVV''GFAXCB' run 'i2cget -y -f 2 0x4b 0x13'
GVVVGFAXCB0x10
GVVVGFAXCB 0
root@arm:~# echo 'WJBS''FOQEBN'
WJBSFOQEBN
root@arm:~# MARKER='QKXL''VANEBZ' run 'echo 870000 870000 > /sys/kernel/mva_test//regulators/buck4_set'
QKXLVANEBZQKXLVANEBZ 0
root@arm:~# echo 'YACB''VJSVYL'
YACBVJSVYL
root@arm:~# MARKER='TVXG''WZYYYH' run 'i2cget -y -f 2 0x4b 0x13'
TVXGWZYYYH0x11
TVXGWZYYYH 0
root@arm:~# echo 'TJLM''EPKSKA'
TJLMEPKSKA
root@arm:~# MARKER='BVCL''VWMAOZ' run 'echo 880000 880000 > /sys/kernel/mva_test//regulators/buck4_set'
BVCLVWMAOZBVCLVWMAOZ 0
root@arm:~# echo 'QTHG''NGHGTA'
QTHGNGHGTA
root@arm:~# MARKER='LEWX''MYSGXL' run 'i2cget -y -f 2 0x4b 0x13'
LEWXMYSGXL0x12
LEWXMYSGXL 0
root@arm:~# echo 'NQNS''ZPTWUS'
NQNSZPTWUS
root@arm:~# MARKER='UZCV''CZGLMG' run 'echo 890000 890000 > /sys/kernel/mva_test//regulators/buck4_set'
UZCVCZGLMGUZCVCZGLMG 0
root@arm:~# echo 'LMCU''TVCWHJ'
LMCUTVCWHJ
root@arm:~# MARKER='LUBZ''QSBXWX' run 'i2cget -y -f 2 0x4b 0x13'
LUBZQSBXWX0x13
LUBZQSBXWX 0
root@arm:~# echo 'ZLHY''VJNQQT'
ZLHYVJNQQT
root@arm:~# MARKER='BFEJ''FHJZVX' run 'echo 900000 900000 > /sys/kernel/mva_test//regulators/buck4_set'
BFEJFHJZVXBFEJFHJZVX 0
root@arm:~# echo 'YWKM''FVSSWY'
YWKMFVSSWY
root@arm:~# MARKER='PQGK''LLAKGP' run 'i2cget -y -f 2 0x4b 0x13'
PQGKLLAKGP0x14
PQGKLLAKGP 0
root@arm:~# echo 'XTNX''BWYYHB'
XTNXBWYYHB
root@arm:~# MARKER='VZCQ''HNLOBE' run 'echo 910000 910000 > /sys/kernel/mva_test//regulators/buck4_set'
VZCQHNLOBEVZCQHNLOBE 0
root@arm:~# echo 'OYAC''ZZPYYW'
OYACZZPYYW
root@arm:~# MARKER='NKPZ''PMEAKG' run 'i2cget -y -f 2 0x4b 0x13'
NKPZPMEAKG0x15
NKPZPMEAKG 0
root@arm:~# echo 'NHJE''GCOKYY'
NHJEGCOKYY
root@arm:~# MARKER='LHXP''EMVGQH' run 'echo 920000 920000 > /sys/kernel/mva_test//regulators/buck4_set'
LHXPEMVGQHLHXPEMVGQH 0
root@arm:~# echo 'QOUH''GLWEFP'
QOUHGLWEFP
root@arm:~# MARKER='LPQW''UYLPGP' run 'i2cget -y -f 2 0x4b 0x13'
LPQWUYLPGP0x16
LPQWUYLPGP 0
root@arm:~# echo 'THKT''XWOQNA'
THKTXWOQNA
root@arm:~# MARKER='PYXX''HHOBPG' run 'echo 930000 930000 > /sys/kernel/mva_test//regulators/buck4_set'
PYXXHHOBPGPYXXHHOBPG 0
root@arm:~# echo 'UXYN''PJBOXY'
UXYNPJBOXY
root@arm:~# MARKER='HMCG''ANFKHU' run 'i2cget -y -f 2 0x4b 0x13'
HMCGANFKHU0x17
HMCGANFKHU 0
root@arm:~# echo 'BCSB''WSCZXZ'
BCSBWSCZXZ
