Labgrid Console Logfile for main
Logfile started at 2024-12-19 12:24:05.167412
=== Log starts here ===

root@arm:~# run() { echo -n "$MARKER"; sh -c "$@"; echo "$MARKER $?"; }
root@arm:~# echo 'SNYA''FUPMMT'
SNYAFUPMMT
root@arm:~# MARKER='ACOL''XCEMEG' run 'grep -r -l rohm,bd71837 /proc/device-tree  | sed '"'"'s![^/]*$!!'"'"''
ACOLXCEMEG/proc/device-tree/ocp/interconnect@48000000/segment@100000/target-module@9c000/i2c@0/pmic@4b/
ACOLXCEMEG 0
root@arm:~# echo 'BYPQ''ONCTWB'
BYPQONCTWB
root@arm:~# MARKER='VWLK''VAABKC' run 'test -f /proc/device-tree/ocp/interconnectt\@48000000/segment\@100000/target-module\@9c000/i2c\@0/pmic\@4b/regulators/BUCK11/rohm,no-regulator-enable-control ;echo $?'
VWLKVAABKC1
VWLKVAABKC 0
root@arm:~# echo 'NFWG''AEJZHW'
NFWGAEJZHW
root@arm:~# MARKER='PNKW''JLCVYE' run 'echo 1 > /sys/kernel/mva_test/regulators/bbuck1_en'
PNKWJLCVYEPNKWJLCVYE 0
root@arm:~# echo 'LWWF''TNBUMH'
LWWFTNBUMH
root@arm:~# MARKER='ZEFB''TUMYEA' run 'i2cget -y -f 2 0x4b 0x5'
ZEFBTUMYEA0x03
ZEFBTUMYEA 0
root@arm:~# echo 'SJLL''GYFEXK'
SJLLGYFEXK
root@arm:~# MARKER='HAQZ''HBHGHA' run 'grep -r -l rohm,bd71837 /proc/device-tree  | sed '"'"'s![^/]*$!!'"'"''
HAQZHBHGHA/proc/device-tree/ocp/interconnect@48000000/segment@100000/target-module@9c000/i2c@0/pmic@4b/
HAQZHBHGHA 0
root@arm:~# echo 'BTZJ''FQUJZQ'
BTZJFQUJZQ
root@arm:~# MARKER='PHJS''KHOXCP' run 'test -f /proc/device-tree/ocp/interconnectt\@48000000/segment\@100000/target-module\@9c000/i2c\@0/pmic\@4b/regulators/BUCK11/rohm,no-regulator-enable-control ;echo $?'
PHJSKHOXCP1
PHJSKHOXCP 0
root@arm:~# echo 'COBP''CJQJJC'
COBPCJQJJC
root@arm:~# MARKER='YBME''CLMUNP' run 'grep -r -l rohm,bd71837 /proc/device-tree  | sed '"'"'s![^/]*$!!'"'"''
YBMECLMUNP/proc/device-tree/ocp/interconnect@48000000/segment@100000/target-module@9c000/i2c@0/pmic@4b/
YBMECLMUNP 0
root@arm:~# echo 'UUGY''KVFKGS'
UUGYKVFKGS
root@arm:~# MARKER='QQXF''YOTEMV' run 'test -f /proc/device-tree/ocp/interconnectt\@48000000/segment\@100000/target-module\@9c000/i2c\@0/pmic\@4b/regulators/BUCK11/regulator-always-on ;echo $?'
QQXFYOTEMV1
QQXFYOTEMV 0
root@arm:~# echo 'OSPS''HWEBTG'
OSPSHWEBTG
root@arm:~# MARKER='YFOA''KUFSLY' run 'echo 0 > /sys/kernel/mva_test/regulators/bbuck1_en'
YFOAKUFSLYYFOAKUFSLY 0
root@arm:~# echo 'UWOY''QXZJAO'
UWOYQXZJAO
root@arm:~# MARKER='KKAW''TVPPEL' run 'i2cget -y -f 2 0x4b 0x5'
KKAWTVPPEL0x02
KKAWTVPPEL 0
root@arm:~# echo 'QJSF''BPKMZP'
QJSFBPKMZP
root@arm:~# MARKER='AMBX''ZVAVBM' run 'grep -r -l rohm,bd71837 /proc/device-tree  | sed '"'"'s![^/]*$!!'"'"''
AMBXZVAVBM/proc/device-tree/ocp/interconnect@48000000/segment@100000/target-module@9c000/i2c@0/pmic@4b/
AMBXZVAVBM 0
root@arm:~# echo 'BXKH''MVFTUA'
BXKHMVFTUA
root@arm:~# MARKER='BNSX''BHJYYP' run 'test -f /proc/device-tree/ocp/interconnectt\@48000000/segment\@100000/target-module\@9c000/i2c\@0/pmic\@4b/regulators/BUCK22/rohm,no-regulator-enable-control ;echo $?'
BNSXBHJYYP1
BNSXBHJYYP 0
root@arm:~# echo 'ZWZB''NUCLSX'
ZWZBNUCLSX
root@arm:~# MARKER='QHSZ''WCPJKL' run 'echo 1 > /sys/kernel/mva_test/regulators/bbuck2_en'
QHSZWCPJKLQHSZWCPJKL 0
root@arm:~# echo 'JTAP''UHOUBT'
JTAPUHOUBT
root@arm:~# MARKER='VTYH''VXQOVB' run 'i2cget -y -f 2 0x4b 0x6'
VTYHVXQOVB0x43
VTYHVXQOVB 0
root@arm:~# echo 'AQTE''MYVNWJ'
AQTEMYVNWJ
root@arm:~# MARKER='CUUT''HVTWLN' run 'grep -r -l rohm,bd71837 /proc/device-tree  | sed '"'"'s![^/]*$!!'"'"''
CUUTHVTWLN/proc/device-tree/ocp/interconnect@48000000/segment@100000/target-module@9c000/i2c@0/pmic@4b/
CUUTHVTWLN 0
root@arm:~# echo 'XFWA''WPVAHU'
XFWAWPVAHU
root@arm:~# MARKER='CFVX''QMBQSF' run 'test -f /proc/device-tree/ocp/interconnectt\@48000000/segment\@100000/target-module\@9c000/i2c\@0/pmic\@4b/regulators/BUCK22/rohm,no-regulator-enable-control ;echo $?'
CFVXQMBQSF1
CFVXQMBQSF 0
root@arm:~# echo 'OLWV''WPFWQW'
OLWVWPFWQW
root@arm:~# MARKER='SMMK''GXOFJQ' run 'grep -r -l rohm,bd71837 /proc/device-tree  | sed '"'"'s![^/]*$!!'"'"''
SMMKGXOFJQ/proc/device-tree/ocp/interconnect@48000000/segment@100000/target-module@9c000/i2c@0/pmic@4b/
SMMKGXOFJQ 0
root@arm:~# echo 'VJUA''ZHEGMO'
VJUAZHEGMO
root@arm:~# MARKER='QKKY''GWXXBG' run 'test -f /proc/device-tree/ocp/interconnectt\@48000000/segment\@100000/target-module\@9c000/i2c\@0/pmic\@4b/regulators/BUCK22/regulator-always-on ;echo $?'
QKKYGWXXBG0
QKKYGWXXBG 0
root@arm:~# echo 'OEFZ''EEEQUV'
OEFZEEEQUV
root@arm:~# MARKER='UEWY''QANLMM' run 'grep -r -l rohm,bd71837 /proc/device-tree  | sed '"'"'s![^/]*$!!'"'"''
UEWYQANLMM/proc/device-tree/ocp/interconnect@48000000/segment@100000/target-module@9c000/i2c@0/pmic@4b/
UEWYQANLMM 0
root@arm:~# echo 'SXCU''UWKGOC'
SXCUUWKGOC
root@arm:~# MARKER='AEVX''UVUPSY' run 'test -f /proc/device-tree/ocp/interconnectt\@48000000/segment\@100000/target-module\@9c000/i2c\@0/pmic\@4b/regulators/BUCK33/rohm,no-regulator-enable-control ;echo $?'
AEVXUVUPSY0
AEVXUVUPSY 0
root@arm:~# echo 'KANN''BOSWGO'
KANNBOSWGO
root@arm:~# MARKER='XVVX''WYBAQN' run 'grep -r -l rohm,bd71837 /proc/device-tree  | sed '"'"'s![^/]*$!!'"'"''
XVVXWYBAQN/proc/device-tree/ocp/interconnect@48000000/segment@100000/target-module@9c000/i2c@0/pmic@4b/
XVVXWYBAQN 0
root@arm:~# echo 'GXYW''MGNLXL'
GXYWMGNLXL
root@arm:~# MARKER='FKVC''QJMTNL' run 'test -f /proc/device-tree/ocp/interconnectt\@48000000/segment\@100000/target-module\@9c000/i2c\@0/pmic\@4b/regulators/BUCK33/rohm,no-regulator-enable-control ;echo $?'
FKVCQJMTNL0
FKVCQJMTNL 0
root@arm:~# echo 'WZZL''HPAMFP'
WZZLHPAMFP
root@arm:~# MARKER='WOLY''OZWLOE' run 'grep -r -l rohm,bd71837 /proc/device-tree  | sed '"'"'s![^/]*$!!'"'"''
WOLYOZWLOE/proc/device-tree/ocp/interconnect@48000000/segment@100000/target-module@9c000/i2c@0/pmic@4b/
WOLYOZWLOE 0
root@arm:~# echo 'AZZY''ZNEUYM'
AZZYZNEUYM
root@arm:~# MARKER='JPOG''ZNFXCL' run 'test -f /proc/device-tree/ocp/interconnectt\@48000000/segment\@100000/target-module\@9c000/i2c\@0/pmic\@4b/regulators/BUCK44/rohm,no-regulator-enable-control ;echo $?'
JPOGZNFXCL1
JPOGZNFXCL 0
root@arm:~# echo 'OEAN''JKQVNE'
OEANJKQVNE
root@arm:~# MARKER='QENX''OZKHEY' run 'echo 1 > /sys/kernel/mva_test/regulators/bbuck4_en'
QENXOZKHEYQENXOZKHEY 0
root@arm:~# echo 'XAGF''KLZYPS'
XAGFKLZYPS
root@arm:~# MARKER='TPQV''BBMGMF' run 'i2cget -y -f 2 0x4b 0x8'
TPQVBBMGMF0xc7
TPQVBBMGMF 0
root@arm:~# echo 'QHZZ''YVXHLQ'
QHZZYVXHLQ
root@arm:~# MARKER='KPOT''ZWSJZC' run 'grep -r -l rohm,bd71837 /proc/device-tree  | sed '"'"'s![^/]*$!!'"'"''
KPOTZWSJZC/proc/device-tree/ocp/interconnect@48000000/segment@100000/target-module@9c000/i2c@0/pmic@4b/
KPOTZWSJZC 0
root@arm:~# echo 'KUGT''VAHUOQ'
KUGTVAHUOQ
root@arm:~# MARKER='MNNJ''UZMPGH' run 'test -f /proc/device-tree/ocp/interconnectt\@48000000/segment\@100000/target-module\@9c000/i2c\@0/pmic\@4b/regulators/BUCK 4/rohm,no-regulator-enable-control ;echo $?'
MNNJUZMPGH1
MNNJUZMPGH 0
root@arm:~# echo 'LKLB''JMFUYK'
LKLBJMFUYK
root@arm:~# MARKER='QOTH''GLZBHJ' run 'grep -r -l rohm,bd71837 /proc/device-tree  | sed '"'"'s![^/]*$!!'"'"''
QOTHGLZBHJ/proc/device-tree/ocp/interconnect@48000000/segment@100000/target-module@9c000/i2c@0/pmic@4b/
QOTHGLZBHJ 0
root@arm:~# echo 'HMTF''VJOOZJ'
HMTFVJOOZJ
root@arm:~# MARKER='TPZE''JCFPQP' run 'test -f /proc/device-tree/ocp/interconnectt\@48000000/segment\@100000/target-module\@9c000/i2c\@0/pmic\@4b/regulators/BUCK44/regulator-always-on ;echo $?'
TPZEJCFPQP1
TPZEJCFPQP 0
root@arm:~# echo 'TGGO''AMKYWQ'
TGGOAMKYWQ
root@arm:~# MARKER='SKXM''NYKPWN' run 'echo 0 > /sys/kernel/mva_test/regulators/bbuck4_en'
SKXMNYKPWNSKXMNYKPWN 0
root@arm:~# echo 'LWSN''UWKYLM'
LWSNUWKYLM
root@arm:~# MARKER='XYMG''KPMWPZ' run 'i2cget -y -f 2 0x4b 0x8'
XYMGKPMWPZ0xc6
XYMGKPMWPZ 0
root@arm:~# echo 'ZKUA''JLLYGH'
ZKUAJLLYGH
root@arm:~# MARKER='QAFQ''ZHGYKC' run 'grep -r -l rohm,bd71837 /proc/device-tree  | sed '"'"'s![^/]*$!!'"'"''
QAFQZHGYKC/proc/device-tree/ocp/interconnect@48000000/segment@100000/target-module@9c000/i2c@0/pmic@4b/
QAFQZHGYKC 0
root@arm:~# echo 'MNQO''QKUWKC'
MNQOQKUWKC
root@arm:~# MARKER='XPNZ''MNQMMX' run 'test -f /proc/device-tree/ocp/interconnectt\@48000000/segment\@100000/target-module\@9c000/i2c\@0/pmic\@4b/regulators/BUCK55/rohm,no-regulator-enable-control ;echo $?'
XPNZMNQMMX1
XPNZMNQMMX 0
root@arm:~# echo 'EWJL''ZBAEVJ'
EWJLZBAEVJ
root@arm:~# MARKER='BFMP''VSFTBQ' run 'echo 1 > /sys/kernel/mva_test/regulators/bbuck5_en'
BFMPVSFTBQBFMPVSFTBQ 0
root@arm:~# echo 'NKMQ''OZCSET'
NKMQOZCSET
root@arm:~# MARKER='SGKO''LBBBML' run 'i2cget -y -f 2 0x4b 0x9'
SGKOLBBBML0x03
SGKOLBBBML 0
root@arm:~# echo 'SHHX''OAEMYS'
SHHXOAEMYS
root@arm:~# MARKER='NJME''KPBMHQ' run 'grep -r -l rohm,bd71837 /proc/device-tree  | sed '"'"'s![^/]*$!!'"'"''
NJMEKPBMHQ/proc/device-tree/ocp/interconnect@48000000/segment@100000/target-module@9c000/i2c@0/pmic@4b/
NJMEKPBMHQ 0
root@arm:~# echo 'QHXJ''ZKTTUA'
QHXJZKTTUA
root@arm:~# MARKER='UKXY''APWBJA' run 'test -f /proc/device-tree/ocp/interconnectt\@48000000/segment\@100000/target-module\@9c000/i2c\@0/pmic\@4b/regulators/BUCK55/rohm,no-regulator-enable-control ;echo $?'
UKXYAPWBJA1
UKXYAPWBJA 0
root@arm:~# echo 'AOXT''KASZNS'
AOXTKASZNS
root@arm:~# MARKER='GELX''STUNSE' run 'grep -r -l rohm,bd71837 /proc/device-tree  | sed '"'"'s![^/]*$!!'"'"''
GELXSTUNSE/proc/device-tree/ocp/interconnect@48000000/segment@100000/target-module@9c000/i2c@0/pmic@4b/
GELXSTUNSE 0
root@arm:~# echo 'ULSW''QPXQEQ'
ULSWQPXQEQ
root@arm:~# MARKER='XWOT''QTBMVH' run 'test -f /proc/device-tree/ocp/interconnectt\@48000000/segment\@100000/target-module\@9c000/i2c\@0/pmic\@4b/regulators/BUCK55/regulator-always-on ;echo $?'
XWOTQTBMVH1
XWOTQTBMVH 0
root@arm:~# echo 'FLXN''BOXLSJ'
FLXNBOXLSJ
root@arm:~# MARKER='CVKO''XNXNXU' run 'echo 0 > /sys/kernel/mva_test/regulators/bbuck5_en'
CVKOXNXNXUCVKOXNXNXU 0
root@arm:~# echo 'TAYE''PUMCHZ'
TAYEPUMCHZ
root@arm:~# MARKER='YUJB''XPUQWA' run 'i2cget -y -f 2 0x4b 0x9'
YUJBXPUQWA0x02
YUJBXPUQWA 0
root@arm:~# echo 'JPST''KMQLXV'
JPSTKMQLXV
root@arm:~# MARKER='QOGS''UEHPUN' run 'grep -r -l rohm,bd71837 /proc/device-tree  | sed '"'"'s![^/]*$!!'"'"''
QOGSUEHPUN/proc/device-tree/ocp/interconnect@48000000/segment@100000/target-module@9c000/i2c@0/pmic@4b/
QOGSUEHPUN 0
root@arm:~# echo 'WXNA''ZJMEVH'
WXNAZJMEVH
root@arm:~# MARKER='GBNS''BEWJQG' run 'test -f /proc/device-tree/ocp/interconnectt\@48000000/segment\@100000/target-module\@9c000/i2c\@0/pmic\@4b/regulators/BUCK66/rohm,no-regulator-enable-control ;echo $?'
GBNSBEWJQG1
GBNSBEWJQG 0
root@arm:~# echo 'OOVK''QZMJPW'
OOVKQZMJPW
root@arm:~# MARKER='NLKB''LYHVMA' run 'echo 1 > /sys/kernel/mva_test/regulators/bbuck6_en'
NLKBLYHVMANLKBLYHVMA 0
root@arm:~# echo 'VKZQ''BYAASA'
VKZQBYAASA
root@arm:~# MARKER='AZVC''HEYGJG' run 'i2cget -y -f 2 0x4b 0xa'
AZVCHEYGJG0x03
AZVCHEYGJG 0
root@arm:~# echo 'WPCF''TXUKWX'
WPCFTXUKWX
root@arm:~# MARKER='WZQB''ZWUJAP' run 'grep -r -l rohm,bd71837 /proc/device-tree  | sed '"'"'s![^/]*$!!'"'"''
WZQBZWUJAP/proc/device-tree/ocp/interconnect@48000000/segment@100000/target-module@9c000/i2c@0/pmic@4b/
WZQBZWUJAP 0
root@arm:~# echo 'FQHB''CUNBTA'
FQHBCUNBTA
root@arm:~# MARKER='VLUN''BPANWE' run 'test -f /proc/device-tree/ocp/interconnectt\@48000000/segment\@100000/target-module\@9c000/i2c\@0/pmic\@4b/regulators/BUCK66/rohm,no-regulator-enable-control ;echo $?'
VLUNBPANWE1
VLUNBPANWE 0
root@arm:~# echo 'TJOP''LCMGMA'
TJOPLCMGMA
root@arm:~# MARKER='OTLS''HYUKKA' run 'grep -r -l rohm,bd71837 /proc/device-tree  | sed '"'"'s![^/]*$!!'"'"''
OTLSHYUKKA/proc/device-tree/ocp/interconnect@48000000/segment@100000/target-module@9c000/i2c@0/pmic@4b/
OTLSHYUKKA 0
root@arm:~# echo 'CAPJ''KUTCUE'
CAPJKUTCUE
root@arm:~# MARKER='KSZA''OAMTTX' run 'test -f /proc/device-tree/ocp/interconnectt\@48000000/segment\@100000/target-module\@9c000/i2c\@0/pmic\@4b/regulators/BUCK66/regulator-always-on ;echo $?'
KSZAOAMTTX1
KSZAOAMTTX 0
root@arm:~# echo 'PNPB''HUENVL'
PNPBHUENVL
root@arm:~# MARKER='XNAP''SALJXB' run 'echo 0 > /sys/kernel/mva_test/regulators/bbuck6_en'
XNAPSALJXBXNAPSALJXB 0
root@arm:~# echo 'YFPK''UWTOZH'
YFPKUWTOZH
root@arm:~# MARKER='GSYQ''LZCXPJ' run 'i2cget -y -f 2 0x4b 0xa'
GSYQLZCXPJ0x02
GSYQLZCXPJ 0
root@arm:~# echo 'LWSG''QCWNJC'
LWSGQCWNJC
root@arm:~# MARKER='ZXTB''GLEWSA' run 'grep -r -l rohm,bd71837 /proc/device-tree  | sed '"'"'s![^/]*$!!'"'"''
ZXTBGLEWSA/proc/device-tree/ocp/interconnect@48000000/segment@100000/target-module@9c000/i2c@0/pmic@4b/
ZXTBGLEWSA 0
root@arm:~# echo 'GNNL''HYSTHO'
GNNLHYSTHO
root@arm:~# MARKER='HGUN''MQHOYH' run 'test -f /proc/device-tree/ocp/interconnectt\@48000000/segment\@100000/target-module\@9c000/i2c\@0/pmic\@4b/regulators/BUCK77/rohm,no-regulator-enable-control ;echo $?'
HGUNMQHOYH1
HGUNMQHOYH 0
root@arm:~# echo 'JJHE''BLCHML'
JJHEBLCHML
root@arm:~# MARKER='FOPK''ZSHOEA' run 'echo 1 > /sys/kernel/mva_test/regulators/bbuck7_en'
FOPKZSHOEAFOPKZSHOEA 0
root@arm:~# echo 'YOVQ''JWBLLL'
YOVQJWBLLL
root@arm:~# MARKER='CJBB''GPTZSP' run 'i2cget -y -f 2 0x4b 0xb'
CJBBGPTZSP0x03
CJBBGPTZSP 0
root@arm:~# echo 'ZUUF''TLFBYQ'
ZUUFTLFBYQ
root@arm:~# MARKER='VXQY''NBXAKK' run 'grep -r -l rohm,bd71837 /proc/device-tree  | sed '"'"'s![^/]*$!!'"'"''
VXQYNBXAKK/proc/device-tree/ocp/interconnect@48000000/segment@100000/target-module@9c000/i2c@0/pmic@4b/
VXQYNBXAKK 0
root@arm:~# echo 'CYGS''WEXKBN'
CYGSWEXKBN
root@arm:~# MARKER='MEGW''KWCBSY' run 'test -f /proc/device-tree/ocp/interconnectt\@48000000/segment\@100000/target-module\@9c000/i2c\@0/pmic\@4b/regulators/BUCK77/rohm,no-regulator-enable-control ;echo $?'
MEGWKWCBSY1
MEGWKWCBSY 0
root@arm:~# echo 'OWLE''EWNPPP'
OWLEEWNPPP
root@arm:~# MARKER='CPMN''PGLAXK' run 'grep -r -l rohm,bd71837 /proc/device-tree  | sed '"'"'s![^/]*$!!'"'"''
CPMNPGLAXK/proc/device-tree/ocp/interconnect@48000000/segment@100000/target-module@9c000/i2c@0/pmic@4b/
CPMNPGLAXK 0
root@arm:~# echo 'VWQX''CXCBUQ'
VWQXCXCBUQ
root@arm:~# MARKER='ZCYL''YMBNGG' run 'test -f /proc/device-tree/ocp/interconnectt\@48000000/segment\@100000/target-module\@9c000/i2c\@0/pmic\@4b/regulators/BUCK77/regulator-always-on ;echo $?'
ZCYLYMBNGG1
ZCYLYMBNGG 0
root@arm:~# echo 'TAUG''HCZABP'
TAUGHCZABP
root@arm:~# MARKER='MJVZ''QKKOMW' run 'echo 0 > /sys/kernel/mva_test/regulators/bbuck7_en'
MJVZQKKOMWMJVZQKKOMW 0
root@arm:~# echo 'BXTC''QCSNMC'
BXTCQCSNMC
root@arm:~# MARKER='SCAX''HHWFOB' run 'i2cget -y -f 2 0x4b 0xb'
SCAXHHWFOB0x02
SCAXHHWFOB 0
root@arm:~# echo 'OMUG''UGLCGW'
OMUGUGLCGW
root@arm:~# MARKER='SLSH''ZELUQH' run 'grep -r -l rohm,bd71837 /proc/device-tree  | sed '"'"'s![^/]*$!!'"'"''
SLSHZELUQH/proc/device-tree/ocp/interconnect@48000000/segment@100000/target-module@9c000/i2c@0/pmic@4b/
SLSHZELUQH 0
root@arm:~# echo 'ZGPA''MWOGYC'
ZGPAMWOGYC
root@arm:~# MARKER='AOXA''SGZJOP' run 'test -f /proc/device-tree/ocp/interconnectt\@48000000/segment\@100000/target-module\@9c000/i2c\@0/pmic\@4b/regulators/BUCK88/rohm,no-regulator-enable-control ;echo $?'
AOXASGZJOP1
AOXASGZJOP 0
root@arm:~# echo 'CHWE''XMSQKP'
CHWEXMSQKP
root@arm:~# MARKER='HYSY''ZCBQSM' run 'echo 1 > /sys/kernel/mva_test/regulators/bbuck8_en'
HYSYZCBQSMHYSYZCBQSM 0
root@arm:~# echo 'WKJY''QHCSTV'
WKJYQHCSTV
root@arm:~# MARKER='AJPX''APTHBK' run 'i2cget -y -f 2 0x4b 0xc'
AJPXAPTHBK0x03
AJPXAPTHBK 0
root@arm:~# echo 'VPEO''BVWOUH'
VPEOBVWOUH
root@arm:~# MARKER='KLJL''HQYEVK' run 'grep -r -l rohm,bd71837 /proc/device-tree  | sed '"'"'s![^/]*$!!'"'"''
KLJLHQYEVK/proc/device-tree/ocp/interconnect@48000000/segment@100000/target-module@9c000/i2c@0/pmic@4b/
KLJLHQYEVK 0
root@arm:~# echo 'FFPK''AKSWWF'
FFPKAKSWWF
root@arm:~# MARKER='QCJU''UKSEVV' run 'test -f /proc/device-tree/ocp/interconnectt\@48000000/segment\@100000/target-module\@9c000/i2c\@0/pmic\@4b/regulators/BUCK88/rohm,no-regulator-enable-control ;echo $?'
QCJUUKSEVV1
QCJUUKSEVV 0
root@arm:~# echo 'WQSM''AAVAZX'
WQSMAAVAZX
root@arm:~# MARKER='GHSU''OENLCM' run 'grep -r -l rohm,bd71837 /proc/device-tree  | sed '"'"'s![^/]*$!!'"'"''
GHSUOENLCM/proc/device-tree/ocp/interconnect@48000000/segment@100000/target-module@9c000/i2c@0/pmic@4b/
GHSUOENLCM 0
root@arm:~# echo 'KPNY''UUKGGJ'
KPNYUUKGGJ
root@arm:~# MARKER='VBXO''ZTTXYG' run 'test -f /proc/device-tree/ocp/interconnectt\@48000000/segment\@100000/target-module\@9c000/i2c\@0/pmic\@4b/regulators/BUCK88/regulator-always-on ;echo $?'
VBXOZTTXYG1
VBXOZTTXYG 0
root@arm:~# echo 'MCLN''CGGLSN'
MCLNCGGLSN
root@arm:~# MARKER='VCNX''JSMJWX' run 'echo 0 > /sys/kernel/mva_test/regulators/bbuck8_en'
VCNXJSMJWXVCNXJSMJWX 0
root@arm:~# echo 'ZCNY''YNSZKO'
ZCNYYNSZKO
root@arm:~# MARKER='TWKK''KKVZPA' run 'i2cget -y -f 2 0x4b 0xc'
TWKKKKVZPA0x02
TWKKKKVZPA 0
root@arm:~# echo 'VWLX''ULZSAN'
VWLXULZSAN
root@arm:~# MARKER='VKSQ''NQWUKZ' run 'grep -r -l rohm,bd71837 /proc/device-tree  | sed '"'"'s![^/]*$!!'"'"''
VKSQNQWUKZ/proc/device-tree/ocp/interconnect@48000000/segment@100000/target-module@9c000/i2c@0/pmic@4b/
VKSQNQWUKZ 0
root@arm:~# echo 'KUNO''AXGCWQ'
KUNOAXGCWQ
root@arm:~# MARKER='VXYN''LPHYEA' run 'test -f /proc/device-tree/ocp/interconnectt\@48000000/segment\@100000/target-module\@9c000/i2c\@0/pmic\@4b/regulators/LDO1//rohm,no-regulator-enable-control ;echo $?'
VXYNLPHYEA1
VXYNLPHYEA 0
root@arm:~# echo 'XXLX''ZEYBJN'
XXLXZEYBJN
root@arm:~# MARKER='EYGK''SYLJCG' run 'echo 1 > /sys/kernel/mva_test/regulators/bbuck9_en'
EYGKSYLJCGEYGKSYLJCG 0
root@arm:~# echo 'FQBN''UQXPMT'
FQBNUQXPMT
root@arm:~# MARKER='JABY''KKJKUE' run 'i2cget -y -f 2 0x4b 0x18'
JABYKKJKUE0xc3
JABYKKJKUE 0
root@arm:~# echo 'LCAZ''KSXPWV'
LCAZKSXPWV
root@arm:~# MARKER='KMZV''EOXVEF' run 'grep -r -l rohm,bd71837 /proc/device-tree  | sed '"'"'s![^/]*$!!'"'"''
KMZVEOXVEF/proc/device-tree/ocp/interconnect@48000000/segment@100000/target-module@9c000/i2c@0/pmic@4b/
KMZVEOXVEF 0
root@arm:~# echo 'JFKV''TVPNPM'
JFKVTVPNPM
root@arm:~# MARKER='ZPLS''YAKGOL' run 'test -f /proc/device-tree/ocp/interconnectt\@48000000/segment\@100000/target-module\@9c000/i2c\@0/pmic\@4b/regulators/LDO1//rohm,no-regulator-enable-control ;echo $?'
ZPLSYAKGOL1
ZPLSYAKGOL 0
root@arm:~# echo 'EWMC''VYTCGT'
EWMCVYTCGT
root@arm:~# MARKER='HCJM''FPAAYW' run 'grep -r -l rohm,bd71837 /proc/device-tree  | sed '"'"'s![^/]*$!!'"'"''
HCJMFPAAYW/proc/device-tree/ocp/interconnect@48000000/segment@100000/target-module@9c000/i2c@0/pmic@4b/
HCJMFPAAYW 0
root@arm:~# echo 'WEFS''ZKNMFZ'
WEFSZKNMFZ
root@arm:~# MARKER='NAJZ''AVMXPQ' run 'test -f /proc/device-tree/ocp/interconnectt\@48000000/segment\@100000/target-module\@9c000/i2c\@0/pmic\@4b/regulators/LDO1//regulator-always-on ;echo $?'
NAJZAVMXPQ1
NAJZAVMXPQ 0
root@arm:~# echo 'WVXO''BXMXZA'
WVXOBXMXZA
root@arm:~# MARKER='VGWQ''XJYTAB' run 'echo 0 > /sys/kernel/mva_test/regulators/bbuck9_en'
VGWQXJYTABVGWQXJYTAB 0
root@arm:~# echo 'WNWO''CWXOCT'
WNWOCWXOCT
root@arm:~# MARKER='YEOX''SVKPHK' run 'i2cget -y -f 2 0x4b 0x18'
YEOXSVKPHK0x83
YEOXSVKPHK 0
root@arm:~# echo 'GWMA''XBPMMC'
GWMAXBPMMC
root@arm:~# MARKER='XHPW''AKGQTJ' run 'grep -r -l rohm,bd71837 /proc/device-tree  | sed '"'"'s![^/]*$!!'"'"''
XHPWAKGQTJ/proc/device-tree/ocp/interconnect@48000000/segment@100000/target-module@9c000/i2c@0/pmic@4b/
XHPWAKGQTJ 0
root@arm:~# echo 'MPML''MPSUFK'
MPMLMPSUFK
root@arm:~# MARKER='BQKH''CNMLMB' run 'test -f /proc/device-tree/ocp/interconnectt\@48000000/segment\@100000/target-module\@9c000/i2c\@0/pmic\@4b/regulators/LDO2//rohm,no-regulator-enable-control ;echo $?'
BQKHCNMLMB1
BQKHCNMLMB 0
root@arm:~# echo 'HFFL''JASEVY'
HFFLJASEVY
root@arm:~# MARKER='VWJA''GSGZNC' run 'echo 1 > /sys/kernel/mva_test/regulators/bbuck10_en'
VWJAGSGZNCVWJAGSGZNC 0
root@arm:~# echo 'WYTL''YVCMYX'
WYTLYVCMYX
root@arm:~# MARKER='YMEC''EKHOMX' run 'i2cget -y -f 2 0x4b 0x19'
YMECEKHOMX0xc0
YMECEKHOMX 0
root@arm:~# echo 'GGUP''PGSSMH'
GGUPPGSSMH
root@arm:~# MARKER='BUKL''CNLGAZ' run 'grep -r -l rohm,bd71837 /proc/device-tree  | sed '"'"'s![^/]*$!!'"'"''
BUKLCNLGAZ/proc/device-tree/ocp/interconnect@48000000/segment@100000/target-module@9c000/i2c@0/pmic@4b/
BUKLCNLGAZ 0
root@arm:~# echo 'TFVX''ANCBBP'
TFVXANCBBP
root@arm:~# MARKER='YMHY''ZAATNP' run 'test -f /proc/device-tree/ocp/interconnectt\@48000000/segment\@100000/target-module\@9c000/i2c\@0/pmic\@4b/regulators/LDO2//rohm,no-regulator-enable-control ;echo $?'
YMHYZAATNP1
YMHYZAATNP 0
root@arm:~# echo 'EJNQ''BKZBBE'
EJNQBKZBBE
root@arm:~# MARKER='KLGG''GGWESM' run 'grep -r -l rohm,bd71837 /proc/device-tree  | sed '"'"'s![^/]*$!!'"'"''
KLGGGGWESM/proc/device-tree/ocp/interconnect@48000000/segment@100000/target-module@9c000/i2c@0/pmic@4b/
KLGGGGWESM 0
root@arm:~# echo 'OOTE''LBCAHG'
OOTELBCAHG
root@arm:~# MARKER='QLAQ''YCPPYN' run 'test -f /proc/device-tree/ocp/interconnectt\@48000000/segment\@100000/target-module\@9c000/i2c\@0/pmic\@4b/regulators/LDO2//regulator-always-on ;echo $?'
QLAQYCPPYN1
QLAQYCPPYN 0
root@arm:~# echo 'MJHF''LPXCVB'
MJHFLPXCVB
root@arm:~# MARKER='YLGY''MTFYBW' run 'echo 0 > /sys/kernel/mva_test/regulators/bbuck10_en'
YLGYMTFYBWYLGYMTFYBW 0
root@arm:~# echo 'COMM''BKAJEK'
COMMBKAJEK
root@arm:~# MARKER='OZPX''MLYXBA' run 'i2cget -y -f 2 0x4b 0x19'
OZPXMLYXBA0x80
OZPXMLYXBA 0
root@arm:~# echo 'LEPB''BYUEQK'
LEPBBYUEQK
root@arm:~# MARKER='EJLW''JUQLAX' run 'grep -r -l rohm,bd71837 /proc/device-tree  | sed '"'"'s![^/]*$!!'"'"''
EJLWJUQLAX/proc/device-tree/ocp/interconnect@48000000/segment@100000/target-module@9c000/i2c@0/pmic@4b/
EJLWJUQLAX 0
root@arm:~# echo 'EMNN''TCYAMG'
EMNNTCYAMG
root@arm:~# MARKER='LCXJ''YCPWGW' run 'test -f /proc/device-tree/ocp/interconnectt\@48000000/segment\@100000/target-module\@9c000/i2c\@0/pmic\@4b/regulators/LDO3//rohm,no-regulator-enable-control ;echo $?'
LCXJYCPWGW1
LCXJYCPWGW 0
root@arm:~# echo 'UCPA''GMVUNA'
UCPAGMVUNA
root@arm:~# MARKER='KASX''CMQMJY' run 'echo 1 > /sys/kernel/mva_test/regulators/bbuck11_en'
KASXCMQMJYKASXCMQMJY 0
root@arm:~# echo 'KLXP''YGHSFM'
KLXPYGHSFM
root@arm:~# MARKER='EXGY''JQHFXH' run 'i2cget -y -f 2 0x4b 0x1a'
EXGYJQHFXH0xc0
EXGYJQHFXH 0
root@arm:~# echo 'BYUW''LPYBGJ'
BYUWLPYBGJ
root@arm:~# MARKER='JZHF''HLQUJM' run 'grep -r -l rohm,bd71837 /proc/device-tree  | sed '"'"'s![^/]*$!!'"'"''
JZHFHLQUJM/proc/device-tree/ocp/interconnect@48000000/segment@100000/target-module@9c000/i2c@0/pmic@4b/
JZHFHLQUJM 0
root@arm:~# echo 'CAMM''HBYCQH'
CAMMHBYCQH
root@arm:~# MARKER='EWGC''AVCEZS' run 'test -f /proc/device-tree/ocp/interconnectt\@48000000/segment\@100000/target-module\@9c000/i2c\@0/pmic\@4b/regulators/LDO3//rohm,no-regulator-enable-control ;echo $?'
EWGCAVCEZS1
EWGCAVCEZS 0
root@arm:~# echo 'TEBE''UNJWWA'
TEBEUNJWWA
root@arm:~# MARKER='HUTV''KVCSPF' run 'grep -r -l rohm,bd71837 /proc/device-tree  | sed '"'"'s![^/]*$!!'"'"''
HUTVKVCSPF/proc/device-tree/ocp/interconnect@48000000/segment@100000/target-module@9c000/i2c@0/pmic@4b/
HUTVKVCSPF 0
root@arm:~# echo 'VFVH''QHASFK'
VFVHQHASFK
root@arm:~# MARKER='XACA''JFFUOB' run 'test -f /proc/device-tree/ocp/interconnectt\@48000000/segment\@100000/target-module\@9c000/i2c\@0/pmic\@4b/regulators/LDO3//regulator-always-on ;echo $?'
XACAJFFUOB1
XACAJFFUOB 0
root@arm:~# echo 'VBHF''YJUGEH'
VBHFYJUGEH
root@arm:~# MARKER='ASGZ''NAUFTG' run 'echo 0 > /sys/kernel/mva_test/regulators/bbuck11_en'
ASGZNAUFTGASGZNAUFTG 0
root@arm:~# echo 'WPGV''SETGYA'
WPGVSETGYA
root@arm:~# MARKER='GNLX''JEEQEC' run 'i2cget -y -f 2 0x4b 0x1a'
GNLXJEEQEC0x80
GNLXJEEQEC 0
root@arm:~# echo 'QXTP''YGWBPH'
QXTPYGWBPH
root@arm:~# MARKER='WZKE''NSQLHF' run 'grep -r -l rohm,bd71837 /proc/device-tree  | sed '"'"'s![^/]*$!!'"'"''
WZKENSQLHF/proc/device-tree/ocp/interconnect@48000000/segment@100000/target-module@9c000/i2c@0/pmic@4b/
WZKENSQLHF 0
root@arm:~# echo 'NGWZ''ULJCTE'
NGWZULJCTE
root@arm:~# MARKER='VACB''PCBSAK' run 'test -f /proc/device-tree/ocp/interconnectt\@48000000/segment\@100000/target-module\@9c000/i2c\@0/pmic\@4b/regulators/LDO4//rohm,no-regulator-enable-control ;echo $?'
VACBPCBSAK1
VACBPCBSAK 0
root@arm:~# echo 'ZMXW''ZZZFTY'
ZMXWZZZFTY
root@arm:~# MARKER='BBHB''OBZPWN' run 'echo 1 > /sys/kernel/mva_test/regulators/bbuck12_en'
BBHBOBZPWNBBHBOBZPWN 0
root@arm:~# echo 'NFNU''NFABGO'
NFNUNFABGO
root@arm:~# MARKER='YCJK''YUBMJV' run 'i2cget -y -f 2 0x4b 0x1b'
YCJKYUBMJV0xc0
YCJKYUBMJV 0
root@arm:~# echo 'UXCU''ZMGPEL'
UXCUZMGPEL
root@arm:~# MARKER='NFYO''PEYHUJ' run 'grep -r -l rohm,bd71837 /proc/device-tree  | sed '"'"'s![^/]*$!!'"'"''
NFYOPEYHUJ/proc/device-tree/ocp/interconnect@48000000/segment@100000/target-module@9c000/i2c@0/pmic@4b/
NFYOPEYHUJ 0
root@arm:~# echo 'TQJB''ZCJJGB'
TQJBZCJJGB
root@arm:~# MARKER='GJHY''BKPFOV' run 'test -f /proc/device-tree/ocp/interconnectt\@48000000/segment\@100000/target-module\@9c000/i2c\@0/pmic\@4b/regulators/LDO4//rohm,no-regulator-enable-control ;echo $?'
GJHYBKPFOV1
GJHYBKPFOV 0
root@arm:~# echo 'NJQY''JJPABY'
NJQYJJPABY
root@arm:~# MARKER='CWZT''BVCJXH' run 'grep -r -l rohm,bd71837 /proc/device-tree  | sed '"'"'s![^/]*$!!'"'"''
CWZTBVCJXH/proc/device-tree/ocp/interconnect@48000000/segment@100000/target-module@9c000/i2c@0/pmic@4b/
CWZTBVCJXH 0
root@arm:~# echo 'FNXJ''HOJYMF'
FNXJHOJYMF
root@arm:~# MARKER='BGMG''USAKUN' run 'test -f /proc/device-tree/ocp/interconnectt\@48000000/segment\@100000/target-module\@9c000/i2c\@0/pmic\@4b/regulators/LDO4//regulator-always-on ;echo $?'
BGMGUSAKUN1
BGMGUSAKUN 0
root@arm:~# echo 'STHG''SFLYSC'
STHGSFLYSC
root@arm:~# MARKER='TVFG''SGZOHQ' run 'echo 0 > /sys/kernel/mva_test/regulators/bbuck12_en'
TVFGSGZOHQTVFGSGZOHQ 0
root@arm:~# echo 'QXSO''EGCGXW'
QXSOEGCGXW
root@arm:~# MARKER='WWPV''NPPZNK' run 'i2cget -y -f 2 0x4b 0x1b'
WWPVNPPZNK0x80
WWPVNPPZNK 0
root@arm:~# echo 'NZWN''VWFLXA'
NZWNVWFLXA
root@arm:~# MARKER='JGET''STJOCU' run 'grep -r -l rohm,bd71837 /proc/device-tree  | sed '"'"'s![^/]*$!!'"'"''
JGETSTJOCU/proc/device-tree/ocp/interconnect@48000000/segment@100000/target-module@9c000/i2c@0/pmic@4b/
JGETSTJOCU 0
root@arm:~# echo 'JAEL''YZPEWX'
JAELYZPEWX
root@arm:~# MARKER='EVMX''VMMPOO' run 'test -f /proc/device-tree/ocp/interconnectt\@48000000/segment\@100000/target-module\@9c000/i2c\@0/pmic\@4b/regulators/LDO5//rohm,no-regulator-enable-control ;echo $?'
EVMXVMMPOO0
EVMXVMMPOO 0
root@arm:~# echo 'OUAK''GBNLHF'
OUAKGBNLHF
root@arm:~# MARKER='XGTK''PFCTCW' run 'grep -r -l rohm,bd71837 /proc/device-tree  | sed '"'"'s![^/]*$!!'"'"''
XGTKPFCTCW/proc/device-tree/ocp/interconnect@48000000/segment@100000/target-module@9c000/i2c@0/pmic@4b/
XGTKPFCTCW 0
root@arm:~# echo 'AQAV''NTMJAV'
AQAVNTMJAV
root@arm:~# MARKER='WVYE''SLEVQW' run 'test -f /proc/device-tree/ocp/interconnectt\@48000000/segment\@100000/target-module\@9c000/i2c\@0/pmic\@4b/regulators/LDO5//rohm,no-regulator-enable-control ;echo $?'
WVYESLEVQW0
WVYESLEVQW 0
root@arm:~# echo 'KKYV''JPKYWB'
KKYVJPKYWB
root@arm:~# MARKER='UCZY''VHFOHB' run 'grep -r -l rohm,bd71837 /proc/device-tree  | sed '"'"'s![^/]*$!!'"'"''
UCZYVHFOHB/proc/device-tree/ocp/interconnect@48000000/segment@100000/target-module@9c000/i2c@0/pmic@4b/
UCZYVHFOHB 0
root@arm:~# echo 'VYPK''ZWZANJ'
VYPKZWZANJ
root@arm:~# MARKER='BEON''MNFPFP' run 'test -f /proc/device-tree/ocp/interconnectt\@48000000/segment\@100000/target-module\@9c000/i2c\@0/pmic\@4b/regulators/LDO6//rohm,no-regulator-enable-control ;echo $?'
BEONMNFPFP1
BEONMNFPFP 0
root@arm:~# echo 'GQJK''QGBAGL'
GQJKQGBAGL
root@arm:~# MARKER='XELK''WYUKQW' run 'echo 1 > /sys/kernel/mva_test/regulators/bbuck14_en'
XELKWYUKQWXELKWYUKQW 0
root@arm:~# echo 'GSUS''MOCAMX'
GSUSMOCAMX
root@arm:~# MARKER='UZOS''WBWFYC' run 'i2cget -y -f 2 0x4b 0x1d'
UZOSWBWFYC0xc0
UZOSWBWFYC 0
root@arm:~# echo 'KSPL''TBFLWY'
KSPLTBFLWY
root@arm:~# MARKER='PGCQ''GNHOAJ' run 'grep -r -l rohm,bd71837 /proc/device-tree  | sed '"'"'s![^/]*$!!'"'"''
PGCQGNHOAJ/proc/device-tree/ocp/interconnect@48000000/segment@100000/target-module@9c000/i2c@0/pmic@4b/
PGCQGNHOAJ 0
root@arm:~# echo 'BBSU''NFVYNT'
BBSUNFVYNT
root@arm:~# MARKER='VGCV''LELPEN' run 'test -f /proc/device-tree/ocp/interconnectt\@48000000/segment\@100000/target-module\@9c000/i2c\@0/pmic\@4b/regulators/LDO6//rohm,no-regulator-enable-control ;echo $?'
VGCVLELPEN1
VGCVLELPEN 0
root@arm:~# echo 'YPZO''CUCUTP'
YPZOCUCUTP
root@arm:~# MARKER='XQPW''WQWFZA' run 'grep -r -l rohm,bd71837 /proc/device-tree  | sed '"'"'s![^/]*$!!'"'"''
XQPWWQWFZA/proc/device-tree/ocp/interconnect@48000000/segment@100000/target-module@9c000/i2c@0/pmic@4b/
XQPWWQWFZA 0
root@arm:~# echo 'KEMX''BXMMUV'
KEMXBXMMUV
root@arm:~# MARKER='SYSM''THNVNS' run 'test -f /proc/device-tree/ocp/interconnectt\@48000000/segment\@100000/target-module\@9c000/i2c\@0/pmic\@4b/regulators/LDO6//regulator-always-on ;echo $?'
SYSMTHNVNS1
SYSMTHNVNS 0
root@arm:~# echo 'FPXL''FEZMML'
FPXLFEZMML
root@arm:~# MARKER='XNSS''PZEMLY' run 'echo 0 > /sys/kernel/mva_test/regulators/bbuck14_en'
XNSSPZEMLYXNSSPZEMLY 0
root@arm:~# echo 'HAQQ''LYHAEN'
HAQQLYHAEN
root@arm:~# MARKER='BHHB''XCCXHH' run 'i2cget -y -f 2 0x4b 0x1d'
BHHBXCCXHH0x80
BHHBXCCXHH 0
root@arm:~# echo 'FAAZ''TFGPXQ'
FAAZTFGPXQ
root@arm:~# MARKER='HKZM''WJSQVZ' run 'grep -r -l rohm,bd71837 /proc/device-tree  | sed '"'"'s![^/]*$!!'"'"''
HKZMWJSQVZ/proc/device-tree/ocp/interconnect@48000000/segment@100000/target-module@9c000/i2c@0/pmic@4b/
HKZMWJSQVZ 0
root@arm:~# echo 'NSMZ''OLJQWY'
NSMZOLJQWY
root@arm:~# MARKER='SSLA''NLFETL' run 'test -f /proc/device-tree/ocp/interconnectt\@48000000/segment\@100000/target-module\@9c000/i2c\@0/pmic\@4b/regulators/LDO7//rohm,no-regulator-enable-control ;echo $?'
SSLANLFETL1
SSLANLFETL 0
root@arm:~# echo 'XBOB''VTHVKA'
XBOBVTHVKA
root@arm:~# MARKER='UXOP''JVHUSY' run 'echo 1 > /sys/kernel/mva_test/regulators/bbuck15_en'
UXOPJVHUSYUXOPJVHUSY 0
root@arm:~# echo 'EHEA''HHQAQO'
EHEAHHQAQO
root@arm:~# MARKER='BFTW''JJKZNQ' run 'i2cget -y -f 2 0x4b 0x1e'
BFTWJJKZNQ0xcf
BFTWJJKZNQ 0
root@arm:~# echo 'JJJN''HSWFCK'
JJJNHSWFCK
root@arm:~# MARKER='CQGB''YZTYWX' run 'grep -r -l rohm,bd71837 /proc/device-tree  | sed '"'"'s![^/]*$!!'"'"''
CQGBYZTYWX/proc/device-tree/ocp/interconnect@48000000/segment@100000/target-module@9c000/i2c@0/pmic@4b/
CQGBYZTYWX 0
root@arm:~# echo 'EJMF''WXNJGB'
EJMFWXNJGB
root@arm:~# MARKER='UAUJ''HUFKTQ' run 'test -f /proc/device-tree/ocp/interconnectt\@48000000/segment\@100000/target-module\@9c000/i2c\@0/pmic\@4b/regulators/LDO7//rohm,no-regulator-enable-control ;echo $?'
UAUJHUFKTQ1
UAUJHUFKTQ 0
root@arm:~# echo 'THGT''EGZFMA'
THGTEGZFMA
root@arm:~# MARKER='WHYA''JEMMCA' run 'grep -r -l rohm,bd71837 /proc/device-tree  | sed '"'"'s![^/]*$!!'"'"''
WHYAJEMMCA/proc/device-tree/ocp/interconnect@48000000/segment@100000/target-module@9c000/i2c@0/pmic@4b/
WHYAJEMMCA 0
root@arm:~# echo 'CBFK''SWHEAK'
CBFKSWHEAK
root@arm:~# MARKER='WJBO''GATHLZ' run 'test -f /proc/device-tree/ocp/interconnectt\@48000000/segment\@100000/target-module\@9c000/i2c\@0/pmic\@4b/regulators/LDO7//regulator-always-on ;echo $?'
WJBOGATHLZ1
WJBOGATHLZ 0
root@arm:~# echo 'OYTC''LWKHYO'
OYTCLWKHYO
root@arm:~# MARKER='GAUK''OJBETL' run 'echo 0 > /sys/kernel/mva_test/regulators/bbuck15_en'
GAUKOJBETLGAUKOJBETL 0
root@arm:~# echo 'VHFQ''FXVLAC'
VHFQFXVLAC
root@arm:~# MARKER='ENLU''VPQABJ' run 'i2cget -y -f 2 0x4b 0x1e'
ENLUVPQABJ0x8f
ENLUVPQABJ 0
root@arm:~# Labgrid Console Logfile for main
Logfile started at 2024-12-19 12:24:48.079021
=== Log starts here ===

root@arm:~# run() { echo -n "$MARKER"; sh -c "$@"; echo "$MARKER $?"; }
root@arm:~# echo 'LHGW''AQTGNV'
LHGWAQTGNV
root@arm:~# MARKER='SJVU''OMMWNF' run 'grep -r -l rohm,bd71837 /proc/device-tree  | sed '"'"'s![^/]*$!!'"'"''
SJVUOMMWNF/proc/device-tree/ocp/interconnect@48000000/segment@100000/target-module@9c000/i2c@0/pmic@4b/
SJVUOMMWNF 0
root@arm:~# echo 'JFAS''YXUQZU'
JFASYXUQZU
root@arm:~# MARKER='VZGO''CZZPLG' run 'test -f /proc/device-tree/ocp/interconnectt\@48000000/segment\@100000/target-module\@9c000/i2c\@0/pmic\@4b/regulators/BUCK11/rohm,no-regulator-enable-control ;echo $?'
VZGOCZZPLG1
VZGOCZZPLG 0
root@arm:~# echo 'VQKH''JULSBJ'
VQKHJULSBJ
root@arm:~# MARKER='YJSV''PFJKCA' run 'i2cget -y -f 2 0x4b 0x5'
YJSVPFJKCA0x02
YJSVPFJKCA 0
root@arm:~# echo 'AYWO''ZBSYBY'
AYWOZBSYBY
root@arm:~# MARKER='NQHK''NMNTHH' run 'echo 700000 700000 > /sys/kernel/mva_test//regulators/buck1_set'
NQHKNMNTHHNQHKNMNTHH 0
root@arm:~# echo 'GYXE''QSGSTL'
GYXEQSGSTL
root@arm:~# MARKER='AHUA''TPCQNQ' run 'i2cget -y -f 2 0x4b 0xd'
AHUATPCQNQ0x00
AHUATPCQNQ 0
root@arm:~# echo 'ELUM''GKBYEZ'
ELUMGKBYEZ
root@arm:~# MARKER='UOXB''BQNEEL' run 'echo 710000 710000 > /sys/kernel/mva_test//regulators/buck1_set'
UOXBBQNEELUOXBBQNEEL 0
root@arm:~# echo 'ESHH''JXOPLB'
ESHHJXOPLB
root@arm:~# MARKER='YPOQ''TZJTCS' run 'i2cget -y -f 2 0x4b 0xd'
YPOQTZJTCS0x01
YPOQTZJTCS 0
root@arm:~# echo 'BOMS''SSVTFL'
BOMSSSVTFL
root@arm:~# MARKER='XTEC''BLKNUT' run 'echo 720000 720000 > /sys/kernel/mva_test//regulators/buck1_set'
XTECBLKNUTXTECBLKNUT 0
root@arm:~# echo 'PFNZ''CNYKYU'
PFNZCNYKYU
root@arm:~# MARKER='YMJF''UEQJUL' run 'i2cget -y -f 2 0x4b 0xd'
YMJFUEQJUL0x02
YMJFUEQJUL 0
root@arm:~# echo 'BLUF''POLELH'
BLUFPOLELH
root@arm:~# MARKER='SYVS''CBOXMC' run 'echo 730000 730000 > /sys/kernel/mva_test//regulators/buck1_set'
SYVSCBOXMCSYVSCBOXMC 0
root@arm:~# echo 'WGZZ''LLJELV'
WGZZLLJELV
root@arm:~# MARKER='OZGE''AVZTZW' run 'i2cget -y -f 2 0x4b 0xd'
OZGEAVZTZW0x03
OZGEAVZTZW 0
root@arm:~# echo 'QETL''KPXBFK'
QETLKPXBFK
root@arm:~# MARKER='OQMJ''NVQAQA' run 'echo 740000 740000 > /sys/kernel/mva_test//regulators/buck1_set'
OQMJNVQAQAOQMJNVQAQA 0
root@arm:~# echo 'ZWOC''QVUGZJ'
ZWOCQVUGZJ
root@arm:~# MARKER='PUZK''PGZVHN' run 'i2cget -y -f 2 0x4b 0xd'
PUZKPGZVHN0x04
PUZKPGZVHN 0
root@arm:~# echo 'EENN''OMVKZN'
EENNOMVKZN
root@arm:~# MARKER='XHWV''TNYYVE' run 'echo 750000 750000 > /sys/kernel/mva_test//regulators/buck1_set'
XHWVTNYYVEXHWVTNYYVE 0
root@arm:~# echo 'EQZF''TCLXMQ'
EQZFTCLXMQ
root@arm:~# MARKER='YSXA''KMNLJV' run 'i2cget -y -f 2 0x4b 0xd'
YSXAKMNLJV0x05
YSXAKMNLJV 0
root@arm:~# echo 'MULL''PKPYLL'
MULLPKPYLL
root@arm:~# MARKER='SUSZ''MYKKQC' run 'echo 760000 760000 > /sys/kernel/mva_test//regulators/buck1_set'
SUSZMYKKQCSUSZMYKKQC 0
root@arm:~# echo 'VPFL''WJBLPE'
VPFLWJBLPE
root@arm:~# MARKER='TPCN''SHVNJN' run 'i2cget -y -f 2 0x4b 0xd'
TPCNSHVNJN0x06
TPCNSHVNJN 0
root@arm:~# echo 'NKKP''YTPWPZ'
NKKPYTPWPZ
root@arm:~# MARKER='YPSU''MGOXSX' run 'echo 770000 770000 > /sys/kernel/mva_test//regulators/buck1_set'
YPSUMGOXSXYPSUMGOXSX 0
root@arm:~# echo 'NNVS''GXFFFY'
NNVSGXFFFY
root@arm:~# MARKER='BLMJ''LBPEWY' run 'i2cget -y -f 2 0x4b 0xd'
BLMJLBPEWY0x07
BLMJLBPEWY 0
root@arm:~# echo 'OTJV''FXBOEO'
OTJVFXBOEO
root@arm:~# MARKER='JNUX''XJFKXT' run 'echo 780000 780000 > /sys/kernel/mva_test//regulators/buck1_set'
JNUXXJFKXTJNUXXJFKXT 0
root@arm:~# echo 'OEFB''HETZBA'
OEFBHETZBA
root@arm:~# MARKER='LKBN''OZKTGL' run 'i2cget -y -f 2 0x4b 0xd'
LKBNOZKTGL0x08
LKBNOZKTGL 0
root@arm:~# echo 'EQQU''YAHOLG'
EQQUYAHOLG
root@arm:~# MARKER='PBZL''FJBHVW' run 'echo 790000 790000 > /sys/kernel/mva_test//regulators/buck1_set'
PBZLFJBHVWPBZLFJBHVW 0
root@arm:~# echo 'GJVC''VANGZP'
GJVCVANGZP
root@arm:~# MARKER='JEUV''GUCQTP' run 'i2cget -y -f 2 0x4b 0xd'
JEUVGUCQTP0x09
JEUVGUCQTP 0
root@arm:~# echo 'JSZS''LMQUUT'
JSZSLMQUUT
root@arm:~# MARKER='FCYM''NQJGYS' run 'echo 800000 800000 > /sys/kernel/mva_test//regulators/buck1_set'
FCYMNQJGYSFCYMNQJGYS 0
root@arm:~# echo 'HCTH''LOBAZH'
HCTHLOBAZH
root@arm:~# MARKER='ZTEW''FGZQAS' run 'i2cget -y -f 2 0x4b 0xd'
ZTEWFGZQAS0x0a
ZTEWFGZQAS 0
root@arm:~# echo 'YHSC''VJTPXS'
YHSCVJTPXS
root@arm:~# MARKER='QJJQ''CGVPBG' run 'echo 810000 810000 > /sys/kernel/mva_test//regulators/buck1_set'
QJJQCGVPBGQJJQCGVPBG 0
root@arm:~# echo 'MGMX''PAFGQM'
MGMXPAFGQM
root@arm:~# MARKER='JLUE''HQGFWW' run 'i2cget -y -f 2 0x4b 0xd'
JLUEHQGFWW0x0b
JLUEHQGFWW 0
root@arm:~# echo 'NTBK''SPNJQL'
NTBKSPNJQL
root@arm:~# MARKER='WHXL''AEBQZY' run 'echo 820000 820000 > /sys/kernel/mva_test//regulators/buck1_set'
WHXLAEBQZYWHXLAEBQZY 0
root@arm:~# echo 'JGLG''NKCGQU'
JGLGNKCGQU
root@arm:~# MARKER='XBFS''FZGPAQ' run 'i2cget -y -f 2 0x4b 0xd'
XBFSFZGPAQ0x0c
XBFSFZGPAQ 0
root@arm:~# echo 'BFBT''ZTSMCC'
BFBTZTSMCC
root@arm:~# MARKER='PZEB''FUSGFP' run 'echo 830000 830000 > /sys/kernel/mva_test//regulators/buck1_set'
PZEBFUSGFPPZEBFUSGFP 0
root@arm:~# echo 'BKLP''OZUBXM'
BKLPOZUBXM
root@arm:~# MARKER='JAPO''UCHTWJ' run 'i2cget -y -f 2 0x4b 0xd'
JAPOUCHTWJ0x0d
JAPOUCHTWJ 0
root@arm:~# echo 'UTKB''JNWLCX'
UTKBJNWLCX
root@arm:~# MARKER='JJEF''MHMXSF' run 'echo 840000 840000 > /sys/kernel/mva_test//regulators/buck1_set'
JJEFMHMXSFJJEFMHMXSF 0
root@arm:~# echo 'XMMZ''OKXEET'
XMMZOKXEET
root@arm:~# MARKER='LUWF''ZNPSNX' run 'i2cget -y -f 2 0x4b 0xd'
LUWFZNPSNX0x0e
LUWFZNPSNX 0
root@arm:~# echo 'AYLE''QLZWEY'
AYLEQLZWEY
root@arm:~# MARKER='PZBA''NHKSPV' run 'echo 850000 850000 > /sys/kernel/mva_test//regulators/buck1_set'
PZBANHKSPVPZBANHKSPV 0
root@arm:~# echo 'UUKY''GXFFSW'
UUKYGXFFSW
root@arm:~# MARKER='EETJ''VECSTF' run 'i2cget -y -f 2 0x4b 0xd'
EETJVECSTF0x0f
EETJVECSTF 0
root@arm:~# echo 'YLAH''QCXTBG'
YLAHQCXTBG
root@arm:~# MARKER='CYEB''FAWVXG' run 'echo 860000 860000 > /sys/kernel/mva_test//regulators/buck1_set'
CYEBFAWVXGCYEBFAWVXG 0
root@arm:~# echo 'FGAV''SWTGZX'
FGAVSWTGZX
root@arm:~# MARKER='OXMA''JQBQEK' run 'i2cget -y -f 2 0x4b 0xd'
OXMAJQBQEK0x10
OXMAJQBQEK 0
root@arm:~# echo 'CZLZ''LBYBEZ'
CZLZLBYBEZ
root@arm:~# MARKER='SMST''QUEYOE' run 'echo 870000 870000 > /sys/kernel/mva_test//regulators/buck1_set'
SMSTQUEYOESMSTQUEYOE 0
root@arm:~# echo 'OZWU''CYPWAV'
OZWUCYPWAV
root@arm:~# MARKER='CYTT''FPJPSK' run 'i2cget -y -f 2 0x4b 0xd'
CYTTFPJPSK0x11
CYTTFPJPSK 0
root@arm:~# echo 'KZXB''PAGLLY'
KZXBPAGLLY
root@arm:~# MARKER='GEQA''EXCZOJ' run 'echo 880000 880000 > /sys/kernel/mva_test//regulators/buck1_set'
GEQAEXCZOJGEQAEXCZOJ 0
root@arm:~# echo 'HJKV''CPWJPM'
HJKVCPWJPM
root@arm:~# MARKER='FPQO''SWMCBU' run 'i2cget -y -f 2 0x4b 0xd'
FPQOSWMCBU0x12
FPQOSWMCBU 0
root@arm:~# echo 'MFZN''HYFSVQ'
MFZNHYFSVQ
root@arm:~# MARKER='PZWA''FKBNBT' run 'echo 890000 890000 > /sys/kernel/mva_test//regulators/buck1_set'
PZWAFKBNBTPZWAFKBNBT 0
root@arm:~# echo 'JMXE''BKTMOA'
JMXEBKTMOA
root@arm:~# MARKER='JPNJ''YNEULY' run 'i2cget -y -f 2 0x4b 0xd'
JPNJYNEULY0x13
JPNJYNEULY 0
root@arm:~# echo 'ZVUW''YJFEPN'
ZVUWYJFEPN
root@arm:~# MARKER='FVVZ''KKSEGY' run 'echo 900000 900000 > /sys/kernel/mva_test//regulators/buck1_set'
FVVZKKSEGYFVVZKKSEGY 0
root@arm:~# echo 'FHHE''KALNEH'
FHHEKALNEH
root@arm:~# MARKER='PXJG''QMNCLY' run 'i2cget -y -f 2 0x4b 0xd'
PXJGQMNCLY0x14
PXJGQMNCLY 0
root@arm:~# echo 'QUVT''JAOFSJ'
QUVTJAOFSJ
root@arm:~# MARKER='BHYN''XWUTFV' run 'echo 910000 910000 > /sys/kernel/mva_test//regulators/buck1_set'
BHYNXWUTFVBHYNXWUTFV 0
root@arm:~# echo 'OKTA''OUZJMO'
OKTAOUZJMO
root@arm:~# MARKER='PLHN''XVCZHK' run 'i2cget -y -f 2 0x4b 0xd'
PLHNXVCZHK0x15
PLHNXVCZHK 0
root@arm:~# echo 'EVSJ''AWTLJG'
EVSJAWTLJG
root@arm:~# MARKER='EOPX''ATZSLY' run 'echo 920000 920000 > /sys/kernel/mva_test//regulators/buck1_set'
EOPXATZSLYEOPXATZSLY 0
root@arm:~# echo 'NYEK''XKXVLN'
NYEKXKXVLN
root@arm:~# MARKER='WQGL''YWLSBG' run 'i2cget -y -f 2 0x4b 0xd'
WQGLYWLSBG0x16
WQGLYWLSBG 0
root@arm:~# echo 'AENW''UBXNHA'
AENWUBXNHA
root@arm:~# MARKER='YENF''PLYXGF' run 'echo 930000 930000 > /sys/kernel/mva_test//regulators/buck1_set'
YENFPLYXGFYENFPLYXGF 0
root@arm:~# echo 'FNWY''OTAEOK'
FNWYOTAEOK
root@arm:~# MARKER='LEEY''AMAGEZ' run 'i2cget -y -f 2 0x4b 0xd'
LEEYAMAGEZ0x17
LEEYAMAGEZ 0
root@arm:~# echo 'CZWJ''ATOSPJ'
CZWJATOSPJ
root@arm:~# MARKER='GOUB''GNPNUK' run 'echo 940000 940000 > /sys/kernel/mva_test//regulators/buck1_set'
GOUBGNPNUKGOUBGNPNUK 0
root@arm:~# echo 'GJEQ''ECFPFT'
GJEQECFPFT
root@arm:~# MARKER='WQUB''VKTLAS' run 'i2cget -y -f 2 0x4b 0xd'
WQUBVKTLAS0x18
WQUBVKTLAS 0
root@arm:~# echo 'WPBH''OGLBPA'
WPBHOGLBPA
root@arm:~# MARKER='OSJO''BCTTTY' run 'echo 950000 950000 > /sys/kernel/mva_test//regulators/buck1_set'
OSJOBCTTTYOSJOBCTTTY 0
root@arm:~# echo 'PJKM''OYZLFF'
PJKMOYZLFF
root@arm:~# MARKER='BLVZ''JZJCPP' run 'i2cget -y -f 2 0x4b 0xd'
BLVZJZJCPP0x19
BLVZJZJCPP 0
root@arm:~# echo 'ZCCV''GKZJQK'
ZCCVGKZJQK
root@arm:~# MARKER='FVOC''HJSQOB' run 'echo 960000 960000 > /sys/kernel/mva_test//regulators/buck1_set'
FVOCHJSQOBFVOCHJSQOB 0
root@arm:~# echo 'PKBZ''WZQWQO'
PKBZWZQWQO
root@arm:~# MARKER='MLYB''NSXOMM' run 'i2cget -y -f 2 0x4b 0xd'
MLYBNSXOMM0x1a
MLYBNSXOMM 0
root@arm:~# echo 'MQEQ''WVEAXO'
MQEQWVEAXO
root@arm:~# MARKER='EAQM''YVOWLB' run 'echo 970000 970000 > /sys/kernel/mva_test//regulators/buck1_set'
EAQMYVOWLBEAQMYVOWLB 0
root@arm:~# echo 'UOLB''NOZNCF'
UOLBNOZNCF
root@arm:~# MARKER='WCUK''PPHHFK' run 'i2cget -y -f 2 0x4b 0xd'
WCUKPPHHFK0x1b
WCUKPPHHFK 0
root@arm:~# echo 'YWHQ''YQTMUF'
YWHQYQTMUF
root@arm:~# MARKER='HNGL''TNTWEK' run 'echo 980000 980000 > /sys/kernel/mva_test//regulators/buck1_set'
HNGLTNTWEKHNGLTNTWEK 0
root@arm:~# echo 'EXBE''YLFUUN'
EXBEYLFUUN
root@arm:~# MARKER='JNAS''NNTEGK' run 'i2cget -y -f 2 0x4b 0xd'
JNASNNTEGK0x1c
JNASNNTEGK 0
root@arm:~# echo 'KBOQ''STUQBZ'
KBOQSTUQBZ
root@arm:~# MARKER='PWNV''TFMUZX' run 'echo 990000 990000 > /sys/kernel/mva_test//regulators/buck1_set'
PWNVTFMUZXPWNVTFMUZX 0
root@arm:~# echo 'KLXF''UWPGFT'
KLXFUWPGFT
root@arm:~# MARKER='OBSG''SJLOQY' run 'i2cget -y -f 2 0x4b 0xd'
OBSGSJLOQY0x1d
OBSGSJLOQY 0
root@arm:~# echo 'OLVM''ZAAFXJ'
OLVMZAAFXJ
root@arm:~# MARKER='AUPE''CVSLQE' run 'echo 1000000 1000000 > /sys/kernel/mva_tesst/regulators/buck1_set'
AUPECVSLQEAUPECVSLQE 0
root@arm:~# echo 'EQLG''GLXOZS'
EQLGGLXOZS
root@arm:~# MARKER='SPLZ''OVSZKP' run 'i2cget -y -f 2 0x4b 0xd'
SPLZOVSZKP0x1e
SPLZOVSZKP 0
root@arm:~# echo 'ZTYA''CELMQB'
ZTYACELMQB
root@arm:~# MARKER='JXQX''UXOFBF' run 'echo 1010000 1010000 > /sys/kernel/mva_tesst/regulators/buck1_set'
JXQXUXOFBFJXQXUXOFBF 0
root@arm:~# echo 'HTUG''AEOWBG'
HTUGAEOWBG
root@arm:~# MARKER='EZWB''KCZJWU' run 'i2cget -y -f 2 0x4b 0xd'
EZWBKCZJWU0x1f
EZWBKCZJWU 0
root@arm:~# echo 'TAPW''GCGNQH'
TAPWGCGNQH
root@arm:~# MARKER='MUPG''CLKUQF' run 'echo 1020000 1020000 > /sys/kernel/mva_tesst/regulators/buck1_set'
MUPGCLKUQFMUPGCLKUQF 0
root@arm:~# echo 'WTEG''HJGKXG'
WTEGHJGKXG
root@arm:~# MARKER='ZQZV''VBKQOQ' run 'i2cget -y -f 2 0x4b 0xd'
ZQZVVBKQOQ0x20
ZQZVVBKQOQ 0
root@arm:~# echo 'GGWB''JBPHFW'
GGWBJBPHFW
root@arm:~# MARKER='OQGW''AOGYGM' run 'echo 1030000 1030000 > /sys/kernel/mva_tesst/regulators/buck1_set'
OQGWAOGYGMOQGWAOGYGM 0
root@arm:~# echo 'ASAT''OQQJKT'
ASATOQQJKT
root@arm:~# MARKER='ZPBO''EJZAWQ' run 'i2cget -y -f 2 0x4b 0xd'
ZPBOEJZAWQ0x21
ZPBOEJZAWQ 0
root@arm:~# echo 'XOFZ''OQGPFT'
XOFZOQGPFT
root@arm:~# MARKER='JUEL''XYZKGV' run 'echo 1040000 1040000 > /sys/kernel/mva_tesst/regulators/buck1_set'
JUELXYZKGVJUELXYZKGV 0
root@arm:~# echo 'SCPS''XMYZHW'
SCPSXMYZHW
root@arm:~# MARKER='SHYV''TLAQPM' run 'i2cget -y -f 2 0x4b 0xd'
SHYVTLAQPM0x22
SHYVTLAQPM 0
root@arm:~# echo 'YMFU''STTYWF'
YMFUSTTYWF
root@arm:~# MARKER='WWLY''FNWBOX' run 'echo 1050000 1050000 > /sys/kernel/mva_tesst/regulators/buck1_set'
WWLYFNWBOXWWLYFNWBOX 0
root@arm:~# echo 'SUXH''KTUQPW'
SUXHKTUQPW
root@arm:~# MARKER='BFJA''VXPXQJ' run 'i2cget -y -f 2 0x4b 0xd'
BFJAVXPXQJ0x23
BFJAVXPXQJ 0
root@arm:~# echo 'LXKG''ZPNBNW'
LXKGZPNBNW
root@arm:~# MARKER='TXPK''NKXZHM' run 'echo 1060000 1060000 > /sys/kernel/mva_tesst/regulators/buck1_set'
TXPKNKXZHMTXPKNKXZHM 0
root@arm:~# echo 'WBFV''FCNHUT'
WBFVFCNHUT
root@arm:~# MARKER='EJEB''QEJGEZ' run 'i2cget -y -f 2 0x4b 0xd'
EJEBQEJGEZ0x24
EJEBQEJGEZ 0
root@arm:~# echo 'UOVP''PUYHFJ'
UOVPPUYHFJ
root@arm:~# MARKER='MKQL''UXBLPZ' run 'echo 1070000 1070000 > /sys/kernel/mva_tesst/regulators/buck1_set'
MKQLUXBLPZMKQLUXBLPZ 0
root@arm:~# echo 'EHJM''JJZJPP'
EHJMJJZJPP
root@arm:~# MARKER='GQXP''TUOZJY' run 'i2cget -y -f 2 0x4b 0xd'
GQXPTUOZJY0x25
GQXPTUOZJY 0
root@arm:~# echo 'GUHT''PTSLOL'
GUHTPTSLOL
root@arm:~# MARKER='GSVF''JHLCYO' run 'echo 1080000 1080000 > /sys/kernel/mva_tesst/regulators/buck1_set'
GSVFJHLCYOGSVFJHLCYO 0
root@arm:~# echo 'KBWB''WMJOXM'
KBWBWMJOXM
root@arm:~# MARKER='NHBS''ZBOWQN' run 'i2cget -y -f 2 0x4b 0xd'
NHBSZBOWQN0x26
NHBSZBOWQN 0
root@arm:~# echo 'EJME''QGGMUO'
EJMEQGGMUO
root@arm:~# MARKER='KTJQ''VLQXPB' run 'echo 1090000 1090000 > /sys/kernel/mva_tesst/regulators/buck1_set'
KTJQVLQXPBKTJQVLQXPB 0
root@arm:~# echo 'OZNA''PSSHHW'
OZNAPSSHHW
root@arm:~# MARKER='NGXH''HJMPFH' run 'i2cget -y -f 2 0x4b 0xd'
NGXHHJMPFH0x27
NGXHHJMPFH 0
root@arm:~# echo 'STFH''XJLAVV'
STFHXJLAVV
root@arm:~# MARKER='YQOO''XYWBJY' run 'echo 1100000 1100000 > /sys/kernel/mva_tesst/regulators/buck1_set'
YQOOXYWBJYYQOOXYWBJY 0
root@arm:~# echo 'VCKO''WAYMXN'
VCKOWAYMXN
root@arm:~# MARKER='YBHW''NYVMNC' run 'i2cget -y -f 2 0x4b 0xd'
YBHWNYVMNC0x28
YBHWNYVMNC 0
root@arm:~# echo 'ONTS''EJHXZM'
ONTSEJHXZM
root@arm:~# MARKER='WSKB''PGGWVB' run 'echo 1110000 1110000 > /sys/kernel/mva_tesst/regulators/buck1_set'
WSKBPGGWVBWSKBPGGWVB 0
root@arm:~# echo 'MGUM''NOHQPK'
MGUMNOHQPK
root@arm:~# MARKER='MLZZ''XPLTGB' run 'i2cget -y -f 2 0x4b 0xd'
MLZZXPLTGB0x29
MLZZXPLTGB 0
root@arm:~# echo 'EJUL''XZBQLS'
EJULXZBQLS
root@arm:~# MARKER='MLPP''GCFSKV' run 'echo 1120000 1120000 > /sys/kernel/mva_tesst/regulators/buck1_set'
MLPPGCFSKVMLPPGCFSKV 0
root@arm:~# echo 'FVLS''VJVASZ'
FVLSVJVASZ
root@arm:~# MARKER='YMHC''UJSJNM' run 'i2cget -y -f 2 0x4b 0xd'
YMHCUJSJNM0x2a
YMHCUJSJNM 0
root@arm:~# echo 'ECMP''LLKNTV'
ECMPLLKNTV
root@arm:~# MARKER='NQJG''YAWPZZ' run 'echo 1130000 1130000 > /sys/kernel/mva_tesst/regulators/buck1_set'
NQJGYAWPZZNQJGYAWPZZ 0
root@arm:~# echo 'SVET''OATWBK'
SVETOATWBK
root@arm:~# MARKER='TKAC''QMGGHK' run 'i2cget -y -f 2 0x4b 0xd'
TKACQMGGHK0x2b
TKACQMGGHK 0
root@arm:~# echo 'KBBS''AVYMTW'
KBBSAVYMTW
root@arm:~# MARKER='PZVW''TLAFNL' run 'echo 1140000 1140000 > /sys/kernel/mva_tesst/regulators/buck1_set'
PZVWTLAFNLPZVWTLAFNL 0
root@arm:~# echo 'LNYL''UVHMWT'
LNYLUVHMWT
root@arm:~# MARKER='OZVK''HFUSCE' run 'i2cget -y -f 2 0x4b 0xd'
OZVKHFUSCE0x2c
OZVKHFUSCE 0
root@arm:~# echo 'OWLT''CCFPVL'
OWLTCCFPVL
root@arm:~# MARKER='FKBY''ULGVVH' run 'echo 1150000 1150000 > /sys/kernel/mva_tesst/regulators/buck1_set'
FKBYULGVVHFKBYULGVVH 0
root@arm:~# echo 'WNVL''SAUKUJ'
WNVLSAUKUJ
root@arm:~# MARKER='ENCV''VLNGJJ' run 'i2cget -y -f 2 0x4b 0xd'
ENCVVLNGJJ0x2d
ENCVVLNGJJ 0
root@arm:~# echo 'XHPQ''VFXOUX'
XHPQVFXOUX
root@arm:~# MARKER='QNXO''CYPYOB' run 'echo 1160000 1160000 > /sys/kernel/mva_tesst/regulators/buck1_set'
QNXOCYPYOBQNXOCYPYOB 0
root@arm:~# echo 'YOEY''HWEQGP'
YOEYHWEQGP
root@arm:~# MARKER='WVTU''UAGVQY' run 'i2cget -y -f 2 0x4b 0xd'
WVTUUAGVQY0x2e
WVTUUAGVQY 0
root@arm:~# echo 'NYXT''WATYPO'
NYXTWATYPO
root@arm:~# MARKER='ZCPH''WUBKBY' run 'echo 1170000 1170000 > /sys/kernel/mva_tesst/regulators/buck1_set'
ZCPHWUBKBYZCPHWUBKBY 0
root@arm:~# echo 'PHUT''GXHAHG'
PHUTGXHAHG
root@arm:~# MARKER='QHNC''THXGKO' run 'i2cget -y -f 2 0x4b 0xd'
QHNCTHXGKO0x2f
QHNCTHXGKO 0
root@arm:~# echo 'EXQC''UEUZSH'
EXQCUEUZSH
root@arm:~# MARKER='PYZV''LZUXJK' run 'echo 1180000 1180000 > /sys/kernel/mva_tesst/regulators/buck1_set'
PYZVLZUXJKPYZVLZUXJK 0
root@arm:~# echo 'HJWH''SAMFBT'
HJWHSAMFBT
root@arm:~# MARKER='AAMS''QBSOZK' run 'i2cget -y -f 2 0x4b 0xd'
AAMSQBSOZK0x30
AAMSQBSOZK 0
root@arm:~# echo 'NFXT''YLTOTZ'
NFXTYLTOTZ
root@arm:~# MARKER='KGQA''OXTTQH' run 'echo 1190000 1190000 > /sys/kernel/mva_tesst/regulators/buck1_set'
KGQAOXTTQHKGQAOXTTQH 0
root@arm:~# echo 'GWKY''JYCGKW'
GWKYJYCGKW
root@arm:~# MARKER='PESN''MMWHFC' run 'i2cget -y -f 2 0x4b 0xd'
PESNMMWHFC0x31
PESNMMWHFC 0
root@arm:~# echo 'UEJC''EHKTHC'
UEJCEHKTHC
root@arm:~# MARKER='YSYJ''BVOTUJ' run 'echo 1200000 1200000 > /sys/kernel/mva_tesst/regulators/buck1_set'
YSYJBVOTUJYSYJBVOTUJ 0
root@arm:~# echo 'YHSP''GFVQQQ'
YHSPGFVQQQ
root@arm:~# MARKER='PWSL''UYXWZU' run 'i2cget -y -f 2 0x4b 0xd'
PWSLUYXWZU0x32
PWSLUYXWZU 0
root@arm:~# echo 'BNKS''BMOYZS'
BNKSBMOYZS
root@arm:~# MARKER='BMLG''OBPZZB' run 'echo 1210000 1210000 > /sys/kernel/mva_tesst/regulators/buck1_set'
BMLGOBPZZBBMLGOBPZZB 0
root@arm:~# echo 'YWQT''QGJMUL'
YWQTQGJMUL
root@arm:~# MARKER='QUNH''AXFVEO' run 'i2cget -y -f 2 0x4b 0xd'
QUNHAXFVEO0x33
QUNHAXFVEO 0
root@arm:~# echo 'ZWTK''SHQATL'
ZWTKSHQATL
root@arm:~# MARKER='UPXE''EQKSCC' run 'echo 1220000 1220000 > /sys/kernel/mva_tesst/regulators/buck1_set'
UPXEEQKSCCUPXEEQKSCC 0
root@arm:~# echo 'YCYH''VVGHXO'
YCYHVVGHXO
root@arm:~# MARKER='XMBU''NMWTFP' run 'i2cget -y -f 2 0x4b 0xd'
XMBUNMWTFP0x34
XMBUNMWTFP 0
root@arm:~# echo 'TFPC''QVBAQA'
TFPCQVBAQA
root@arm:~# MARKER='UUZV''OFLXZH' run 'echo 1230000 1230000 > /sys/kernel/mva_tesst/regulators/buck1_set'
UUZVOFLXZHUUZVOFLXZH 0
root@arm:~# echo 'OKWP''WAJQYB'
OKWPWAJQYB
root@arm:~# MARKER='QAKT''MHQFNO' run 'i2cget -y -f 2 0x4b 0xd'
QAKTMHQFNO0x35
QAKTMHQFNO 0
root@arm:~# echo 'THBJ''JTNHAS'
THBJJTNHAS
root@arm:~# MARKER='FATM''BGBVNP' run 'echo 1240000 1240000 > /sys/kernel/mva_tesst/regulators/buck1_set'
FATMBGBVNPFATMBGBVNP 0
root@arm:~# echo 'MKKZ''KZKTKF'
MKKZKZKTKF
root@arm:~# MARKER='MSAB''OVAFLP' run 'i2cget -y -f 2 0x4b 0xd'
MSABOVAFLP0x36
MSABOVAFLP 0
root@arm:~# echo 'SVZV''ZEXBVH'
SVZVZEXBVH
root@arm:~# MARKER='JLTV''JAAYSP' run 'echo 1250000 1250000 > /sys/kernel/mva_tesst/regulators/buck1_set'
JLTVJAAYSPJLTVJAAYSP 0
root@arm:~# echo 'OLMZ''GQEBEA'
OLMZGQEBEA
root@arm:~# MARKER='YKXU''OMBTYY' run 'i2cget -y -f 2 0x4b 0xd'
YKXUOMBTYY0x37
YKXUOMBTYY 0
root@arm:~# echo 'HJUL''GHOEVN'
HJULGHOEVN
root@arm:~# MARKER='MGGB''BZBMQY' run 'echo 1260000 1260000 > /sys/kernel/mva_tesst/regulators/buck1_set'
MGGBBZBMQYMGGBBZBMQY 0
root@arm:~# echo 'YLMB''ENOEZB'
YLMBENOEZB
root@arm:~# MARKER='GZMF''STUWQB' run 'i2cget -y -f 2 0x4b 0xd'
GZMFSTUWQB0x38
GZMFSTUWQB 0
root@arm:~# echo 'YTOS''MKTHSU'
YTOSMKTHSU
root@arm:~# MARKER='ZKNL''KZCOLG' run 'echo 1270000 1270000 > /sys/kernel/mva_tesst/regulators/buck1_set'
ZKNLKZCOLGZKNLKZCOLG 0
root@arm:~# echo 'VTYO''FBFMQA'
VTYOFBFMQA
root@arm:~# MARKER='TEGT''MMHUWK' run 'i2cget -y -f 2 0x4b 0xd'
TEGTMMHUWK0x39
TEGTMMHUWK 0
root@arm:~# echo 'CCLG''FBCCCC'
CCLGFBCCCC
root@arm:~# MARKER='YFYE''UYMSNB' run 'echo 1280000 1280000 > /sys/kernel/mva_tesst/regulators/buck1_set'
YFYEUYMSNBYFYEUYMSNB 0
root@arm:~# echo 'VJEP''LVLYCT'
VJEPLVLYCT
root@arm:~# MARKER='HYBP''YQCTPJ' run 'i2cget -y -f 2 0x4b 0xd'
HYBPYQCTPJ0x3a
HYBPYQCTPJ 0
root@arm:~# echo 'TYSM''EGATKT'
TYSMEGATKT
root@arm:~# MARKER='LJSP''GLLCXF' run 'echo 1290000 1290000 > /sys/kernel/mva_tesst/regulators/buck1_set'
LJSPGLLCXFLJSPGLLCXF 0
root@arm:~# echo 'TXQH''QVKYWL'
TXQHQVKYWL
root@arm:~# MARKER='ZBXJ''KUVHKV' run 'i2cget -y -f 2 0x4b 0xd'
ZBXJKUVHKV0x3b
ZBXJKUVHKV 0
root@arm:~# echo 'AZOJ''TUMEEP'
AZOJTUMEEP
root@arm:~# MARKER='ZWAG''FJEGBN' run 'echo 1300000 1300000 > /sys/kernel/mva_tesst/regulators/buck1_set'
ZWAGFJEGBNZWAGFJEGBN 0
root@arm:~# echo 'VMVU''JKKCPC'
VMVUJKKCPC
root@arm:~# MARKER='CXXP''MNMFAN' run 'i2cget -y -f 2 0x4b 0xd'
CXXPMNMFAN0x3c
CXXPMNMFAN 0
root@arm:~# echo 'TAYK''UMXCUX'
TAYKUMXCUX
root@arm:~# MARKER='JLLA''TOWLKG' run 'grep -r -l rohm,bd71837 /proc/device-tree  | sed '"'"'s![^/]*$!!'"'"''
JLLATOWLKG/proc/device-tree/ocp/interconnect@48000000/segment@100000/target-module@9c000/i2c@0/pmic@4b/
JLLATOWLKG 0
root@arm:~# echo 'YVES''SKFMUF'
YVESSKFMUF
root@arm:~# MARKER='UXJW''UBYQOG' run 'test -f /proc/device-tree/ocp/interconnectt\@48000000/segment\@100000/target-module\@9c000/i2c\@0/pmic\@4b/regulators/BUCK22/rohm,no-regulator-enable-control ;echo $?'
UXJWUBYQOG1
UXJWUBYQOG 0
root@arm:~# echo 'EQAO''JGTTKX'
EQAOJGTTKX
root@arm:~# MARKER='NELH''HAUMMS' run 'i2cget -y -f 2 0x4b 0x6'
NELHHAUMMS0x43
NELHHAUMMS 0
root@arm:~# echo 'KMZG''ETAGTS'
KMZGETAGTS
root@arm:~# MARKER='XOTL''FAPXHU' run 'echo 700000 700000 > /sys/kernel/mva_test//regulators/buck2_set'
XOTLFAPXHUXOTLFAPXHU 0
root@arm:~# echo 'VUQK''SGAGOE'
VUQKSGAGOE
root@arm:~# MARKER='CHYO''NKQNBT' run 'i2cget -y -f 2 0x4b 0x10'
CHYONKQNBT0x00
CHYONKQNBT 0
root@arm:~# echo 'GLEQ''WCWFOU'
GLEQWCWFOU
root@arm:~# MARKER='OVGN''ZOTJHE' run 'echo 710000 710000 > /sys/kernel/mva_test//regulators/buck2_set'
OVGNZOTJHEOVGNZOTJHE 0
root@arm:~# echo 'HNPL''BBBPPO'
HNPLBBBPPO
root@arm:~# MARKER='ZFAQ''TLCQJG' run 'i2cget -y -f 2 0x4b 0x10'
ZFAQTLCQJG0x01
ZFAQTLCQJG 0
root@arm:~# echo 'NFMS''XXNJUN'
NFMSXXNJUN
root@arm:~# MARKER='UKOO''WXGUWM' run 'echo 720000 720000 > /sys/kernel/mva_test//regulators/buck2_set'
UKOOWXGUWMUKOOWXGUWM 0
root@arm:~# echo 'XLUH''CAKPFE'
XLUHCAKPFE
root@arm:~# MARKER='QSVS''SPCXLP' run 'i2cget -y -f 2 0x4b 0x10'
QSVSSPCXLP0x02
QSVSSPCXLP 0
root@arm:~# echo 'FEOG''YFHQHQ'
FEOGYFHQHQ
root@arm:~# MARKER='JNCS''FVAMAW' run 'echo 730000 730000 > /sys/kernel/mva_test//regulators/buck2_set'
JNCSFVAMAWJNCSFVAMAW 0
root@arm:~# echo 'WXTB''YGLJEZ'
WXTBYGLJEZ
root@arm:~# MARKER='UMOB''VSQSHT' run 'i2cget -y -f 2 0x4b 0x10'
UMOBVSQSHT0x03
UMOBVSQSHT 0
root@arm:~# echo 'XVHN''KGJEGP'
XVHNKGJEGP
root@arm:~# MARKER='QAXK''BKXPGV' run 'echo 740000 740000 > /sys/kernel/mva_test//regulators/buck2_set'
QAXKBKXPGVQAXKBKXPGV 0
root@arm:~# echo 'VHVO''LWJTTO'
VHVOLWJTTO
root@arm:~# MARKER='HUYG''YWXJGU' run 'i2cget -y -f 2 0x4b 0x10'
HUYGYWXJGU0x04
HUYGYWXJGU 0
root@arm:~# echo 'NSXB''GPJWXV'
NSXBGPJWXV
root@arm:~# MARKER='XXUA''JKNLPV' run 'echo 750000 750000 > /sys/kernel/mva_test//regulators/buck2_set'
XXUAJKNLPVXXUAJKNLPV 0
root@arm:~# echo 'KJEZ''CLMAML'
KJEZCLMAML
root@arm:~# MARKER='KZZC''TUFWXX' run 'i2cget -y -f 2 0x4b 0x10'
KZZCTUFWXX0x05
KZZCTUFWXX 0
root@arm:~# echo 'GEPK''KLCGMW'
GEPKKLCGMW
root@arm:~# MARKER='CHCX''TWEACN' run 'echo 760000 760000 > /sys/kernel/mva_test//regulators/buck2_set'
CHCXTWEACNCHCXTWEACN 0
root@arm:~# echo 'ACJC''UUZUJW'
ACJCUUZUJW
root@arm:~# MARKER='NPQT''ZAEKBN' run 'i2cget -y -f 2 0x4b 0x10'
NPQTZAEKBN0x06
NPQTZAEKBN 0
root@arm:~# echo 'WCKV''OLFEVZ'
WCKVOLFEVZ
root@arm:~# MARKER='OABW''FXCJMB' run 'echo 770000 770000 > /sys/kernel/mva_test//regulators/buck2_set'
OABWFXCJMBOABWFXCJMB 0
root@arm:~# echo 'VACY''YFJKUU'
VACYYFJKUU
root@arm:~# MARKER='AJWZ''XECMKQ' run 'i2cget -y -f 2 0x4b 0x10'
AJWZXECMKQ0x07
AJWZXECMKQ 0
root@arm:~# echo 'TFXW''AOGWOA'
TFXWAOGWOA
root@arm:~# MARKER='NLEG''SUHZMV' run 'echo 780000 780000 > /sys/kernel/mva_test//regulators/buck2_set'
NLEGSUHZMVNLEGSUHZMV 0
root@arm:~# echo 'KKNA''CLZTNC'
KKNACLZTNC
root@arm:~# MARKER='FLQZ''VHVJQB' run 'i2cget -y -f 2 0x4b 0x10'
FLQZVHVJQB0x08
FLQZVHVJQB 0
root@arm:~# echo 'QPQP''KZPEQU'
QPQPKZPEQU
root@arm:~# MARKER='YHLE''UAJBXG' run 'echo 790000 790000 > /sys/kernel/mva_test//regulators/buck2_set'
YHLEUAJBXGYHLEUAJBXG 0
root@arm:~# echo 'GMZV''QWCTUG'
GMZVQWCTUG
root@arm:~# MARKER='MBCP''VNGXEE' run 'i2cget -y -f 2 0x4b 0x10'
MBCPVNGXEE0x09
MBCPVNGXEE 0
root@arm:~# echo 'NOMJ''ZJUBTO'
NOMJZJUBTO
root@arm:~# MARKER='WKSP''MXGVEQ' run 'echo 800000 800000 > /sys/kernel/mva_test//regulators/buck2_set'
WKSPMXGVEQWKSPMXGVEQ 0
root@arm:~# echo 'TBOB''QFTJYO'
TBOBQFTJYO
root@arm:~# MARKER='XFZO''BGHJFC' run 'i2cget -y -f 2 0x4b 0x10'
XFZOBGHJFC0x0a
XFZOBGHJFC 0
root@arm:~# echo 'OVNN''OOKOHO'
OVNNOOKOHO
root@arm:~# MARKER='JAKN''SWWWMX' run 'echo 810000 810000 > /sys/kernel/mva_test//regulators/buck2_set'
JAKNSWWWMXJAKNSWWWMX 0
root@arm:~# echo 'ZGSX''ZXKEVU'
ZGSXZXKEVU
root@arm:~# MARKER='JQJL''ZKCWNB' run 'i2cget -y -f 2 0x4b 0x10'
JQJLZKCWNB0x0b
JQJLZKCWNB 0
root@arm:~# echo 'QHWH''PQUUCS'
QHWHPQUUCS
root@arm:~# MARKER='VPKG''KWHVGG' run 'echo 820000 820000 > /sys/kernel/mva_test//regulators/buck2_set'
VPKGKWHVGGVPKGKWHVGG 0
root@arm:~# echo 'SCHM''UQGQYO'
SCHMUQGQYO
root@arm:~# MARKER='LYWQ''PKZZYT' run 'i2cget -y -f 2 0x4b 0x10'
LYWQPKZZYT0x0c
LYWQPKZZYT 0
root@arm:~# echo 'UVKL''LWGCLM'
UVKLLWGCLM
root@arm:~# MARKER='QCZN''XSMUKH' run 'echo 830000 830000 > /sys/kernel/mva_test//regulators/buck2_set'
QCZNXSMUKHQCZNXSMUKH 0
root@arm:~# echo 'CHHS''NXTPBN'
CHHSNXTPBN
root@arm:~# MARKER='KUQO''VQPOLU' run 'i2cget -y -f 2 0x4b 0x10'
KUQOVQPOLU0x0d
KUQOVQPOLU 0
root@arm:~# echo 'STMX''JQOLCV'
STMXJQOLCV
root@arm:~# MARKER='LWMC''JENFXS' run 'echo 840000 840000 > /sys/kernel/mva_test//regulators/buck2_set'
LWMCJENFXSLWMCJENFXS 0
root@arm:~# echo 'CUYN''UWYEKB'
CUYNUWYEKB
root@arm:~# MARKER='JCVK''KBBPZF' run 'i2cget -y -f 2 0x4b 0x10'
JCVKKBBPZF0x0e
JCVKKBBPZF 0
root@arm:~# echo 'CFNK''XCQKWE'
CFNKXCQKWE
root@arm:~# MARKER='WKSZ''JFZSCC' run 'echo 850000 850000 > /sys/kernel/mva_test//regulators/buck2_set'
WKSZJFZSCCWKSZJFZSCC 0
root@arm:~# echo 'LJMC''LGNMBP'
LJMCLGNMBP
root@arm:~# MARKER='EYWF''SZWBGV' run 'i2cget -y -f 2 0x4b 0x10'
EYWFSZWBGV0x0f
EYWFSZWBGV 0
root@arm:~# echo 'HSVN''SYEJQJ'
HSVNSYEJQJ
root@arm:~# MARKER='VZPW''NJECYB' run 'echo 860000 860000 > /sys/kernel/mva_test//regulators/buck2_set'
VZPWNJECYBVZPWNJECYB 0
root@arm:~# echo 'CWAM''UVNKOH'
CWAMUVNKOH
root@arm:~# MARKER='FBJL''SGPYFL' run 'i2cget -y -f 2 0x4b 0x10'
FBJLSGPYFL0x10
FBJLSGPYFL 0
root@arm:~# echo 'BVHX''SKGBBU'
BVHXSKGBBU
root@arm:~# MARKER='TOCA''TUCBJK' run 'echo 870000 870000 > /sys/kernel/mva_test//regulators/buck2_set'
TOCATUCBJKTOCATUCBJK 0
root@arm:~# echo 'EZEJ''EYLLFN'
EZEJEYLLFN
root@arm:~# MARKER='KZGJ''CPXWGA' run 'i2cget -y -f 2 0x4b 0x10'
KZGJCPXWGA0x11
KZGJCPXWGA 0
root@arm:~# echo 'ECWA''CHZOAE'
ECWACHZOAE
root@arm:~# MARKER='HXZV''GNTKHY' run 'echo 880000 880000 > /sys/kernel/mva_test//regulators/buck2_set'
HXZVGNTKHYHXZVGNTKHY 0
root@arm:~# echo 'EKXT''BVWLNQ'
EKXTBVWLNQ
root@arm:~# MARKER='TXZG''CYPVCY' run 'i2cget -y -f 2 0x4b 0x10'
TXZGCYPVCY0x12
TXZGCYPVCY 0
root@arm:~# echo 'MBAH''ZAFQBT'
MBAHZAFQBT
root@arm:~# MARKER='WYKN''SVTSYY' run 'echo 890000 890000 > /sys/kernel/mva_test//regulators/buck2_set'
WYKNSVTSYYWYKNSVTSYY 0
root@arm:~# echo 'WSJL''NNXXCW'
WSJLNNXXCW
root@arm:~# MARKER='GLNM''QEYEVE' run 'i2cget -y -f 2 0x4b 0x10'
GLNMQEYEVE0x13
GLNMQEYEVE 0
root@arm:~# echo 'VUUO''CQMZQP'
VUUOCQMZQP
root@arm:~# MARKER='ZKWX''FLKHQC' run 'echo 900000 900000 > /sys/kernel/mva_test//regulators/buck2_set'
ZKWXFLKHQCZKWXFLKHQC 0
root@arm:~# echo 'VGYE''MFNTUX'
VGYEMFNTUX
root@arm:~# MARKER='WHSU''CWXUTP' run 'i2cget -y -f 2 0x4b 0x10'
WHSUCWXUTP0x14
WHSUCWXUTP 0
root@arm:~# echo 'CBXV''CJFBTK'
CBXVCJFBTK
root@arm:~# MARKER='BYJQ''AYMJLW' run 'echo 910000 910000 > /sys/kernel/mva_test//regulators/buck2_set'
BYJQAYMJLWBYJQAYMJLW 0
root@arm:~# echo 'BONB''MPVUVO'
BONBMPVUVO
root@arm:~# MARKER='FVKU''HWTOUM' run 'i2cget -y -f 2 0x4b 0x10'
FVKUHWTOUM0x15
FVKUHWTOUM 0
root@arm:~# echo 'MNMG''UZCVQS'
MNMGUZCVQS
root@arm:~# MARKER='XLKS''BYPFHB' run 'echo 920000 920000 > /sys/kernel/mva_test//regulators/buck2_set'
XLKSBYPFHBXLKSBYPFHB 0
root@arm:~# echo 'XUKY''OMSOWN'
XUKYOMSOWN
root@arm:~# MARKER='WJNJ''LEBAPG' run 'i2cget -y -f 2 0x4b 0x10'
WJNJLEBAPG0x16
WJNJLEBAPG 0
root@arm:~# echo 'AGSB''VBFUTP'
AGSBVBFUTP
root@arm:~# MARKER='WKGU''ZQACWJ' run 'echo 930000 930000 > /sys/kernel/mva_test//regulators/buck2_set'
WKGUZQACWJWKGUZQACWJ 0
root@arm:~# echo 'OGKW''QVUXEU'
OGKWQVUXEU
root@arm:~# MARKER='HFEF''PJCGNJ' run 'i2cget -y -f 2 0x4b 0x10'
HFEFPJCGNJ0x17
HFEFPJCGNJ 0
root@arm:~# echo 'MXWX''HNCJFP'
MXWXHNCJFP
root@arm:~# MARKER='VXKL''KPBOYY' run 'echo 940000 940000 > /sys/kernel/mva_test//regulators/buck2_set'
VXKLKPBOYYVXKLKPBOYY 0
root@arm:~# echo 'OMJE''KAELGX'
OMJEKAELGX
root@arm:~# MARKER='HGHP''BWTFCN' run 'i2cget -y -f 2 0x4b 0x10'
HGHPBWTFCN0x18
HGHPBWTFCN 0
root@arm:~# echo 'AQFB''FMXMJE'
AQFBFMXMJE
root@arm:~# MARKER='TVMG''KGYPWC' run 'echo 950000 950000 > /sys/kernel/mva_test//regulators/buck2_set'
TVMGKGYPWCTVMGKGYPWC 0
root@arm:~# echo 'CJFE''FNZTVG'
CJFEFNZTVG
root@arm:~# MARKER='LOXX''YCYEZE' run 'i2cget -y -f 2 0x4b 0x10'
LOXXYCYEZE0x19
LOXXYCYEZE 0
root@arm:~# echo 'KKPT''UVAMLE'
KKPTUVAMLE
root@arm:~# MARKER='VLOJ''WHFXGW' run 'echo 960000 960000 > /sys/kernel/mva_test//regulators/buck2_set'
VLOJWHFXGWVLOJWHFXGW 0
root@arm:~# echo 'VJVB''YHMUKM'
VJVBYHMUKM
root@arm:~# MARKER='LGAK''QYLUZV' run 'i2cget -y -f 2 0x4b 0x10'
LGAKQYLUZV0x1a
LGAKQYLUZV 0
root@arm:~# echo 'HSLL''XMQCZU'
HSLLXMQCZU
root@arm:~# MARKER='UXEC''ATZAZC' run 'echo 970000 970000 > /sys/kernel/mva_test//regulators/buck2_set'
UXECATZAZCUXECATZAZC 0
root@arm:~# echo 'VMKA''XVFYQA'
VMKAXVFYQA
root@arm:~# MARKER='CAUO''EKXEPV' run 'i2cget -y -f 2 0x4b 0x10'
CAUOEKXEPV0x1b
CAUOEKXEPV 0
root@arm:~# echo 'MMPM''EPKTVL'
MMPMEPKTVL
root@arm:~# MARKER='YBEK''HQUTUW' run 'echo 980000 980000 > /sys/kernel/mva_test//regulators/buck2_set'
YBEKHQUTUWYBEKHQUTUW 0
root@arm:~# echo 'JUZT''PNUVOQ'
JUZTPNUVOQ
root@arm:~# MARKER='HVNV''JXUUQS' run 'i2cget -y -f 2 0x4b 0x10'
HVNVJXUUQS0x1c
HVNVJXUUQS 0
root@arm:~# echo 'GZHA''KXOLWS'
GZHAKXOLWS
root@arm:~# MARKER='WQQM''MLFHWU' run 'echo 990000 990000 > /sys/kernel/mva_test//regulators/buck2_set'
WQQMMLFHWUWQQMMLFHWU 0
root@arm:~# echo 'TUGX''NVATVK'
TUGXNVATVK
root@arm:~# MARKER='VKVV''PTOYGF' run 'i2cget -y -f 2 0x4b 0x10'
VKVVPTOYGF0x1d
VKVVPTOYGF 0
root@arm:~# echo 'BBBJ''MSPPUQ'
BBBJMSPPUQ
root@arm:~# MARKER='PGFA''PUFVKX' run 'echo 1000000 1000000 > /sys/kernel/mva_tesst/regulators/buck2_set'
PGFAPUFVKXPGFAPUFVKX 0
root@arm:~# echo 'ZEQV''LMPAHS'
ZEQVLMPAHS
root@arm:~# MARKER='XKOJ''UXELWN' run 'i2cget -y -f 2 0x4b 0x10'
XKOJUXELWN0x1e
XKOJUXELWN 0
root@arm:~# echo 'PGHO''XBJCFA'
PGHOXBJCFA
root@arm:~# MARKER='GJUC''ZVEUQT' run 'echo 1010000 1010000 > /sys/kernel/mva_tesst/regulators/buck2_set'
GJUCZVEUQTGJUCZVEUQT 0
root@arm:~# echo 'VZXL''VZWSOE'
VZXLVZWSOE
root@arm:~# MARKER='NQKW''FAHTCE' run 'i2cget -y -f 2 0x4b 0x10'
NQKWFAHTCE0x1f
NQKWFAHTCE 0
root@arm:~# echo 'SLHS''FOPYOM'
SLHSFOPYOM
root@arm:~# MARKER='TBJJ''NZCTKH' run 'echo 1020000 1020000 > /sys/kernel/mva_tesst/regulators/buck2_set'
TBJJNZCTKHTBJJNZCTKH 0
root@arm:~# echo 'XFLQ''LFMAUO'
XFLQLFMAUO
root@arm:~# MARKER='VFLE''UNBSHU' run 'i2cget -y -f 2 0x4b 0x10'
VFLEUNBSHU0x20
VFLEUNBSHU 0
root@arm:~# echo 'TAQZ''HUXHEQ'
TAQZHUXHEQ
root@arm:~# MARKER='ZAWW''ZBTPHU' run 'echo 1030000 1030000 > /sys/kernel/mva_tesst/regulators/buck2_set'
ZAWWZBTPHUZAWWZBTPHU 0
root@arm:~# echo 'JFYZ''AKLWAC'
JFYZAKLWAC
root@arm:~# MARKER='NKJJ''QVXYQV' run 'i2cget -y -f 2 0x4b 0x10'
NKJJQVXYQV0x21
NKJJQVXYQV 0
root@arm:~# echo 'UVZV''MSPHWW'
UVZVMSPHWW
root@arm:~# MARKER='QKOS''BHVUTK' run 'echo 1040000 1040000 > /sys/kernel/mva_tesst/regulators/buck2_set'
QKOSBHVUTKQKOSBHVUTK 0
root@arm:~# echo 'MJFL''YKSSZU'
MJFLYKSSZU
root@arm:~# MARKER='GOFQ''APNUQM' run 'i2cget -y -f 2 0x4b 0x10'
GOFQAPNUQM0x22
GOFQAPNUQM 0
root@arm:~# echo 'SVOP''HEHFPM'
SVOPHEHFPM
root@arm:~# MARKER='KVYY''CFUWYP' run 'echo 1050000 1050000 > /sys/kernel/mva_tesst/regulators/buck2_set'
KVYYCFUWYPKVYYCFUWYP 0
root@arm:~# echo 'ELWE''QHMAUZ'
ELWEQHMAUZ
root@arm:~# MARKER='KFQL''OZXMYW' run 'i2cget -y -f 2 0x4b 0x10'
KFQLOZXMYW0x23
KFQLOZXMYW 0
root@arm:~# echo 'BBQM''ESXAXB'
BBQMESXAXB
root@arm:~# MARKER='HGFE''JHCHZN' run 'echo 1060000 1060000 > /sys/kernel/mva_tesst/regulators/buck2_set'
HGFEJHCHZNHGFEJHCHZN 0
root@arm:~# echo 'BVCH''EXVSSJ'
BVCHEXVSSJ
root@arm:~# MARKER='PANE''ECLHBY' run 'i2cget -y -f 2 0x4b 0x10'
PANEECLHBY0x24
PANEECLHBY 0
root@arm:~# echo 'WHBQ''CKOEJP'
WHBQCKOEJP
root@arm:~# MARKER='SJSL''LFKCWS' run 'echo 1070000 1070000 > /sys/kernel/mva_tesst/regulators/buck2_set'
SJSLLFKCWSSJSLLFKCWS 0
root@arm:~# echo 'BONZ''LHJGEU'
BONZLHJGEU
root@arm:~# MARKER='MMYG''GQNBUO' run 'i2cget -y -f 2 0x4b 0x10'
MMYGGQNBUO0x25
MMYGGQNBUO 0
root@arm:~# echo 'YSGH''TLWCOC'
YSGHTLWCOC
root@arm:~# MARKER='SOGJ''MXYXKB' run 'echo 1080000 1080000 > /sys/kernel/mva_tesst/regulators/buck2_set'
SOGJMXYXKBSOGJMXYXKB 0
root@arm:~# echo 'EKPW''VPJETF'
EKPWVPJETF
root@arm:~# MARKER='UFCU''WCUUKG' run 'i2cget -y -f 2 0x4b 0x10'
UFCUWCUUKG0x26
UFCUWCUUKG 0
root@arm:~# echo 'BTQJ''TFLTAY'
BTQJTFLTAY
root@arm:~# MARKER='NBAP''HPCOWK' run 'echo 1090000 1090000 > /sys/kernel/mva_tesst/regulators/buck2_set'
NBAPHPCOWKNBAPHPCOWK 0
root@arm:~# echo 'XSPY''FHAXFQ'
XSPYFHAXFQ
root@arm:~# MARKER='KCKJ''PNGGAM' run 'i2cget -y -f 2 0x4b 0x10'
KCKJPNGGAM0x27
KCKJPNGGAM 0
root@arm:~# echo 'PHTH''VJQFVP'
PHTHVJQFVP
root@arm:~# MARKER='WMPS''SKSKWQ' run 'echo 1100000 1100000 > /sys/kernel/mva_tesst/regulators/buck2_set'
WMPSSKSKWQWMPSSKSKWQ 0
root@arm:~# echo 'UCZH''YMEMAE'
UCZHYMEMAE
root@arm:~# MARKER='KCCJ''NBZVWZ' run 'i2cget -y -f 2 0x4b 0x10'
KCCJNBZVWZ0x28
KCCJNBZVWZ 0
root@arm:~# echo 'PZFL''CZSEVH'
PZFLCZSEVH
root@arm:~# MARKER='SBHJ''YONTOH' run 'echo 1110000 1110000 > /sys/kernel/mva_tesst/regulators/buck2_set'
SBHJYONTOHSBHJYONTOH 0
root@arm:~# echo 'FJLV''TLWNVH'
FJLVTLWNVH
root@arm:~# MARKER='MOVF''FLTLJX' run 'i2cget -y -f 2 0x4b 0x10'
MOVFFLTLJX0x29
MOVFFLTLJX 0
root@arm:~# echo 'FECF''WSWCZL'
FECFWSWCZL
root@arm:~# MARKER='PHOA''CBLUGL' run 'echo 1120000 1120000 > /sys/kernel/mva_tesst/regulators/buck2_set'
PHOACBLUGLPHOACBLUGL 0
root@arm:~# echo 'PCVP''SCAOPJ'
PCVPSCAOPJ
root@arm:~# MARKER='HNBL''GQUVME' run 'i2cget -y -f 2 0x4b 0x10'
HNBLGQUVME0x2a
HNBLGQUVME 0
root@arm:~# echo 'KCWU''PUYQPY'
KCWUPUYQPY
root@arm:~# MARKER='MKZY''OJVCVC' run 'echo 1130000 1130000 > /sys/kernel/mva_tesst/regulators/buck2_set'
MKZYOJVCVCMKZYOJVCVC 0
root@arm:~# echo 'JTVO''VMXSPX'
JTVOVMXSPX
root@arm:~# MARKER='FZQS''ACYAOK' run 'i2cget -y -f 2 0x4b 0x10'
FZQSACYAOK0x2b
FZQSACYAOK 0
root@arm:~# echo 'VGFY''UEKZNV'
VGFYUEKZNV
root@arm:~# MARKER='QHEA''HSMLFP' run 'echo 1140000 1140000 > /sys/kernel/mva_tesst/regulators/buck2_set'
QHEAHSMLFPQHEAHSMLFP 0
root@arm:~# echo 'QHVJ''YUULBF'
QHVJYUULBF
root@arm:~# MARKER='TQON''JYGGPB' run 'i2cget -y -f 2 0x4b 0x10'
TQONJYGGPB0x2c
TQONJYGGPB 0
root@arm:~# echo 'MBFE''UXLUUO'
MBFEUXLUUO
root@arm:~# MARKER='SNQT''SJYFSB' run 'echo 1150000 1150000 > /sys/kernel/mva_tesst/regulators/buck2_set'
SNQTSJYFSBSNQTSJYFSB 0
root@arm:~# echo 'ESYP''XQYPCV'
ESYPXQYPCV
root@arm:~# MARKER='UJAF''JCUWAH' run 'i2cget -y -f 2 0x4b 0x10'
UJAFJCUWAH0x2d
UJAFJCUWAH 0
root@arm:~# echo 'OHJG''NJLKKU'
OHJGNJLKKU
root@arm:~# MARKER='KCGP''PSJPFW' run 'echo 1160000 1160000 > /sys/kernel/mva_tesst/regulators/buck2_set'
KCGPPSJPFWKCGPPSJPFW 0
root@arm:~# echo 'GSZY''YNBCBF'
GSZYYNBCBF
root@arm:~# MARKER='WLOG''ZASZWP' run 'i2cget -y -f 2 0x4b 0x10'
WLOGZASZWP0x2e
WLOGZASZWP 0
root@arm:~# echo 'NXYK''XEJSGW'
NXYKXEJSGW
root@arm:~# MARKER='CEXL''KZPWSE' run 'echo 1170000 1170000 > /sys/kernel/mva_tesst/regulators/buck2_set'
CEXLKZPWSECEXLKZPWSE 0
root@arm:~# echo 'UATY''GUZSUG'
UATYGUZSUG
root@arm:~# MARKER='LZAN''TEHGSY' run 'i2cget -y -f 2 0x4b 0x10'
LZANTEHGSY0x2f
LZANTEHGSY 0
root@arm:~# echo 'XTPO''SUFKSN'
XTPOSUFKSN
root@arm:~# MARKER='GEQV''NBZMKS' run 'echo 1180000 1180000 > /sys/kernel/mva_tesst/regulators/buck2_set'
GEQVNBZMKSGEQVNBZMKS 0
root@arm:~# echo 'ULNP''VSWVAB'
ULNPVSWVAB
root@arm:~# MARKER='PNZE''USYPOO' run 'i2cget -y -f 2 0x4b 0x10'
PNZEUSYPOO0x30
PNZEUSYPOO 0
root@arm:~# echo 'GTUZ''JEPEJS'
GTUZJEPEJS
root@arm:~# MARKER='STME''ZJJVYT' run 'echo 1190000 1190000 > /sys/kernel/mva_tesst/regulators/buck2_set'
STMEZJJVYTSTMEZJJVYT 0
root@arm:~# echo 'PCQG''MJOWZC'
PCQGMJOWZC
root@arm:~# MARKER='SGHZ''UPAWUP' run 'i2cget -y -f 2 0x4b 0x10'
SGHZUPAWUP0x31
SGHZUPAWUP 0
root@arm:~# echo 'JKJM''ZVWQGH'
JKJMZVWQGH
root@arm:~# MARKER='TBAW''COBWXA' run 'echo 1200000 1200000 > /sys/kernel/mva_tesst/regulators/buck2_set'
TBAWCOBWXATBAWCOBWXA 0
root@arm:~# echo 'JCZV''PPZGGW'
JCZVPPZGGW
root@arm:~# MARKER='HHBG''CBFKCY' run 'i2cget -y -f 2 0x4b 0x10'
HHBGCBFKCY0x32
HHBGCBFKCY 0
root@arm:~# echo 'BSYX''XNLSZG'
BSYXXNLSZG
root@arm:~# MARKER='UYLS''FTAFXF' run 'echo 1210000 1210000 > /sys/kernel/mva_tesst/regulators/buck2_set'
UYLSFTAFXFUYLSFTAFXF 0
root@arm:~# echo 'PYSM''OACKXP'
PYSMOACKXP
root@arm:~# MARKER='FPNH''VBLVBS' run 'i2cget -y -f 2 0x4b 0x10'
FPNHVBLVBS0x33
FPNHVBLVBS 0
root@arm:~# echo 'ECFJ''SGZNJT'
ECFJSGZNJT
root@arm:~# MARKER='FGUN''HQXEHO' run 'echo 1220000 1220000 > /sys/kernel/mva_tesst/regulators/buck2_set'
FGUNHQXEHOFGUNHQXEHO 0
root@arm:~# echo 'ZUNF''FVOMKS'
ZUNFFVOMKS
root@arm:~# MARKER='BHJU''OOAHTO' run 'i2cget -y -f 2 0x4b 0x10'
BHJUOOAHTO0x34
BHJUOOAHTO 0
root@arm:~# echo 'QGSP''FNOJCW'
QGSPFNOJCW
root@arm:~# MARKER='UGPY''EGPGQX' run 'echo 1230000 1230000 > /sys/kernel/mva_tesst/regulators/buck2_set'
UGPYEGPGQXUGPYEGPGQX 0
root@arm:~# echo 'LMPA''BWGUZK'
LMPABWGUZK
root@arm:~# MARKER='UFOK''LHAGCP' run 'i2cget -y -f 2 0x4b 0x10'
UFOKLHAGCP0x35
UFOKLHAGCP 0
root@arm:~# echo 'KHMA''YVVMJM'
KHMAYVVMJM
root@arm:~# MARKER='FALZ''XKWXXZ' run 'echo 1240000 1240000 > /sys/kernel/mva_tesst/regulators/buck2_set'
FALZXKWXXZFALZXKWXXZ 0
root@arm:~# echo 'YZMU''CZVGFN'
YZMUCZVGFN
root@arm:~# MARKER='PNPX''SQVOGN' run 'i2cget -y -f 2 0x4b 0x10'
PNPXSQVOGN0x36
PNPXSQVOGN 0
root@arm:~# echo 'XYQO''NKLUFV'
XYQONKLUFV
root@arm:~# MARKER='CTNP''JUOVUN' run 'echo 1250000 1250000 > /sys/kernel/mva_tesst/regulators/buck2_set'
CTNPJUOVUNCTNPJUOVUN 0
root@arm:~# echo 'FJHW''STKMNO'
FJHWSTKMNO
root@arm:~# MARKER='YNVW''NXCVOF' run 'i2cget -y -f 2 0x4b 0x10'
YNVWNXCVOF0x37
YNVWNXCVOF 0
root@arm:~# echo 'GEMU''CPLBAW'
GEMUCPLBAW
root@arm:~# MARKER='CWMH''LVXYLJ' run 'echo 1260000 1260000 > /sys/kernel/mva_tesst/regulators/buck2_set'
CWMHLVXYLJCWMHLVXYLJ 0
root@arm:~# echo 'CLMB''CAKGPB'
CLMBCAKGPB
root@arm:~# MARKER='GCEL''QPXLPN' run 'i2cget -y -f 2 0x4b 0x10'
GCELQPXLPN0x38
GCELQPXLPN 0
root@arm:~# echo 'VKSW''EGTMJH'
VKSWEGTMJH
root@arm:~# MARKER='ZVJH''ZBHKEZ' run 'echo 1270000 1270000 > /sys/kernel/mva_tesst/regulators/buck2_set'
ZVJHZBHKEZZVJHZBHKEZ 0
root@arm:~# echo 'WWWS''HTWHLQ'
WWWSHTWHLQ
root@arm:~# MARKER='YETE''LOBXWL' run 'i2cget -y -f 2 0x4b 0x10'
YETELOBXWL0x39
YETELOBXWL 0
root@arm:~# echo 'LWGE''WOOKGS'
LWGEWOOKGS
root@arm:~# MARKER='ZPUU''GJBUXT' run 'echo 1280000 1280000 > /sys/kernel/mva_tesst/regulators/buck2_set'
ZPUUGJBUXTZPUUGJBUXT 0
root@arm:~# echo 'UMAK''OXEAPS'
UMAKOXEAPS
root@arm:~# MARKER='YLVT''UHQNVS' run 'i2cget -y -f 2 0x4b 0x10'
YLVTUHQNVS0x3a
YLVTUHQNVS 0
root@arm:~# echo 'YVLJ''PXGOMF'
YVLJPXGOMF
root@arm:~# MARKER='XMNE''NGGTSO' run 'echo 1290000 1290000 > /sys/kernel/mva_tesst/regulators/buck2_set'
XMNENGGTSOXMNENGGTSO 0
root@arm:~# echo 'LLAU''UWTYCT'
LLAUUWTYCT
root@arm:~# MARKER='UWOZ''CFZUKT' run 'i2cget -y -f 2 0x4b 0x10'
UWOZCFZUKT0x3b
UWOZCFZUKT 0
root@arm:~# echo 'ZKOQ''MEWLEK'
ZKOQMEWLEK
root@arm:~# MARKER='ZNXB''WNUFNX' run 'echo 1300000 1300000 > /sys/kernel/mva_tesst/regulators/buck2_set'
ZNXBWNUFNXZNXBWNUFNX 0
root@arm:~# echo 'WPNC''AVKBUQ'
WPNCAVKBUQ
root@arm:~# MARKER='ZTWN''ACYNGM' run 'i2cget -y -f 2 0x4b 0x10'
ZTWNACYNGM0x3c
ZTWNACYNGM 0
root@arm:~# echo 'BNYX''MJEWPG'
BNYXMJEWPG
root@arm:~# MARKER='XXWT''SCYSMA' run 'grep -r -l rohm,bd71837 /proc/device-tree  | sed '"'"'s![^/]*$!!'"'"''
XXWTSCYSMA/proc/device-tree/ocp/interconnect@48000000/segment@100000/target-module@9c000/i2c@0/pmic@4b/
XXWTSCYSMA 0
root@arm:~# echo 'VGFC''MQYFUL'
VGFCMQYFUL
root@arm:~# MARKER='HGLM''BYVEAH' run 'test -f /proc/device-tree/ocp/interconnectt\@48000000/segment\@100000/target-module\@9c000/i2c\@0/pmic\@4b/regulators/BUCK33/rohm,no-regulator-enable-control ;echo $?'
HGLMBYVEAH0
HGLMBYVEAH 0
root@arm:~# echo 'PVTQ''FAXGPM'
PVTQFAXGPM
root@arm:~# MARKER='TGNW''HJCNWT' run 'echo 700000 700000 > /sys/kernel/mva_test//regulators/buck3_set'
TGNWHJCNWTTGNWHJCNWT 0
root@arm:~# echo 'CYMH''SSSXXB'
CYMHSSSXXB
root@arm:~# MARKER='XNHP''LACXXZ' run 'i2cget -y -f 2 0x4b 0x12'
XNHPLACXXZ0x00
XNHPLACXXZ 0
root@arm:~# echo 'VEGT''SKSNYG'
VEGTSKSNYG
root@arm:~# MARKER='ZUOC''EJWWFK' run 'echo 710000 710000 > /sys/kernel/mva_test//regulators/buck3_set'
ZUOCEJWWFKZUOCEJWWFK 0
root@arm:~# echo 'VTHN''LZSEHW'
VTHNLZSEHW
root@arm:~# MARKER='FOUQ''OEZYOQ' run 'i2cget -y -f 2 0x4b 0x12'
FOUQOEZYOQ0x01
FOUQOEZYOQ 0
root@arm:~# echo 'MLSJ''GTYNYO'
MLSJGTYNYO
root@arm:~# MARKER='ZSUF''JMEVCW' run 'echo 720000 720000 > /sys/kernel/mva_test//regulators/buck3_set'
ZSUFJMEVCWZSUFJMEVCW 0
root@arm:~# echo 'NKOJ''ZSYCCH'
NKOJZSYCCH
root@arm:~# MARKER='UUPC''ZBEPSV' run 'i2cget -y -f 2 0x4b 0x12'
UUPCZBEPSV0x02
UUPCZBEPSV 0
root@arm:~# echo 'GYZW''GBNXJV'
GYZWGBNXJV
root@arm:~# MARKER='FNPW''YPUFJV' run 'echo 730000 730000 > /sys/kernel/mva_test//regulators/buck3_set'
FNPWYPUFJVFNPWYPUFJV 0
root@arm:~# echo 'ZBBU''JTOLMY'
ZBBUJTOLMY
root@arm:~# MARKER='MYAX''OSSTQX' run 'i2cget -y -f 2 0x4b 0x12'
MYAXOSSTQX0x03
MYAXOSSTQX 0
root@arm:~# echo 'HEET''WXJKUX'
HEETWXJKUX
root@arm:~# MARKER='NNHS''APAHXC' run 'echo 740000 740000 > /sys/kernel/mva_test//regulators/buck3_set'
NNHSAPAHXCNNHSAPAHXC 0
root@arm:~# echo 'SVOY''VKFTXT'
SVOYVKFTXT
root@arm:~# MARKER='BLQM''EONMNK' run 'i2cget -y -f 2 0x4b 0x12'
BLQMEONMNK0x04
BLQMEONMNK 0
root@arm:~# echo 'GSEG''NZPZTK'
GSEGNZPZTK
root@arm:~# MARKER='HCNH''GWYVHB' run 'echo 750000 750000 > /sys/kernel/mva_test//regulators/buck3_set'
HCNHGWYVHBHCNHGWYVHB 0
root@arm:~# echo 'NEGM''QCXNCQ'
NEGMQCXNCQ
root@arm:~# MARKER='WJFN''TLQGMN' run 'i2cget -y -f 2 0x4b 0x12'
WJFNTLQGMN0x05
WJFNTLQGMN 0
root@arm:~# echo 'QYWE''YGKXFH'
QYWEYGKXFH
root@arm:~# MARKER='FGLJ''EFLYZF' run 'echo 760000 760000 > /sys/kernel/mva_test//regulators/buck3_set'
FGLJEFLYZFFGLJEFLYZF 0
root@arm:~# echo 'UMEJ''EQKJLS'
UMEJEQKJLS
root@arm:~# MARKER='LZHZ''NPSYHC' run 'i2cget -y -f 2 0x4b 0x12'
LZHZNPSYHC0x06
LZHZNPSYHC 0
root@arm:~# echo 'QJQO''MZTUTG'
QJQOMZTUTG
root@arm:~# MARKER='NOBB''SYMJMY' run 'echo 770000 770000 > /sys/kernel/mva_test//regulators/buck3_set'
NOBBSYMJMYNOBBSYMJMY 0
root@arm:~# echo 'FVHH''HTXLCN'
FVHHHTXLCN
root@arm:~# MARKER='YMTB''APVULM' run 'i2cget -y -f 2 0x4b 0x12'
YMTBAPVULM0x07
YMTBAPVULM 0
root@arm:~# echo 'SXBS''MGBKSU'
SXBSMGBKSU
root@arm:~# MARKER='NZHP''LFHMUU' run 'echo 780000 780000 > /sys/kernel/mva_test//regulators/buck3_set'
NZHPLFHMUUNZHPLFHMUU 0
root@arm:~# echo 'PTCQ''OEUMHZ'
PTCQOEUMHZ
root@arm:~# MARKER='BOEM''LUNLAP' run 'i2cget -y -f 2 0x4b 0x12'
BOEMLUNLAP0x08
BOEMLUNLAP 0
root@arm:~# echo 'BOAW''QEQTMG'
BOAWQEQTMG
root@arm:~# MARKER='JLUP''QMSGTO' run 'echo 790000 790000 > /sys/kernel/mva_test//regulators/buck3_set'
JLUPQMSGTOJLUPQMSGTO 0
root@arm:~# echo 'YXNE''FKMVKA'
YXNEFKMVKA
root@arm:~# MARKER='FZSM''VCMJAX' run 'i2cget -y -f 2 0x4b 0x12'
FZSMVCMJAX0x09
FZSMVCMJAX 0
root@arm:~# echo 'TZBP''NMNLGS'
TZBPNMNLGS
root@arm:~# MARKER='XFBZ''PYFZEZ' run 'echo 800000 800000 > /sys/kernel/mva_test//regulators/buck3_set'
XFBZPYFZEZXFBZPYFZEZ 0
root@arm:~# echo 'BLHL''KUOBVW'
BLHLKUOBVW
root@arm:~# MARKER='OMSA''FUKKKH' run 'i2cget -y -f 2 0x4b 0x12'
OMSAFUKKKH0x0a
OMSAFUKKKH 0
root@arm:~# echo 'GNSO''BCWSHL'
GNSOBCWSHL
root@arm:~# MARKER='AKZV''ZQTWHQ' run 'echo 810000 810000 > /sys/kernel/mva_test//regulators/buck3_set'
AKZVZQTWHQAKZVZQTWHQ 0
root@arm:~# echo 'UFKJ''UFZLYW'
UFKJUFZLYW
root@arm:~# MARKER='CAVG''AJECPA' run 'i2cget -y -f 2 0x4b 0x12'
CAVGAJECPA0x0b
CAVGAJECPA 0
root@arm:~# echo 'MOWE''WWSTVT'
MOWEWWSTVT
root@arm:~# MARKER='ZAJP''JELCJK' run 'echo 820000 820000 > /sys/kernel/mva_test//regulators/buck3_set'
ZAJPJELCJKZAJPJELCJK 0
root@arm:~# echo 'YQUA''KKCYBW'
YQUAKKCYBW
root@arm:~# MARKER='QOLT''SACHMJ' run 'i2cget -y -f 2 0x4b 0x12'
QOLTSACHMJ0x0c
QOLTSACHMJ 0
root@arm:~# echo 'FSSX''KXGZKK'
FSSXKXGZKK
root@arm:~# MARKER='BFPO''TTAZSV' run 'echo 830000 830000 > /sys/kernel/mva_test//regulators/buck3_set'
BFPOTTAZSVBFPOTTAZSV 0
root@arm:~# echo 'XAZP''FXTJWJ'
XAZPFXTJWJ
root@arm:~# MARKER='WOGS''OUPZKB' run 'i2cget -y -f 2 0x4b 0x12'
WOGSOUPZKB0x0d
WOGSOUPZKB 0
root@arm:~# echo 'QNXM''FBKQJM'
QNXMFBKQJM
root@arm:~# MARKER='QUUM''NMKJUT' run 'echo 840000 840000 > /sys/kernel/mva_test//regulators/buck3_set'
QUUMNMKJUTQUUMNMKJUT 0
root@arm:~# echo 'CUNT''JQPHJV'
CUNTJQPHJV
root@arm:~# MARKER='GSWL''QJLASM' run 'i2cget -y -f 2 0x4b 0x12'
GSWLQJLASM0x0e
GSWLQJLASM 0
root@arm:~# echo 'YNHO''CCBYBE'
YNHOCCBYBE
root@arm:~# MARKER='ZWMG''CAUYHK' run 'echo 850000 850000 > /sys/kernel/mva_test//regulators/buck3_set'
ZWMGCAUYHKZWMGCAUYHK 0
root@arm:~# echo 'AFEL''QUTFSC'
AFELQUTFSC
root@arm:~# MARKER='XLLT''ACYCFJ' run 'i2cget -y -f 2 0x4b 0x12'
XLLTACYCFJ0x0f
XLLTACYCFJ 0
root@arm:~# echo 'ESOZ''OKSZAU'
ESOZOKSZAU
root@arm:~# MARKER='ZEKJ''LPVAXA' run 'echo 860000 860000 > /sys/kernel/mva_test//regulators/buck3_set'
ZEKJLPVAXAZEKJLPVAXA 0
root@arm:~# echo 'FVTY''AYENSV'
FVTYAYENSV
root@arm:~# MARKER='NOGV''EATGTB' run 'i2cget -y -f 2 0x4b 0x12'
NOGVEATGTB0x10
NOGVEATGTB 0
root@arm:~# echo 'LNST''TVZOVH'
LNSTTVZOVH
root@arm:~# MARKER='BWMZ''SOMBHN' run 'echo 870000 870000 > /sys/kernel/mva_test//regulators/buck3_set'
BWMZSOMBHNBWMZSOMBHN 0
root@arm:~# echo 'HOLB''YOPGKL'
HOLBYOPGKL
root@arm:~# MARKER='HOON''ZXQAZP' run 'i2cget -y -f 2 0x4b 0x12'
HOONZXQAZP0x11
HOONZXQAZP 0
root@arm:~# echo 'EFBA''XPEAZF'
EFBAXPEAZF
root@arm:~# MARKER='LPSJ''ZCVLBN' run 'echo 880000 880000 > /sys/kernel/mva_test//regulators/buck3_set'
LPSJZCVLBNLPSJZCVLBN 0
root@arm:~# echo 'FNNW''JSTNTP'
FNNWJSTNTP
root@arm:~# MARKER='MFWZ''VPUHFL' run 'i2cget -y -f 2 0x4b 0x12'
MFWZVPUHFL0x12
MFWZVPUHFL 0
root@arm:~# echo 'NCMX''FMPCTN'
NCMXFMPCTN
root@arm:~# MARKER='KYBB''SMTNJC' run 'echo 890000 890000 > /sys/kernel/mva_test//regulators/buck3_set'
KYBBSMTNJCKYBBSMTNJC 0
root@arm:~# echo 'ZYAQ''COTAAU'
ZYAQCOTAAU
root@arm:~# MARKER='ZYMN''XOVBQS' run 'i2cget -y -f 2 0x4b 0x12'
ZYMNXOVBQS0x13
ZYMNXOVBQS 0
root@arm:~# echo 'YGSJ''BZMPOM'
YGSJBZMPOM
root@arm:~# MARKER='VBZZ''VZHTPH' run 'echo 900000 900000 > /sys/kernel/mva_test//regulators/buck3_set'
VBZZVZHTPHVBZZVZHTPH 0
root@arm:~# echo 'KOAV''UCKHSJ'
KOAVUCKHSJ
root@arm:~# MARKER='CAUX''AWMGVS' run 'i2cget -y -f 2 0x4b 0x12'
CAUXAWMGVS0x14
CAUXAWMGVS 0
root@arm:~# echo 'EOSE''JAKQMC'
EOSEJAKQMC
root@arm:~# MARKER='PYYP''JMHSNS' run 'echo 910000 910000 > /sys/kernel/mva_test//regulators/buck3_set'
PYYPJMHSNSPYYPJMHSNS 0
root@arm:~# echo 'FQYN''MCGCPQ'
FQYNMCGCPQ
root@arm:~# MARKER='LGJL''ZUNEJJ' run 'i2cget -y -f 2 0x4b 0x12'
LGJLZUNEJJ0x15
LGJLZUNEJJ 0
root@arm:~# echo 'GFMG''AEHUVA'
GFMGAEHUVA
root@arm:~# MARKER='FSLZ''HMJTMB' run 'echo 920000 920000 > /sys/kernel/mva_test//regulators/buck3_set'
FSLZHMJTMBFSLZHMJTMB 0
root@arm:~# echo 'PAMO''PFXSXW'
PAMOPFXSXW
root@arm:~# MARKER='BSSP''AKYQYY' run 'i2cget -y -f 2 0x4b 0x12'
BSSPAKYQYY0x16
BSSPAKYQYY 0
root@arm:~# echo 'PAFS''AFJALG'
PAFSAFJALG
root@arm:~# MARKER='UVUU''WACAJS' run 'echo 930000 930000 > /sys/kernel/mva_test//regulators/buck3_set'
UVUUWACAJSUVUUWACAJS 0
root@arm:~# echo 'HGWO''KVAWXV'
HGWOKVAWXV
root@arm:~# MARKER='GSAW''ECCMAF' run 'i2cget -y -f 2 0x4b 0x12'
GSAWECCMAF0x17
GSAWECCMAF 0
root@arm:~# echo 'GQFJ''AFJTJA'
GQFJAFJTJA
root@arm:~# MARKER='ZETF''CPWMHB' run 'echo 940000 940000 > /sys/kernel/mva_test//regulators/buck3_set'
ZETFCPWMHBZETFCPWMHB 0
root@arm:~# echo 'YABY''KYEGQF'
YABYKYEGQF
root@arm:~# MARKER='YUNN''QFCKJM' run 'i2cget -y -f 2 0x4b 0x12'
YUNNQFCKJM0x18
YUNNQFCKJM 0
root@arm:~# echo 'AHGA''WAACTF'
AHGAWAACTF
root@arm:~# MARKER='SZMC''QSTNYQ' run 'echo 950000 950000 > /sys/kernel/mva_test//regulators/buck3_set'
SZMCQSTNYQSZMCQSTNYQ 0
root@arm:~# echo 'KSYX''ZVPFHB'
KSYXZVPFHB
root@arm:~# MARKER='VVUK''BKLCMW' run 'i2cget -y -f 2 0x4b 0x12'
VVUKBKLCMW0x19
VVUKBKLCMW 0
root@arm:~# echo 'ZMUT''JSAPUG'
ZMUTJSAPUG
root@arm:~# MARKER='TTAO''TTJHKB' run 'echo 960000 960000 > /sys/kernel/mva_test//regulators/buck3_set'
TTAOTTJHKBTTAOTTJHKB 0
root@arm:~# echo 'ZQHO''XJHNHY'
ZQHOXJHNHY
root@arm:~# MARKER='TCHA''NCLBFW' run 'i2cget -y -f 2 0x4b 0x12'
TCHANCLBFW0x1a
TCHANCLBFW 0
root@arm:~# echo 'FCGN''QETWGM'
FCGNQETWGM
root@arm:~# MARKER='CYGV''BEQPBH' run 'echo 970000 970000 > /sys/kernel/mva_test//regulators/buck3_set'
CYGVBEQPBHCYGVBEQPBH 0
root@arm:~# echo 'CUTO''PLWTOW'
CUTOPLWTOW
root@arm:~# MARKER='HPEJ''ESGEUP' run 'i2cget -y -f 2 0x4b 0x12'
HPEJESGEUP0x1b
HPEJESGEUP 0
root@arm:~# echo 'ZKYU''YKVFKX'
ZKYUYKVFKX
root@arm:~# MARKER='OKYQ''XYJCCV' run 'echo 980000 980000 > /sys/kernel/mva_test//regulators/buck3_set'
OKYQXYJCCVOKYQXYJCCV 0
root@arm:~# echo 'CPVQ''AOQYAJ'
CPVQAOQYAJ
root@arm:~# MARKER='VFQM''SPWWVQ' run 'i2cget -y -f 2 0x4b 0x12'
VFQMSPWWVQ0x1c
VFQMSPWWVQ 0
root@arm:~# echo 'UYTJ''MHEOMG'
UYTJMHEOMG
root@arm:~# MARKER='VCBP''TMHSXO' run 'echo 990000 990000 > /sys/kernel/mva_test//regulators/buck3_set'
VCBPTMHSXOVCBPTMHSXO 0
root@arm:~# echo 'ACTB''UPKETC'
ACTBUPKETC
root@arm:~# MARKER='CSHT''JTBUYK' run 'i2cget -y -f 2 0x4b 0x12'
CSHTJTBUYK0x1d
CSHTJTBUYK 0
root@arm:~# echo 'AXWA''ONULXJ'
AXWAONULXJ
root@arm:~# MARKER='LLZO''SYACWG' run 'echo 1000000 1000000 > /sys/kernel/mva_tesst/regulators/buck3_set'
LLZOSYACWGLLZOSYACWG 0
root@arm:~# echo 'MPSM''SXQUBU'
MPSMSXQUBU
root@arm:~# MARKER='LWVC''LKEJZH' run 'i2cget -y -f 2 0x4b 0x12'
LWVCLKEJZH0x1e
LWVCLKEJZH 0
root@arm:~# echo 'XNQF''LFXWVB'
XNQFLFXWVB
root@arm:~# MARKER='PVMP''LXOQJP' run 'echo 1010000 1010000 > /sys/kernel/mva_tesst/regulators/buck3_set'
PVMPLXOQJPPVMPLXOQJP 0
root@arm:~# echo 'OOHA''OPAOQW'
OOHAOPAOQW
root@arm:~# MARKER='SUYX''XTEKVP' run 'i2cget -y -f 2 0x4b 0x12'
SUYXXTEKVP0x1f
SUYXXTEKVP 0
root@arm:~# echo 'CMLA''NTXHHM'
CMLANTXHHM
root@arm:~# MARKER='MLSJ''AGUBLY' run 'echo 1020000 1020000 > /sys/kernel/mva_tesst/regulators/buck3_set'
MLSJAGUBLYMLSJAGUBLY 0
root@arm:~# echo 'GTYV''NEOCXO'
GTYVNEOCXO
root@arm:~# MARKER='BEMM''OOVTSM' run 'i2cget -y -f 2 0x4b 0x12'
BEMMOOVTSM0x20
BEMMOOVTSM 0
root@arm:~# echo 'JBGN''TVTUJB'
JBGNTVTUJB
root@arm:~# MARKER='UWJA''BCBYNV' run 'echo 1030000 1030000 > /sys/kernel/mva_tesst/regulators/buck3_set'
UWJABCBYNVUWJABCBYNV 0
root@arm:~# echo 'UXJF''NNCNZU'
UXJFNNCNZU
root@arm:~# MARKER='WZEL''LPJYJJ' run 'i2cget -y -f 2 0x4b 0x12'
WZELLPJYJJ0x21
WZELLPJYJJ 0
root@arm:~# echo 'MSZV''SMQLGL'
MSZVSMQLGL
root@arm:~# MARKER='JSEP''SUWCHF' run 'echo 1040000 1040000 > /sys/kernel/mva_tesst/regulators/buck3_set'
JSEPSUWCHFJSEPSUWCHF 0
root@arm:~# echo 'BFHG''PGJQVQ'
BFHGPGJQVQ
root@arm:~# MARKER='PSQB''ALMEWL' run 'i2cget -y -f 2 0x4b 0x12'
PSQBALMEWL0x22
PSQBALMEWL 0
root@arm:~# echo 'ECAS''XNKPPL'
ECASXNKPPL
root@arm:~# MARKER='MMYK''ZKWNWT' run 'echo 1050000 1050000 > /sys/kernel/mva_tesst/regulators/buck3_set'
MMYKZKWNWTMMYKZKWNWT 0
root@arm:~# echo 'OGNJ''QFPVNZ'
OGNJQFPVNZ
root@arm:~# MARKER='MZNK''ZTMTVY' run 'i2cget -y -f 2 0x4b 0x12'
MZNKZTMTVY0x23
MZNKZTMTVY 0
root@arm:~# echo 'MFGY''BTSLBX'
MFGYBTSLBX
root@arm:~# MARKER='TMCU''CWVKJA' run 'echo 1060000 1060000 > /sys/kernel/mva_tesst/regulators/buck3_set'
TMCUCWVKJATMCUCWVKJA 0
root@arm:~# echo 'LQNA''VWXGAE'
LQNAVWXGAE
root@arm:~# MARKER='CTHW''XLNATZ' run 'i2cget -y -f 2 0x4b 0x12'
CTHWXLNATZ0x24
CTHWXLNATZ 0
root@arm:~# echo 'ZFYW''GLAYNA'
ZFYWGLAYNA
root@arm:~# MARKER='VOBU''TCFCGY' run 'echo 1070000 1070000 > /sys/kernel/mva_tesst/regulators/buck3_set'
VOBUTCFCGYVOBUTCFCGY 0
root@arm:~# echo 'GZSZ''TNXKVL'
GZSZTNXKVL
root@arm:~# MARKER='TSAE''LGOFMW' run 'i2cget -y -f 2 0x4b 0x12'
TSAELGOFMW0x25
TSAELGOFMW 0
root@arm:~# echo 'PPST''NLQQMP'
PPSTNLQQMP
root@arm:~# MARKER='SEAB''WCZAQV' run 'echo 1080000 1080000 > /sys/kernel/mva_tesst/regulators/buck3_set'
SEABWCZAQVSEABWCZAQV 0
root@arm:~# echo 'CGUM''EZPTSP'
CGUMEZPTSP
root@arm:~# MARKER='BXOS''UKCVNG' run 'i2cget -y -f 2 0x4b 0x12'
BXOSUKCVNG0x26
BXOSUKCVNG 0
root@arm:~# echo 'VQLL''UGWWCE'
VQLLUGWWCE
root@arm:~# MARKER='MOHB''SLVQKF' run 'echo 1090000 1090000 > /sys/kernel/mva_tesst/regulators/buck3_set'
MOHBSLVQKFMOHBSLVQKF 0
root@arm:~# echo 'ZEFL''KCJFXH'
ZEFLKCJFXH
root@arm:~# MARKER='WABL''WYLSSP' run 'i2cget -y -f 2 0x4b 0x12'
WABLWYLSSP0x27
WABLWYLSSP 0
root@arm:~# echo 'NAHM''JUXLHL'
NAHMJUXLHL
root@arm:~# MARKER='KCQW''HYCLPZ' run 'echo 1100000 1100000 > /sys/kernel/mva_tesst/regulators/buck3_set'
KCQWHYCLPZKCQWHYCLPZ 0
root@arm:~# echo 'UZOW''SUFAOX'
UZOWSUFAOX
root@arm:~# MARKER='EGTE''MSEVME' run 'i2cget -y -f 2 0x4b 0x12'
EGTEMSEVME0x28
EGTEMSEVME 0
root@arm:~# echo 'QAUT''MALYBP'
QAUTMALYBP
root@arm:~# MARKER='FNBH''LPMSTE' run 'echo 1110000 1110000 > /sys/kernel/mva_tesst/regulators/buck3_set'
FNBHLPMSTEFNBHLPMSTE 0
root@arm:~# echo 'QVQW''UGEZNS'
QVQWUGEZNS
root@arm:~# MARKER='CXBQ''UQJJGT' run 'i2cget -y -f 2 0x4b 0x12'
CXBQUQJJGT0x29
CXBQUQJJGT 0
root@arm:~# echo 'AJFX''GEVYEU'
AJFXGEVYEU
root@arm:~# MARKER='VJBZ''FCXCUH' run 'echo 1120000 1120000 > /sys/kernel/mva_tesst/regulators/buck3_set'
VJBZFCXCUHVJBZFCXCUH 0
root@arm:~# echo 'NZQO''YSWLFO'
NZQOYSWLFO
root@arm:~# MARKER='SKJA''OUSAHF' run 'i2cget -y -f 2 0x4b 0x12'
SKJAOUSAHF0x2a
SKJAOUSAHF 0
root@arm:~# echo 'CVBN''FSMZJU'
CVBNFSMZJU
root@arm:~# MARKER='KOMF''LAXSBJ' run 'echo 1130000 1130000 > /sys/kernel/mva_tesst/regulators/buck3_set'
KOMFLAXSBJKOMFLAXSBJ 0
root@arm:~# echo 'TEQL''QEJONS'
TEQLQEJONS
root@arm:~# MARKER='NGSC''AJYLXH' run 'i2cget -y -f 2 0x4b 0x12'
NGSCAJYLXH0x2b
NGSCAJYLXH 0
root@arm:~# echo 'LSNP''ASHBCE'
LSNPASHBCE
root@arm:~# MARKER='NTKC''NGWPKL' run 'echo 1140000 1140000 > /sys/kernel/mva_tesst/regulators/buck3_set'
NTKCNGWPKLNTKCNGWPKL 0
root@arm:~# echo 'MHYF''TMPCNV'
MHYFTMPCNV
root@arm:~# MARKER='YOZH''AGCCYX' run 'i2cget -y -f 2 0x4b 0x12'
YOZHAGCCYX0x2c
YOZHAGCCYX 0
root@arm:~# echo 'VSOM''LHBLCF'
VSOMLHBLCF
root@arm:~# MARKER='BKVU''HSCWMC' run 'echo 1150000 1150000 > /sys/kernel/mva_tesst/regulators/buck3_set'
BKVUHSCWMCBKVUHSCWMC 0
root@arm:~# echo 'PYGJ''WBEYKU'
PYGJWBEYKU
root@arm:~# MARKER='YGCJ''JCMTSB' run 'i2cget -y -f 2 0x4b 0x12'
YGCJJCMTSB0x2d
YGCJJCMTSB 0
root@arm:~# echo 'QKEJ''MCLXYJ'
QKEJMCLXYJ
root@arm:~# MARKER='CPLZ''XNCCGL' run 'echo 1160000 1160000 > /sys/kernel/mva_tesst/regulators/buck3_set'
CPLZXNCCGLCPLZXNCCGL 0
root@arm:~# echo 'QBMO''ONMMPZ'
QBMOONMMPZ
root@arm:~# MARKER='AWEW''COBSNB' run 'i2cget -y -f 2 0x4b 0x12'
AWEWCOBSNB0x2e
AWEWCOBSNB 0
root@arm:~# echo 'HFGF''WZBGVJ'
HFGFWZBGVJ
root@arm:~# MARKER='TGBY''YOAYGJ' run 'echo 1170000 1170000 > /sys/kernel/mva_tesst/regulators/buck3_set'
TGBYYOAYGJTGBYYOAYGJ 0
root@arm:~# echo 'MMSE''QVQJWL'
MMSEQVQJWL
root@arm:~# MARKER='THLJ''PKOKGL' run 'i2cget -y -f 2 0x4b 0x12'
THLJPKOKGL0x2f
THLJPKOKGL 0
root@arm:~# echo 'KPQU''LYVKVV'
KPQULYVKVV
root@arm:~# MARKER='PGQL''MBATJY' run 'echo 1180000 1180000 > /sys/kernel/mva_tesst/regulators/buck3_set'
PGQLMBATJYPGQLMBATJY 0
root@arm:~# echo 'YLQJ''CUZQVW'
YLQJCUZQVW
root@arm:~# MARKER='YZEM''SFSAHL' run 'i2cget -y -f 2 0x4b 0x12'
YZEMSFSAHL0x30
YZEMSFSAHL 0
root@arm:~# echo 'WCCG''EQKQGE'
WCCGEQKQGE
root@arm:~# MARKER='XWQM''VLSYYG' run 'echo 1190000 1190000 > /sys/kernel/mva_tesst/regulators/buck3_set'
XWQMVLSYYGXWQMVLSYYG 0
root@arm:~# echo 'QLOB''MYVOOE'
QLOBMYVOOE
root@arm:~# MARKER='TNJV''OYQTEE' run 'i2cget -y -f 2 0x4b 0x12'
TNJVOYQTEE0x31
TNJVOYQTEE 0
root@arm:~# echo 'XLYN''GOLAYE'
XLYNGOLAYE
root@arm:~# MARKER='EJJJ''QBSWNL' run 'echo 1200000 1200000 > /sys/kernel/mva_tesst/regulators/buck3_set'
EJJJQBSWNLEJJJQBSWNL 0
root@arm:~# echo 'UZWW''KNTTWN'
UZWWKNTTWN
root@arm:~# MARKER='YTFQ''YTKNMU' run 'i2cget -y -f 2 0x4b 0x12'
YTFQYTKNMU0x32
YTFQYTKNMU 0
root@arm:~# echo 'TXHS''JPFTUH'
TXHSJPFTUH
root@arm:~# MARKER='WFHA''MFZSCA' run 'echo 1210000 1210000 > /sys/kernel/mva_tesst/regulators/buck3_set'
WFHAMFZSCAWFHAMFZSCA 0
root@arm:~# echo 'PWCV''ACUPJU'
PWCVACUPJU
root@arm:~# MARKER='MNVT''XLJSGO' run 'i2cget -y -f 2 0x4b 0x12'
MNVTXLJSGO0x33
MNVTXLJSGO 0
root@arm:~# echo 'TGNW''FPSHTA'
TGNWFPSHTA
root@arm:~# MARKER='KCZK''MSYCUA' run 'echo 1220000 1220000 > /sys/kernel/mva_tesst/regulators/buck3_set'
KCZKMSYCUAKCZKMSYCUA 0
root@arm:~# echo 'ELQJ''VEAWXU'
ELQJVEAWXU
root@arm:~# MARKER='LMFT''YZTOSX' run 'i2cget -y -f 2 0x4b 0x12'
LMFTYZTOSX0x34
LMFTYZTOSX 0
root@arm:~# echo 'BQGS''BQBJJB'
BQGSBQBJJB
root@arm:~# MARKER='EMAX''FUWEOF' run 'echo 1230000 1230000 > /sys/kernel/mva_tesst/regulators/buck3_set'
EMAXFUWEOFEMAXFUWEOF 0
root@arm:~# echo 'LWEC''GYVMYG'
LWECGYVMYG
root@arm:~# MARKER='SEOA''KXCQSF' run 'i2cget -y -f 2 0x4b 0x12'
SEOAKXCQSF0x35
SEOAKXCQSF 0
root@arm:~# echo 'WZSJ''UBFAWG'
WZSJUBFAWG
root@arm:~# MARKER='MNES''GHEAWP' run 'echo 1240000 1240000 > /sys/kernel/mva_tesst/regulators/buck3_set'
MNESGHEAWPMNESGHEAWP 0
root@arm:~# echo 'SZOS''SFEHUT'
SZOSSFEHUT
root@arm:~# MARKER='GUNE''LAUNKT' run 'i2cget -y -f 2 0x4b 0x12'
GUNELAUNKT0x36
GUNELAUNKT 0
root@arm:~# echo 'ENPS''VOOCUL'
ENPSVOOCUL
root@arm:~# MARKER='VHGK''PPVBKX' run 'echo 1250000 1250000 > /sys/kernel/mva_tesst/regulators/buck3_set'
VHGKPPVBKXVHGKPPVBKX 0
root@arm:~# echo 'LSAQ''FUPOJN'
LSAQFUPOJN
root@arm:~# MARKER='LONP''TNPEJO' run 'i2cget -y -f 2 0x4b 0x12'
LONPTNPEJO0x37
LONPTNPEJO 0
root@arm:~# echo 'JEMP''LZEAVU'
JEMPLZEAVU
root@arm:~# MARKER='YPUY''QEZMXB' run 'echo 1260000 1260000 > /sys/kernel/mva_tesst/regulators/buck3_set'
YPUYQEZMXBYPUYQEZMXB 0
root@arm:~# echo 'BPCA''NXMNYT'
BPCANXMNYT
root@arm:~# MARKER='VFFE''ZWFVUN' run 'i2cget -y -f 2 0x4b 0x12'
VFFEZWFVUN0x38
VFFEZWFVUN 0
root@arm:~# echo 'KTSQ''ZPVBAT'
KTSQZPVBAT
root@arm:~# MARKER='UYOE''SOGMOM' run 'echo 1270000 1270000 > /sys/kernel/mva_tesst/regulators/buck3_set'
UYOESOGMOMUYOESOGMOM 0
root@arm:~# echo 'TKCH''EVTPHT'
TKCHEVTPHT
root@arm:~# MARKER='YAZZ''YNKQUV' run 'i2cget -y -f 2 0x4b 0x12'
YAZZYNKQUV0x39
YAZZYNKQUV 0
root@arm:~# echo 'JFET''UHPPVU'
JFETUHPPVU
root@arm:~# MARKER='WEAU''YCENWQ' run 'echo 1280000 1280000 > /sys/kernel/mva_tesst/regulators/buck3_set'
WEAUYCENWQWEAUYCENWQ 0
root@arm:~# echo 'QUXC''MGEAQH'
QUXCMGEAQH
root@arm:~# MARKER='OLQX''JGXWPA' run 'i2cget -y -f 2 0x4b 0x12'
OLQXJGXWPA0x3a
OLQXJGXWPA 0
root@arm:~# echo 'EAVO''GFJMEZ'
EAVOGFJMEZ
root@arm:~# MARKER='WQYZ''NGSZLG' run 'echo 1290000 1290000 > /sys/kernel/mva_tesst/regulators/buck3_set'
WQYZNGSZLGWQYZNGSZLG 0
root@arm:~# echo 'YMHT''WZTVNY'
YMHTWZTVNY
root@arm:~# MARKER='HQYW''FEOBHS' run 'i2cget -y -f 2 0x4b 0x12'
HQYWFEOBHS0x3b
HQYWFEOBHS 0
root@arm:~# echo 'TFMM''XBOSKL'
TFMMXBOSKL
root@arm:~# MARKER='PBCK''QKUTCJ' run 'echo 1300000 1300000 > /sys/kernel/mva_tesst/regulators/buck3_set'
PBCKQKUTCJPBCKQKUTCJ 0
root@arm:~# echo 'SPFN''OUFWLO'
SPFNOUFWLO
root@arm:~# MARKER='SBTP''FFYVPK' run 'i2cget -y -f 2 0x4b 0x12'
SBTPFFYVPK0x3c
SBTPFFYVPK 0
root@arm:~# echo 'ZXJH''YUCFNC'
ZXJHYUCFNC
root@arm:~# MARKER='HPMW''SBOPMW' run 'grep -r -l rohm,bd71837 /proc/device-tree  | sed '"'"'s![^/]*$!!'"'"''
HPMWSBOPMW/proc/device-tree/ocp/interconnect@48000000/segment@100000/target-module@9c000/i2c@0/pmic@4b/
HPMWSBOPMW 0
root@arm:~# echo 'BHCS''YSPGVM'
BHCSYSPGVM
root@arm:~# MARKER='ZOVX''GQKWLM' run 'test -f /proc/device-tree/ocp/interconnectt\@48000000/segment\@100000/target-module\@9c000/i2c\@0/pmic\@4b/regulators/BUCK44/rohm,no-regulator-enable-control ;echo $?'
ZOVXGQKWLM1
ZOVXGQKWLM 0
root@arm:~# echo 'ATWZ''FFLOWA'
ATWZFFLOWA
root@arm:~# MARKER='KVWV''VQFUZW' run 'i2cget -y -f 2 0x4b 0x8'
KVWVVQFUZW0xc6
KVWVVQFUZW 0
root@arm:~# echo 'KNYE''HGWYOS'
KNYEHGWYOS
root@arm:~# MARKER='VHZN''XOLCBJ' run 'echo 700000 700000 > /sys/kernel/mva_test//regulators/buck4_set'
VHZNXOLCBJVHZNXOLCBJ 0
root@arm:~# echo 'ZNEN''NXLFHL'
ZNENNXLFHL
root@arm:~# MARKER='KWFO''ZSSTCG' run 'i2cget -y -f 2 0x4b 0x13'
KWFOZSSTCG0x00
KWFOZSSTCG 0
root@arm:~# echo 'WASN''HHKFFZ'
WASNHHKFFZ
root@arm:~# MARKER='HNMP''SOFVOW' run 'echo 710000 710000 > /sys/kernel/mva_test//regulators/buck4_set'
HNMPSOFVOWHNMPSOFVOW 0
root@arm:~# echo 'OHYC''EUPHBW'
OHYCEUPHBW
root@arm:~# MARKER='QNEA''FWOKKL' run 'i2cget -y -f 2 0x4b 0x13'
QNEAFWOKKL0x01
QNEAFWOKKL 0
root@arm:~# echo 'GAPM''WZGMWQ'
GAPMWZGMWQ
root@arm:~# MARKER='TAVH''QQSBTX' run 'echo 720000 720000 > /sys/kernel/mva_test//regulators/buck4_set'
TAVHQQSBTXTAVHQQSBTX 0
root@arm:~# echo 'MEKQ''OVCQQG'
MEKQOVCQQG
root@arm:~# MARKER='CHOW''KGVLNB' run 'i2cget -y -f 2 0x4b 0x13'
CHOWKGVLNB0x02
CHOWKGVLNB 0
root@arm:~# echo 'MTEV''BSBJHC'
MTEVBSBJHC
root@arm:~# MARKER='OOEE''QMETCX' run 'echo 730000 730000 > /sys/kernel/mva_test//regulators/buck4_set'
OOEEQMETCXOOEEQMETCX 0
root@arm:~# echo 'OSPQ''AJYOFQ'
OSPQAJYOFQ
root@arm:~# MARKER='CXGK''BSZXGG' run 'i2cget -y -f 2 0x4b 0x13'
CXGKBSZXGG0x03
CXGKBSZXGG 0
root@arm:~# echo 'KTKB''PMKVOZ'
KTKBPMKVOZ
root@arm:~# MARKER='VGVB''BNEKAM' run 'echo 740000 740000 > /sys/kernel/mva_test//regulators/buck4_set'
VGVBBNEKAMVGVBBNEKAM 0
root@arm:~# echo 'KOPC''SQJOBP'
KOPCSQJOBP
root@arm:~# MARKER='XJZW''FLYXEO' run 'i2cget -y -f 2 0x4b 0x13'
XJZWFLYXEO0x04
XJZWFLYXEO 0
root@arm:~# echo 'XHKY''CBMNTE'
XHKYCBMNTE
root@arm:~# MARKER='COGX''JABXOE' run 'echo 750000 750000 > /sys/kernel/mva_test//regulators/buck4_set'
COGXJABXOECOGXJABXOE 0
root@arm:~# echo 'SQLU''UJJJVU'
SQLUUJJJVU
root@arm:~# MARKER='NEXZ''GLCXHY' run 'i2cget -y -f 2 0x4b 0x13'
NEXZGLCXHY0x05
NEXZGLCXHY 0
root@arm:~# echo 'ZFOV''ZCFHMT'
ZFOVZCFHMT
root@arm:~# MARKER='HMGM''EMZHWK' run 'echo 760000 760000 > /sys/kernel/mva_test//regulators/buck4_set'
HMGMEMZHWKHMGMEMZHWK 0
root@arm:~# echo 'MWBO''BGEGJQ'
MWBOBGEGJQ
root@arm:~# MARKER='GCTU''UWFBNV' run 'i2cget -y -f 2 0x4b 0x13'
GCTUUWFBNV0x06
GCTUUWFBNV 0
root@arm:~# echo 'MGCC''HGYWYZ'
MGCCHGYWYZ
root@arm:~# MARKER='BJNV''GLEPMO' run 'echo 770000 770000 > /sys/kernel/mva_test//regulators/buck4_set'
BJNVGLEPMOBJNVGLEPMO 0
root@arm:~# echo 'MWUW''LGQFLZ'
MWUWLGQFLZ
root@arm:~# MARKER='TQNP''XFFMOO' run 'i2cget -y -f 2 0x4b 0x13'
TQNPXFFMOO0x07
TQNPXFFMOO 0
root@arm:~# echo 'XSCY''QKPJYC'
XSCYQKPJYC
root@arm:~# MARKER='SXHW''LZJYOE' run 'echo 780000 780000 > /sys/kernel/mva_test//regulators/buck4_set'
SXHWLZJYOESXHWLZJYOE 0
root@arm:~# echo 'JPGW''WKJKPF'
JPGWWKJKPF
root@arm:~# MARKER='SHON''EJNUPM' run 'i2cget -y -f 2 0x4b 0x13'
SHONEJNUPM0x08
SHONEJNUPM 0
root@arm:~# echo 'GMVB''CJNUYL'
GMVBCJNUYL
root@arm:~# MARKER='TPGZ''LKPWQE' run 'echo 790000 790000 > /sys/kernel/mva_test//regulators/buck4_set'
TPGZLKPWQETPGZLKPWQE 0
root@arm:~# echo 'NAKM''QXUYVM'
NAKMQXUYVM
root@arm:~# MARKER='GUBK''KVQMVO' run 'i2cget -y -f 2 0x4b 0x13'
GUBKKVQMVO0x09
GUBKKVQMVO 0
root@arm:~# echo 'HHPP''VWLATT'
HHPPVWLATT
root@arm:~# MARKER='TFQA''UEMGTL' run 'echo 800000 800000 > /sys/kernel/mva_test//regulators/buck4_set'
TFQAUEMGTLTFQAUEMGTL 0
root@arm:~# echo 'AAMO''MBCSFF'
AAMOMBCSFF
root@arm:~# MARKER='XEGV''CLXOEP' run 'i2cget -y -f 2 0x4b 0x13'
XEGVCLXOEP0x0a
XEGVCLXOEP 0
root@arm:~# echo 'HLHX''MSJJWZ'
HLHXMSJJWZ
root@arm:~# MARKER='KFGN''KBMAAH' run 'echo 810000 810000 > /sys/kernel/mva_test//regulators/buck4_set'
KFGNKBMAAHKFGNKBMAAH 0
root@arm:~# echo 'WFCB''OKUECA'
WFCBOKUECA
root@arm:~# MARKER='ANBE''BFGEFB' run 'i2cget -y -f 2 0x4b 0x13'
ANBEBFGEFB0x0b
ANBEBFGEFB 0
root@arm:~# echo 'PEMY''LPHSMT'
PEMYLPHSMT
root@arm:~# MARKER='NLSW''ZKVSZJ' run 'echo 820000 820000 > /sys/kernel/mva_test//regulators/buck4_set'
NLSWZKVSZJNLSWZKVSZJ 0
root@arm:~# echo 'CNPF''CTHVZT'
CNPFCTHVZT
root@arm:~# MARKER='MFLV''QQOXOG' run 'i2cget -y -f 2 0x4b 0x13'
MFLVQQOXOG0x0c
MFLVQQOXOG 0
root@arm:~# echo 'CAVB''MNSCBF'
CAVBMNSCBF
root@arm:~# MARKER='AQJS''EYNKYL' run 'echo 830000 830000 > /sys/kernel/mva_test//regulators/buck4_set'
AQJSEYNKYLAQJSEYNKYL 0
root@arm:~# echo 'WYUA''MVCAYK'
WYUAMVCAYK
root@arm:~# MARKER='KGGA''QQJCFN' run 'i2cget -y -f 2 0x4b 0x13'
KGGAQQJCFN0x0d
KGGAQQJCFN 0
root@arm:~# echo 'BTUJ''FHTNKK'
BTUJFHTNKK
root@arm:~# MARKER='LJFE''LLSABO' run 'echo 840000 840000 > /sys/kernel/mva_test//regulators/buck4_set'
LJFELLSABOLJFELLSABO 0
root@arm:~# echo 'MCJZ''SFWHKQ'
MCJZSFWHKQ
root@arm:~# MARKER='GJLM''TWCMTX' run 'i2cget -y -f 2 0x4b 0x13'
GJLMTWCMTX0x0e
GJLMTWCMTX 0
root@arm:~# echo 'JNGX''QEAWFV'
JNGXQEAWFV
root@arm:~# MARKER='BYYS''ZGCTNB' run 'echo 850000 850000 > /sys/kernel/mva_test//regulators/buck4_set'
BYYSZGCTNBBYYSZGCTNB 0
root@arm:~# echo 'ESJS''TTGSQB'
ESJSTTGSQB
root@arm:~# MARKER='AANG''WKBVUZ' run 'i2cget -y -f 2 0x4b 0x13'
AANGWKBVUZ0x0f
AANGWKBVUZ 0
root@arm:~# echo 'GBCX''EWYGWM'
GBCXEWYGWM
root@arm:~# MARKER='WPNF''BQGVNN' run 'echo 860000 860000 > /sys/kernel/mva_test//regulators/buck4_set'
WPNFBQGVNNWPNFBQGVNN 0
root@arm:~# echo 'QVSY''JUZKNH'
QVSYJUZKNH
root@arm:~# MARKER='ANHX''JJQENX' run 'i2cget -y -f 2 0x4b 0x13'
ANHXJJQENX0x10
ANHXJJQENX 0
root@arm:~# echo 'TQOC''WCSWUL'
TQOCWCSWUL
root@arm:~# MARKER='NVMK''XVJWZO' run 'echo 870000 870000 > /sys/kernel/mva_test//regulators/buck4_set'
NVMKXVJWZONVMKXVJWZO 0
root@arm:~# echo 'BLPF''YCBLSQ'
BLPFYCBLSQ
root@arm:~# MARKER='WTJE''LZKGEF' run 'i2cget -y -f 2 0x4b 0x13'
WTJELZKGEF0x11
WTJELZKGEF 0
root@arm:~# echo 'AQFZ''UKOYWZ'
AQFZUKOYWZ
root@arm:~# MARKER='MUVY''SLMQOS' run 'echo 880000 880000 > /sys/kernel/mva_test//regulators/buck4_set'
MUVYSLMQOSMUVYSLMQOS 0
root@arm:~# echo 'WBBT''NZAAWG'
WBBTNZAAWG
root@arm:~# MARKER='EEHC''VJELKZ' run 'i2cget -y -f 2 0x4b 0x13'
EEHCVJELKZ0x12
EEHCVJELKZ 0
root@arm:~# echo 'BHTX''LWKKOM'
BHTXLWKKOM
root@arm:~# MARKER='KOQF''ESVNGG' run 'echo 890000 890000 > /sys/kernel/mva_test//regulators/buck4_set'
KOQFESVNGGKOQFESVNGG 0
root@arm:~# echo 'ULUA''GPPSTP'
ULUAGPPSTP
root@arm:~# MARKER='LVPQ''CTEKXZ' run 'i2cget -y -f 2 0x4b 0x13'
LVPQCTEKXZ0x13
LVPQCTEKXZ 0
root@arm:~# echo 'KLEA''FZOJMY'
KLEAFZOJMY
root@arm:~# MARKER='GXLL''WNTQPC' run 'echo 900000 900000 > /sys/kernel/mva_test//regulators/buck4_set'
GXLLWNTQPCGXLLWNTQPC 0
root@arm:~# echo 'NEJB''LMFCFA'
NEJBLMFCFA
root@arm:~# MARKER='NUSQ''KELYZY' run 'i2cget -y -f 2 0x4b 0x13'
NUSQKELYZY0x14
NUSQKELYZY 0
root@arm:~# echo 'CFJJ''HGPJPX'
CFJJHGPJPX
root@arm:~# MARKER='QWJX''WNMHAT' run 'echo 910000 910000 > /sys/kernel/mva_test//regulators/buck4_set'
QWJXWNMHATQWJXWNMHAT 0
root@arm:~# echo 'LFFM''POZOHV'
LFFMPOZOHV
root@arm:~# MARKER='NCXO''NEFSYL' run 'i2cget -y -f 2 0x4b 0x13'
NCXONEFSYL0x15
NCXONEFSYL 0
root@arm:~# echo 'POMY''GXWKPU'
POMYGXWKPU
root@arm:~# MARKER='FMXK''UXKHCF' run 'echo 920000 920000 > /sys/kernel/mva_test//regulators/buck4_set'
FMXKUXKHCFFMXKUXKHCF 0
root@arm:~# echo 'NZYN''SXHMSM'
NZYNSXHMSM
root@arm:~# MARKER='OUEZ''MELGHB' run 'i2cget -y -f 2 0x4b 0x13'
OUEZMELGHB0x16
OUEZMELGHB 0
root@arm:~# echo 'WQHT''EXVBNA'
WQHTEXVBNA
root@arm:~# MARKER='ZVCO''CVNOHX' run 'echo 930000 930000 > /sys/kernel/mva_test//regulators/buck4_set'
ZVCOCVNOHXZVCOCVNOHX 0
root@arm:~# echo 'QBWQ''KTABFG'
QBWQKTABFG
root@arm:~# MARKER='TNVK''CVTMMN' run 'i2cget -y -f 2 0x4b 0x13'
TNVKCVTMMN0x17
TNVKCVTMMN 0
root@arm:~# echo 'XSFC''YWFPHG'
XSFCYWFPHG
