Labgrid Console Logfile for main
Logfile started at 2024-12-19 11:58:59.194514
=== Log starts here ===

root@arm:~# run() { echo -n "$MARKER"; sh -c "$@"; echo "$MARKER $?"; }
root@arm:~# echo 'AFQS''KVXFPQ'
AFQSKVXFPQ
root@arm:~# MARKER='EXEC''UNAHQS' run 'grep -r -l rohm,bd71847 /proc/device-tree  | sed '"'"'s![^/]*$!!'"'"''
EXECUNAHQS/proc/device-tree/ocp/interconnect@48000000/segment@0/target-module@2a000/i2c@0/pmic@4b/
EXECUNAHQS 0
root@arm:~# echo 'ZWWO''WXAWLL'
ZWWOWXAWLL
root@arm:~# MARKER='PVBK''JHGCTL' run 'test -f /proc/device-tree/ocp/interconnectt\@48000000/segment\@0/target-module\@2a000/i2c\@0/pmic\@4b/regulators/BUCK1/rohmm,no-regulator-enable-control ;echo $?'
PVBKJHGCTL1
PVBKJHGCTL 0
root@arm:~# echo 'JLEJ''OVXCXZ'
JLEJOVXCXZ
root@arm:~# MARKER='MYLQ''MMXTKJ' run 'echo 1 > /sys/kernel/mva_test/regulators/bbuck1_en'
MYLQMMXTKJMYLQMMXTKJ 0
root@arm:~# echo 'JNVG''HQMJOP'
JNVGHQMJOP
root@arm:~# MARKER='FZUG''JKXKSE' run 'i2cget -y -f 1 0x4b 0x5'
FZUGJKXKSE0x03
FZUGJKXKSE 0
root@arm:~# echo 'WPFV''XJWHZB'
WPFVXJWHZB
root@arm:~# MARKER='WJJQ''HJEENT' run 'grep -r -l rohm,bd71847 /proc/device-tree  | sed '"'"'s![^/]*$!!'"'"''
WJJQHJEENT/proc/device-tree/ocp/interconnect@48000000/segment@0/target-module@2a000/i2c@0/pmic@4b/
WJJQHJEENT 0
root@arm:~# echo 'CBVT''TUZNBB'
CBVTTUZNBB
root@arm:~# MARKER='QLTO''YSXMYS' run 'test -f /proc/device-tree/ocp/interconnectt\@48000000/segment\@0/target-module\@2a000/i2c\@0/pmic\@4b/regulators/BUCK1/rohmm,no-regulator-enable-control ;echo $?'
QLTOYSXMYS1
QLTOYSXMYS 0
root@arm:~# echo 'FBXS''TQUFGB'
FBXSTQUFGB
root@arm:~# MARKER='JFBE''FOAUGJ' run 'grep -r -l rohm,bd71847 /proc/device-tree  | sed '"'"'s![^/]*$!!'"'"''
JFBEFOAUGJ/proc/device-tree/ocp/interconnect@48000000/segment@0/target-module@2a000/i2c@0/pmic@4b/
JFBEFOAUGJ 0
root@arm:~# echo 'THPY''NKFFOJ'
THPYNKFFOJ
root@arm:~# MARKER='NUHB''CJLQFZ' run 'test -f /proc/device-tree/ocp/interconnectt\@48000000/segment\@0/target-module\@2a000/i2c\@0/pmic\@4b/regulators/BUCK1/reguulator-always-on ;echo $?'
NUHBCJLQFZ1
NUHBCJLQFZ 0
root@arm:~# echo 'VZYC''PMFJBZ'
VZYCPMFJBZ
root@arm:~# MARKER='YZOC''FKOBJF' run 'echo 0 > /sys/kernel/mva_test/regulators/bbuck1_en'
YZOCFKOBJFYZOCFKOBJF 0
root@arm:~# echo 'AZKF''HNVASC'
AZKFHNVASC
root@arm:~# MARKER='QCJX''SNJBCN' run 'i2cget -y -f 1 0x4b 0x5'
QCJXSNJBCN0x02
QCJXSNJBCN 0
root@arm:~# echo 'NPGB''KELGLF'
NPGBKELGLF
root@arm:~# MARKER='NGMU''VAMBXW' run 'grep -r -l rohm,bd71847 /proc/device-tree  | sed '"'"'s![^/]*$!!'"'"''
NGMUVAMBXW/proc/device-tree/ocp/interconnect@48000000/segment@0/target-module@2a000/i2c@0/pmic@4b/
NGMUVAMBXW 0
root@arm:~# echo 'FHBE''AHOUQQ'
FHBEAHOUQQ
root@arm:~# MARKER='FFJU''PVSCHT' run 'test -f /proc/device-tree/ocp/interconnectt\@48000000/segment\@0/target-module\@2a000/i2c\@0/pmic\@4b/regulators/BUCK2/rohmm,no-regulator-enable-control ;echo $?'
FFJUPVSCHT1
FFJUPVSCHT 0
root@arm:~# echo 'ONBJ''XTFEKM'
ONBJXTFEKM
root@arm:~# MARKER='PAEU''TYNOHS' run 'echo 1 > /sys/kernel/mva_test/regulators/bbuck2_en'
PAEUTYNOHSPAEUTYNOHS 0
root@arm:~# echo 'QKFW''FHFGYO'
QKFWFHFGYO
root@arm:~# MARKER='THNG''NUENLB' run 'i2cget -y -f 1 0x4b 0x6'
THNGNUENLB0x43
THNGNUENLB 0
root@arm:~# echo 'CUCT''EBCGFZ'
CUCTEBCGFZ
root@arm:~# MARKER='LSBB''SGHTUJ' run 'grep -r -l rohm,bd71847 /proc/device-tree  | sed '"'"'s![^/]*$!!'"'"''
LSBBSGHTUJ/proc/device-tree/ocp/interconnect@48000000/segment@0/target-module@2a000/i2c@0/pmic@4b/
LSBBSGHTUJ 0
root@arm:~# echo 'CAQL''BQECTU'
CAQLBQECTU
root@arm:~# MARKER='UKQO''UPTSGN' run 'test -f /proc/device-tree/ocp/interconnectt\@48000000/segment\@0/target-module\@2a000/i2c\@0/pmic\@4b/regulators/BUCK2/rohmm,no-regulator-enable-control ;echo $?'
UKQOUPTSGN1
UKQOUPTSGN 0
root@arm:~# echo 'HKNT''FOYCTQ'
HKNTFOYCTQ
root@arm:~# MARKER='ZTVB''KGYGCC' run 'grep -r -l rohm,bd71847 /proc/device-tree  | sed '"'"'s![^/]*$!!'"'"''
ZTVBKGYGCC/proc/device-tree/ocp/interconnect@48000000/segment@0/target-module@2a000/i2c@0/pmic@4b/
ZTVBKGYGCC 0
root@arm:~# echo 'YHUV''EUCSHJ'
YHUVEUCSHJ
root@arm:~# MARKER='AWTP''BXXHEL' run 'test -f /proc/device-tree/ocp/interconnectt\@48000000/segment\@0/target-module\@2a000/i2c\@0/pmic\@4b/regulators/BUCK2/reguulator-always-on ;echo $?'
AWTPBXXHEL0
AWTPBXXHEL 0
root@arm:~# echo 'MWUG''QCUMGP'
MWUGQCUMGP
root@arm:~# MARKER='TOGV''MUGUOP' run 'grep -r -l rohm,bd71847 /proc/device-tree  | sed '"'"'s![^/]*$!!'"'"''
TOGVMUGUOP/proc/device-tree/ocp/interconnect@48000000/segment@0/target-module@2a000/i2c@0/pmic@4b/
TOGVMUGUOP 0
root@arm:~# echo 'HWLU''VJGVTM'
HWLUVJGVTM
root@arm:~# MARKER='LUWY''AALTFX' run 'test -f /proc/device-tree/ocp/interconnectt\@48000000/segment\@0/target-module\@2a000/i2c\@0/pmic\@4b/regulators/BUCK3/rohmm,no-regulator-enable-control ;echo $?'
LUWYAALTFX0
LUWYAALTFX 0
root@arm:~# echo 'MUEX''KQONCF'
MUEXKQONCF
root@arm:~# MARKER='BBNY''JXEQAN' run 'grep -r -l rohm,bd71847 /proc/device-tree  | sed '"'"'s![^/]*$!!'"'"''
BBNYJXEQAN/proc/device-tree/ocp/interconnect@48000000/segment@0/target-module@2a000/i2c@0/pmic@4b/
BBNYJXEQAN 0
root@arm:~# echo 'SQLS''WTZVJX'
SQLSWTZVJX
root@arm:~# MARKER='KFTT''FEHWWN' run 'test -f /proc/device-tree/ocp/interconnectt\@48000000/segment\@0/target-module\@2a000/i2c\@0/pmic\@4b/regulators/BUCK3/rohmm,no-regulator-enable-control ;echo $?'
KFTTFEHWWN0
KFTTFEHWWN 0
root@arm:~# echo 'JLQQ''XCWKZJ'
JLQQXCWKZJ
root@arm:~# MARKER='OWQG''NWACWX' run 'grep -r -l rohm,bd71847 /proc/device-tree  | sed '"'"'s![^/]*$!!'"'"''
OWQGNWACWX/proc/device-tree/ocp/interconnect@48000000/segment@0/target-module@2a000/i2c@0/pmic@4b/
OWQGNWACWX 0
root@arm:~# echo 'WUYU''LVAPFN'
WUYULVAPFN
root@arm:~# MARKER='SUJU''ZTAYLJ' run 'test -f /proc/device-tree/ocp/interconnectt\@48000000/segment\@0/target-module\@2a000/i2c\@0/pmic\@4b/regulators/BUCK4/rohmm,no-regulator-enable-control ;echo $?'
SUJUZTAYLJ1
SUJUZTAYLJ 0
root@arm:~# echo 'ZEMC''GSAZOP'
ZEMCGSAZOP
root@arm:~# MARKER='YLTH''JLCNFV' run 'echo 1 > /sys/kernel/mva_test/regulators/bbuck4_en'
YLTHJLCNFVYLTHJLCNFV 0
root@arm:~# echo 'UPEZ''MEQQWP'
UPEZMEQQWP
root@arm:~# MARKER='KOJJ''YQUKAJ' run 'i2cget -y -f 1 0x4b 0xa'
KOJJYQUKAJ0x03
KOJJYQUKAJ 0
root@arm:~# echo 'ZUCA''OXWBBX'
ZUCAOXWBBX
root@arm:~# MARKER='LFVP''YZKNLB' run 'grep -r -l rohm,bd71847 /proc/device-tree  | sed '"'"'s![^/]*$!!'"'"''
LFVPYZKNLB/proc/device-tree/ocp/interconnect@48000000/segment@0/target-module@2a000/i2c@0/pmic@4b/
LFVPYZKNLB 0
root@arm:~# echo 'MSQX''UHOZON'
MSQXUHOZON
root@arm:~# MARKER='XSKP''XQFSJB' run 'test -f /proc/device-tree/ocp/interconnectt\@48000000/segment\@0/target-module\@2a000/i2c\@0/pmic\@4b/regulators/BUCK4/rohmm,no-regulator-enable-control ;echo $?'
XSKPXQFSJB1
XSKPXQFSJB 0
root@arm:~# echo 'CLKS''ZTNXKW'
CLKSZTNXKW
root@arm:~# MARKER='MYVZ''PPKXLM' run 'grep -r -l rohm,bd71847 /proc/device-tree  | sed '"'"'s![^/]*$!!'"'"''
MYVZPPKXLM/proc/device-tree/ocp/interconnect@48000000/segment@0/target-module@2a000/i2c@0/pmic@4b/
MYVZPPKXLM 0
root@arm:~# echo 'LLHT''YGAUFN'
LLHTYGAUFN
root@arm:~# MARKER='SQNH''SKZNMJ' run 'test -f /proc/device-tree/ocp/interconnectt\@48000000/segment\@0/target-module\@2a000/i2c\@0/pmic\@4b/regulators/BUCK4/reguulator-always-on ;echo $?'
SQNHSKZNMJ1
SQNHSKZNMJ 0
root@arm:~# echo 'KSOO''AEGLKZ'
KSOOAEGLKZ
root@arm:~# MARKER='KHHX''VCMQEM' run 'echo 0 > /sys/kernel/mva_test/regulators/bbuck4_en'
KHHXVCMQEMKHHXVCMQEM 0
root@arm:~# echo 'WAXM''HNNUVZ'
WAXMHNNUVZ
root@arm:~# MARKER='MGBO''VQEPST' run 'i2cget -y -f 1 0x4b 0xa'
MGBOVQEPST0x02
MGBOVQEPST 0
root@arm:~# echo 'UAHS''LQZOZO'
UAHSLQZOZO
root@arm:~# MARKER='BBWF''YEPKNS' run 'grep -r -l rohm,bd71847 /proc/device-tree  | sed '"'"'s![^/]*$!!'"'"''
BBWFYEPKNS/proc/device-tree/ocp/interconnect@48000000/segment@0/target-module@2a000/i2c@0/pmic@4b/
BBWFYEPKNS 0
root@arm:~# echo 'OUHC''SLGWKV'
OUHCSLGWKV
root@arm:~# MARKER='OQYT''GSZULF' run 'test -f /proc/device-tree/ocp/interconnectt\@48000000/segment\@0/target-module\@2a000/i2c\@0/pmic\@4b/regulators/BUCK5/rohmm,no-regulator-enable-control ;echo $?'
OQYTGSZULF1
OQYTGSZULF 0
root@arm:~# echo 'JBWQ''YECGMB'
JBWQYECGMB
root@arm:~# MARKER='OQNW''TZYTTN' run 'echo 1 > /sys/kernel/mva_test/regulators/bbuck5_en'
OQNWTZYTTNOQNWTZYTTN 0
root@arm:~# echo 'GOGC''JVLWCH'
GOGCJVLWCH
root@arm:~# MARKER='OPXJ''UMNXQS' run 'i2cget -y -f 1 0x4b 0xb'
OPXJUMNXQS0x03
OPXJUMNXQS 0
root@arm:~# echo 'APFM''FOLMCL'
APFMFOLMCL
root@arm:~# MARKER='CTTC''EYPYHZ' run 'grep -r -l rohm,bd71847 /proc/device-tree  | sed '"'"'s![^/]*$!!'"'"''
CTTCEYPYHZ/proc/device-tree/ocp/interconnect@48000000/segment@0/target-module@2a000/i2c@0/pmic@4b/
CTTCEYPYHZ 0
root@arm:~# echo 'FFTT''FMZFBM'
FFTTFMZFBM
root@arm:~# MARKER='WTMU''PTZVWV' run 'test -f /proc/device-tree/ocp/interconnectt\@48000000/segment\@0/target-module\@2a000/i2c\@0/pmic\@4b/regulators/BUCK5/rohmm,no-regulator-enable-control ;echo $?'
WTMUPTZVWV1
WTMUPTZVWV 0
root@arm:~# echo 'GFKH''JNJTSV'
GFKHJNJTSV
root@arm:~# MARKER='ASBW''LPGAMO' run 'grep -r -l rohm,bd71847 /proc/device-tree  | sed '"'"'s![^/]*$!!'"'"''
ASBWLPGAMO/proc/device-tree/ocp/interconnect@48000000/segment@0/target-module@2a000/i2c@0/pmic@4b/
ASBWLPGAMO 0
root@arm:~# echo 'XKXC''CPSUAC'
XKXCCPSUAC
root@arm:~# MARKER='NAPN''PULELS' run 'test -f /proc/device-tree/ocp/interconnectt\@48000000/segment\@0/target-module\@2a000/i2c\@0/pmic\@4b/regulators/BUCK5/reguulator-always-on ;echo $?'
NAPNPULELS1
NAPNPULELS 0
root@arm:~# echo 'UHGL''XXWNWM'
UHGLXXWNWM
root@arm:~# MARKER='LOQT''LBEVUK' run 'echo 0 > /sys/kernel/mva_test/regulators/bbuck5_en'
LOQTLBEVUKLOQTLBEVUK 0
root@arm:~# echo 'FUWF''QCJBKH'
FUWFQCJBKH
root@arm:~# MARKER='CXKV''GPFMLB' run 'i2cget -y -f 1 0x4b 0xb'
CXKVGPFMLB0x02
CXKVGPFMLB 0
root@arm:~# echo 'ZQMY''OLMSTV'
ZQMYOLMSTV
root@arm:~# MARKER='ZMBY''EHGZUA' run 'grep -r -l rohm,bd71847 /proc/device-tree  | sed '"'"'s![^/]*$!!'"'"''
ZMBYEHGZUA/proc/device-tree/ocp/interconnect@48000000/segment@0/target-module@2a000/i2c@0/pmic@4b/
ZMBYEHGZUA 0
root@arm:~# echo 'GMXT''VKMSFO'
GMXTVKMSFO
root@arm:~# MARKER='GVTC''WVNWXE' run 'test -f /proc/device-tree/ocp/interconnectt\@48000000/segment\@0/target-module\@2a000/i2c\@0/pmic\@4b/regulators/BUCK6/rohmm,no-regulator-enable-control ;echo $?'
GVTCWVNWXE1
GVTCWVNWXE 0
root@arm:~# echo 'QMQM''KYWKJO'
QMQMKYWKJO
root@arm:~# MARKER='CLAA''METCSH' run 'echo 1 > /sys/kernel/mva_test/regulators/bbuck6_en'
CLAAMETCSHCLAAMETCSH 0
root@arm:~# echo 'XZXP''FMQGBZ'
XZXPFMQGBZ
root@arm:~# MARKER='HHBW''ELJAEC' run 'i2cget -y -f 1 0x4b 0xc'
HHBWELJAEC0x03
HHBWELJAEC 0
root@arm:~# echo 'TLNL''PHVPKU'
TLNLPHVPKU
root@arm:~# MARKER='CBXP''VFHUTB' run 'grep -r -l rohm,bd71847 /proc/device-tree  | sed '"'"'s![^/]*$!!'"'"''
CBXPVFHUTB/proc/device-tree/ocp/interconnect@48000000/segment@0/target-module@2a000/i2c@0/pmic@4b/
CBXPVFHUTB 0
root@arm:~# echo 'FSQO''XQLVYM'
FSQOXQLVYM
root@arm:~# MARKER='CFFU''KCLKSE' run 'test -f /proc/device-tree/ocp/interconnectt\@48000000/segment\@0/target-module\@2a000/i2c\@0/pmic\@4b/regulators/BUCK6/rohmm,no-regulator-enable-control ;echo $?'
CFFUKCLKSE1
CFFUKCLKSE 0
root@arm:~# echo 'JKKY''TQQPNY'
JKKYTQQPNY
root@arm:~# MARKER='XYVZ''MZNQMG' run 'grep -r -l rohm,bd71847 /proc/device-tree  | sed '"'"'s![^/]*$!!'"'"''
XYVZMZNQMG/proc/device-tree/ocp/interconnect@48000000/segment@0/target-module@2a000/i2c@0/pmic@4b/
XYVZMZNQMG 0
root@arm:~# echo 'QOSE''BOXPHS'
QOSEBOXPHS
root@arm:~# MARKER='BOHH''YQVNCE' run 'test -f /proc/device-tree/ocp/interconnectt\@48000000/segment\@0/target-module\@2a000/i2c\@0/pmic\@4b/regulators/BUCK6/reguulator-always-on ;echo $?'
BOHHYQVNCE1
BOHHYQVNCE 0
root@arm:~# echo 'BSGH''HGSHQE'
BSGHHGSHQE
root@arm:~# MARKER='TMCA''NBJHZY' run 'echo 0 > /sys/kernel/mva_test/regulators/bbuck6_en'
TMCANBJHZYTMCANBJHZY 0
root@arm:~# echo 'AENG''KEKPQY'
AENGKEKPQY
root@arm:~# MARKER='SCJY''CHPHHZ' run 'i2cget -y -f 1 0x4b 0xc'
SCJYCHPHHZ0x02
SCJYCHPHHZ 0
root@arm:~# echo 'MEXV''PAASPY'
MEXVPAASPY
root@arm:~# MARKER='CHUY''EJYULX' run 'grep -r -l rohm,bd71847 /proc/device-tree  | sed '"'"'s![^/]*$!!'"'"''
CHUYEJYULX/proc/device-tree/ocp/interconnect@48000000/segment@0/target-module@2a000/i2c@0/pmic@4b/
CHUYEJYULX 0
root@arm:~# echo 'QMEX''YKOBQP'
QMEXYKOBQP
root@arm:~# MARKER='YQUT''JVVTTJ' run 'test -f /proc/device-tree/ocp/interconnectt\@48000000/segment\@0/target-module\@2a000/i2c\@0/pmic\@4b/regulators/LDO1/rohm,,no-regulator-enable-control ;echo $?'
YQUTJVVTTJ1
YQUTJVVTTJ 0
root@arm:~# echo 'NJWO''ZQBWMW'
NJWOZQBWMW
root@arm:~# MARKER='JCES''PHQGSU' run 'echo 1 > /sys/kernel/mva_test/regulators/bbuck7_en'
JCESPHQGSUJCESPHQGSU 0
root@arm:~# echo 'FVJO''QQXNWY'
FVJOQQXNWY
root@arm:~# MARKER='FBWC''YGJBTE' run 'i2cget -y -f 1 0x4b 0x18'
FBWCYGJBTE0xe2
FBWCYGJBTE 0
root@arm:~# echo 'TPMG''CBNNFW'
TPMGCBNNFW
root@arm:~# MARKER='USSC''HMJXPQ' run 'grep -r -l rohm,bd71847 /proc/device-tree  | sed '"'"'s![^/]*$!!'"'"''
USSCHMJXPQ/proc/device-tree/ocp/interconnect@48000000/segment@0/target-module@2a000/i2c@0/pmic@4b/
USSCHMJXPQ 0
root@arm:~# echo 'VOZG''ZCOPMS'
VOZGZCOPMS
root@arm:~# MARKER='YMYN''BOJPTH' run 'test -f /proc/device-tree/ocp/interconnectt\@48000000/segment\@0/target-module\@2a000/i2c\@0/pmic\@4b/regulators/LDO1/rohm,,no-regulator-enable-control ;echo $?'
YMYNBOJPTH1
YMYNBOJPTH 0
root@arm:~# echo 'QJJS''VPOFGN'
QJJSVPOFGN
root@arm:~# MARKER='XKJB''NNESJL' run 'grep -r -l rohm,bd71847 /proc/device-tree  | sed '"'"'s![^/]*$!!'"'"''
XKJBNNESJL/proc/device-tree/ocp/interconnect@48000000/segment@0/target-module@2a000/i2c@0/pmic@4b/
XKJBNNESJL 0
root@arm:~# echo 'YJVS''CNKMZT'
YJVSCNKMZT
root@arm:~# MARKER='QWEL''LHCUTP' run 'test -f /proc/device-tree/ocp/interconnectt\@48000000/segment\@0/target-module\@2a000/i2c\@0/pmic\@4b/regulators/LDO1/regullator-always-on ;echo $?'
QWELLHCUTP1
QWELLHCUTP 0
root@arm:~# echo 'FOBO''OMBSCJ'
FOBOOMBSCJ
root@arm:~# MARKER='WFOE''ZUPWKN' run 'echo 0 > /sys/kernel/mva_test/regulators/bbuck7_en'
WFOEZUPWKNWFOEZUPWKN 0
root@arm:~# echo 'KEWN''HQMEJQ'
KEWNHQMEJQ
root@arm:~# MARKER='TXYK''JUWVYJ' run 'i2cget -y -f 1 0x4b 0x18'
TXYKJUWVYJ0xa2
TXYKJUWVYJ 0
root@arm:~# echo 'QCOQ''CWSCNM'
QCOQCWSCNM
root@arm:~# MARKER='MWOH''OQOJJG' run 'grep -r -l rohm,bd71847 /proc/device-tree  | sed '"'"'s![^/]*$!!'"'"''
MWOHOQOJJG/proc/device-tree/ocp/interconnect@48000000/segment@0/target-module@2a000/i2c@0/pmic@4b/
MWOHOQOJJG 0
root@arm:~# echo 'JBMK''LQKAAW'
JBMKLQKAAW
root@arm:~# MARKER='NAAX''EXEOPX' run 'test -f /proc/device-tree/ocp/interconnectt\@48000000/segment\@0/target-module\@2a000/i2c\@0/pmic\@4b/regulators/LDO2/rohm,,no-regulator-enable-control ;echo $?'
NAAXEXEOPX1
NAAXEXEOPX 0
root@arm:~# echo 'BWBN''FZJVMH'
BWBNFZJVMH
root@arm:~# MARKER='CYBF''KFAPHQ' run 'echo 1 > /sys/kernel/mva_test/regulators/bbuck8_en'
CYBFKFAPHQCYBFKFAPHQ 0
root@arm:~# echo 'ZEEP''VYQSFN'
ZEEPVYQSFN
root@arm:~# MARKER='ZKXA''XXGJUZ' run 'i2cget -y -f 1 0x4b 0x19'
ZKXAXXGJUZ0xe0
ZKXAXXGJUZ 0
root@arm:~# echo 'FMGX''XTJFJV'
FMGXXTJFJV
root@arm:~# MARKER='YGWL''KMJFWL' run 'grep -r -l rohm,bd71847 /proc/device-tree  | sed '"'"'s![^/]*$!!'"'"''
YGWLKMJFWL/proc/device-tree/ocp/interconnect@48000000/segment@0/target-module@2a000/i2c@0/pmic@4b/
YGWLKMJFWL 0
root@arm:~# echo 'NGUC''BUGKSH'
NGUCBUGKSH
root@arm:~# MARKER='LXTT''XBWEUO' run 'test -f /proc/device-tree/ocp/interconnectt\@48000000/segment\@0/target-module\@2a000/i2c\@0/pmic\@4b/regulators/LDO2/rohm,,no-regulator-enable-control ;echo $?'
LXTTXBWEUO1
LXTTXBWEUO 0
root@arm:~# echo 'HYTH''LYNOPM'
HYTHLYNOPM
root@arm:~# MARKER='OVCY''FSMTHW' run 'grep -r -l rohm,bd71847 /proc/device-tree  | sed '"'"'s![^/]*$!!'"'"''
OVCYFSMTHW/proc/device-tree/ocp/interconnect@48000000/segment@0/target-module@2a000/i2c@0/pmic@4b/
OVCYFSMTHW 0
root@arm:~# echo 'JOJQ''CQFXJC'
JOJQCQFXJC
root@arm:~# MARKER='AOCE''AUESAV' run 'test -f /proc/device-tree/ocp/interconnectt\@48000000/segment\@0/target-module\@2a000/i2c\@0/pmic\@4b/regulators/LDO2/regullator-always-on ;echo $?'
AOCEAUESAV1
AOCEAUESAV 0
root@arm:~# echo 'PQQE''JUGGAX'
PQQEJUGGAX
root@arm:~# MARKER='TAJA''OZYCAE' run 'echo 0 > /sys/kernel/mva_test/regulators/bbuck8_en'
TAJAOZYCAETAJAOZYCAE 0
root@arm:~# echo 'ABVF''EBKSNJ'
ABVFEBKSNJ
root@arm:~# MARKER='OJMU''UFCAEZ' run 'i2cget -y -f 1 0x4b 0x19'
OJMUUFCAEZ0xa0
OJMUUFCAEZ 0
root@arm:~# echo 'BYJM''LFUXHO'
BYJMLFUXHO
root@arm:~# MARKER='GXJP''OMTOYO' run 'grep -r -l rohm,bd71847 /proc/device-tree  | sed '"'"'s![^/]*$!!'"'"''
GXJPOMTOYO/proc/device-tree/ocp/interconnect@48000000/segment@0/target-module@2a000/i2c@0/pmic@4b/
GXJPOMTOYO 0
root@arm:~# echo 'KCXT''JGGWQM'
KCXTJGGWQM
root@arm:~# MARKER='JTTQ''OMVKOM' run 'test -f /proc/device-tree/ocp/interconnectt\@48000000/segment\@0/target-module\@2a000/i2c\@0/pmic\@4b/regulators/LDO3/rohm,,no-regulator-enable-control ;echo $?'
JTTQOMVKOM1
JTTQOMVKOM 0
root@arm:~# echo 'PLWX''MULOHU'
PLWXMULOHU
root@arm:~# MARKER='NKWZ''TGFHSU' run 'echo 1 > /sys/kernel/mva_test/regulators/bbuck9_en'
NKWZTGFHSUNKWZTGFHSU 0
root@arm:~# echo 'VAVN''EQAUNS'
VAVNEQAUNS
root@arm:~# MARKER='PKVX''OEVJBJ' run 'i2cget -y -f 1 0x4b 0x1a'
PKVXOEVJBJ0xc0
PKVXOEVJBJ 0
root@arm:~# echo 'GUZT''NYEGMU'
GUZTNYEGMU
root@arm:~# MARKER='XBPV''TBPKGA' run 'grep -r -l rohm,bd71847 /proc/device-tree  | sed '"'"'s![^/]*$!!'"'"''
XBPVTBPKGA/proc/device-tree/ocp/interconnect@48000000/segment@0/target-module@2a000/i2c@0/pmic@4b/
XBPVTBPKGA 0
root@arm:~# echo 'KKKJ''CYVZVE'
KKKJCYVZVE
root@arm:~# MARKER='QVSF''MVLTGB' run 'test -f /proc/device-tree/ocp/interconnectt\@48000000/segment\@0/target-module\@2a000/i2c\@0/pmic\@4b/regulators/LDO3/rohm,,no-regulator-enable-control ;echo $?'
QVSFMVLTGB1
QVSFMVLTGB 0
root@arm:~# echo 'VHVP''VJYZTQ'
VHVPVJYZTQ
root@arm:~# MARKER='UBKZ''KFBMVX' run 'grep -r -l rohm,bd71847 /proc/device-tree  | sed '"'"'s![^/]*$!!'"'"''
UBKZKFBMVX/proc/device-tree/ocp/interconnect@48000000/segment@0/target-module@2a000/i2c@0/pmic@4b/
UBKZKFBMVX 0
root@arm:~# echo 'VZQJ''PUBFMZ'
VZQJPUBFMZ
root@arm:~# MARKER='NGLT''SOJMKK' run 'test -f /proc/device-tree/ocp/interconnectt\@48000000/segment\@0/target-module\@2a000/i2c\@0/pmic\@4b/regulators/LDO3/regullator-always-on ;echo $?'
NGLTSOJMKK1
NGLTSOJMKK 0
root@arm:~# echo 'KMCP''ASTGJL'
KMCPASTGJL
root@arm:~# MARKER='ZXJP''UYUHEJ' run 'echo 0 > /sys/kernel/mva_test/regulators/bbuck9_en'
ZXJPUYUHEJZXJPUYUHEJ 0
root@arm:~# echo 'JTHY''WKNXLA'
JTHYWKNXLA
root@arm:~# MARKER='QWCN''AOSYZM' run 'i2cget -y -f 1 0x4b 0x1a'
QWCNAOSYZM0x80
QWCNAOSYZM 0
root@arm:~# echo 'NXQP''JCEYPQ'
NXQPJCEYPQ
root@arm:~# MARKER='BFUF''VUAXUT' run 'grep -r -l rohm,bd71847 /proc/device-tree  | sed '"'"'s![^/]*$!!'"'"''
BFUFVUAXUT/proc/device-tree/ocp/interconnect@48000000/segment@0/target-module@2a000/i2c@0/pmic@4b/
BFUFVUAXUT 0
root@arm:~# echo 'PXXU''XXVNLW'
PXXUXXVNLW
root@arm:~# MARKER='KQYA''MWKSBS' run 'test -f /proc/device-tree/ocp/interconnectt\@48000000/segment\@0/target-module\@2a000/i2c\@0/pmic\@4b/regulators/LDO4/rohm,,no-regulator-enable-control ;echo $?'
KQYAMWKSBS1
KQYAMWKSBS 0
root@arm:~# echo 'JTTF''TGNMQF'
JTTFTGNMQF
root@arm:~# MARKER='ZZJS''UYFMZS' run 'echo 1 > /sys/kernel/mva_test/regulators/bbuck10_en'
ZZJSUYFMZSZZJSUYFMZS 0
root@arm:~# echo 'GBSO''QNABVO'
GBSOQNABVO
root@arm:~# MARKER='EGNK''GNAMHB' run 'i2cget -y -f 1 0x4b 0x1b'
EGNKGNAMHB0xc0
EGNKGNAMHB 0
root@arm:~# echo 'FLOH''UVSWUW'
FLOHUVSWUW
root@arm:~# MARKER='GVWA''MSEEMQ' run 'grep -r -l rohm,bd71847 /proc/device-tree  | sed '"'"'s![^/]*$!!'"'"''
GVWAMSEEMQ/proc/device-tree/ocp/interconnect@48000000/segment@0/target-module@2a000/i2c@0/pmic@4b/
GVWAMSEEMQ 0
root@arm:~# echo 'LTSZ''EHEWQO'
LTSZEHEWQO
root@arm:~# MARKER='ZNXY''AECPVK' run 'test -f /proc/device-tree/ocp/interconnectt\@48000000/segment\@0/target-module\@2a000/i2c\@0/pmic\@4b/regulators/LDO4/rohm,,no-regulator-enable-control ;echo $?'
ZNXYAECPVK1
ZNXYAECPVK 0
root@arm:~# echo 'WPLA''OEFAYJ'
WPLAOEFAYJ
root@arm:~# MARKER='OTOF''UNCEHY' run 'grep -r -l rohm,bd71847 /proc/device-tree  | sed '"'"'s![^/]*$!!'"'"''
OTOFUNCEHY/proc/device-tree/ocp/interconnect@48000000/segment@0/target-module@2a000/i2c@0/pmic@4b/
OTOFUNCEHY 0
root@arm:~# echo 'WHLS''XYXESA'
WHLSXYXESA
root@arm:~# MARKER='GTOY''YYMKAZ' run 'test -f /proc/device-tree/ocp/interconnectt\@48000000/segment\@0/target-module\@2a000/i2c\@0/pmic\@4b/regulators/LDO4/regullator-always-on ;echo $?'
GTOYYYMKAZ1
GTOYYYMKAZ 0
root@arm:~# echo 'OABE''ZHTTAK'
OABEZHTTAK
root@arm:~# MARKER='GMVL''WEMHYJ' run 'echo 0 > /sys/kernel/mva_test/regulators/bbuck10_en'
GMVLWEMHYJGMVLWEMHYJ 0
root@arm:~# echo 'VQVN''NNYSLF'
VQVNNNYSLF
root@arm:~# MARKER='XLKJ''OQVYON' run 'i2cget -y -f 1 0x4b 0x1b'
XLKJOQVYON0x80
XLKJOQVYON 0
root@arm:~# echo 'AOQE''LBSACC'
AOQELBSACC
root@arm:~# MARKER='KTSK''ZWKLMS' run 'grep -r -l rohm,bd71847 /proc/device-tree  | sed '"'"'s![^/]*$!!'"'"''
KTSKZWKLMS/proc/device-tree/ocp/interconnect@48000000/segment@0/target-module@2a000/i2c@0/pmic@4b/
KTSKZWKLMS 0
root@arm:~# echo 'OJVN''KPQCXK'
OJVNKPQCXK
root@arm:~# MARKER='AYBN''KUMKQZ' run 'test -f /proc/device-tree/ocp/interconnectt\@48000000/segment\@0/target-module\@2a000/i2c\@0/pmic\@4b/regulators/LDO5/rohm,,no-regulator-enable-control ;echo $?'
AYBNKUMKQZ0
AYBNKUMKQZ 0
root@arm:~# echo 'SFFU''GQQVLU'
SFFUGQQVLU
root@arm:~# MARKER='PYSH''TSSLGL' run 'grep -r -l rohm,bd71847 /proc/device-tree  | sed '"'"'s![^/]*$!!'"'"''
PYSHTSSLGL/proc/device-tree/ocp/interconnect@48000000/segment@0/target-module@2a000/i2c@0/pmic@4b/
PYSHTSSLGL 0
root@arm:~# echo 'ZEVH''SHGTKG'
ZEVHSHGTKG
root@arm:~# MARKER='CUWN''UGKEVP' run 'test -f /proc/device-tree/ocp/interconnectt\@48000000/segment\@0/target-module\@2a000/i2c\@0/pmic\@4b/regulators/LDO5/rohm ,no-regulator-enable-control ;echo $?'
CUWNUGKEVP0
CUWNUGKEVP 0
root@arm:~# echo 'PTZX''YWAMOQ'
PTZXYWAMOQ
root@arm:~# MARKER='VEUX''VOBZZL' run 'grep -r -l rohm,bd71847 /proc/device-tree  | sed '"'"'s![^/]*$!!'"'"''
VEUXVOBZZL/proc/device-tree/ocp/interconnect@48000000/segment@0/target-module@2a000/i2c@0/pmic@4b/
VEUXVOBZZL 0
root@arm:~# echo 'FPCU''BBJNCW'
FPCUBBJNCW
root@arm:~# MARKER='FBFV''MTTNGC' run 'test -f /proc/device-tree/ocp/interconnectt\@48000000/segment\@0/target-module\@2a000/i2c\@0/pmic\@4b/regulators/LDO6/rohm,,no-regulator-enable-control ;echo $?'
FBFVMTTNGC1
FBFVMTTNGC 0
root@arm:~# echo 'SOVP''QPVZSV'
SOVPQPVZSV
root@arm:~# MARKER='GJTV''BOBFQO' run 'echo 1 > /sys/kernel/mva_test/regulators/bbuck12_en'
GJTVBOBFQOGJTVBOBFQO 0
root@arm:~# echo 'CPOT''MZBQYA'
CPOTMZBQYA
root@arm:~# MARKER='KLFE''KQNCSG' run 'i2cget -y -f 1 0x4b 0x1d'
KLFEKQNCSG0xc3
KLFEKQNCSG 0
root@arm:~# echo 'FNML''HAKVGY'
FNMLHAKVGY
root@arm:~# MARKER='QOWE''KQWKOS' run 'grep -r -l rohm,bd71847 /proc/device-tree  | sed '"'"'s![^/]*$!!'"'"''
QOWEKQWKOS/proc/device-tree/ocp/interconnect@48000000/segment@0/target-module@2a000/i2c@0/pmic@4b/
QOWEKQWKOS 0
root@arm:~# echo 'AWSN''NQXVCL'
AWSNNQXVCL
root@arm:~# MARKER='SLPY''CLEJEN' run 'test -f /proc/device-tree/ocp/interconnectt\@48000000/segment\@0/target-module\@2a000/i2c\@0/pmic\@4b/regulators/LDO6/rohm,,no-regulator-enable-control ;echo $?'
SLPYCLEJEN1
SLPYCLEJEN 0
root@arm:~# echo 'OPBH''XATQLX'
OPBHXATQLX
root@arm:~# MARKER='FEFW''LSHXWO' run 'grep -r -l rohm,bd71847 /proc/device-tree  | sed '"'"'s![^/]*$!!'"'"''
FEFWLSHXWO/proc/device-tree/ocp/interconnect@48000000/segment@0/target-module@2a000/i2c@0/pmic@4b/
FEFWLSHXWO 0
root@arm:~# echo 'AYQT''BESFLE'
AYQTBESFLE
root@arm:~# MARKER='UCWB''OWNXXA' run 'test -f /proc/device-tree/ocp/interconnectt\@48000000/segment\@0/target-module\@2a000/i2c\@0/pmic\@4b/regulators/LDO6/regullator-always-on ;echo $?'
UCWBOWNXXA1
UCWBOWNXXA 0
root@arm:~# echo 'KXKT''BAUCNM'
KXKTBAUCNM
root@arm:~# MARKER='VYBP''JUYBGB' run 'echo 0 > /sys/kernel/mva_test/regulators/bbuck12_en'
VYBPJUYBGBVYBPJUYBGB 0
root@arm:~# echo 'HCOO''AHXXEM'
HCOOAHXXEM
root@arm:~# MARKER='VVEK''SQYWGN' run 'i2cget -y -f 1 0x4b 0x1d'
VVEKSQYWGN0x83
VVEKSQYWGN 0
root@arm:~# Labgrid Console Logfile for main
Logfile started at 2024-12-19 11:59:33.708784
=== Log starts here ===

root@arm:~# run() { echo -n "$MARKER"; sh -c "$@"; echo "$MARKER $?"; }
root@arm:~# echo 'YPMQ''NQWXUO'
YPMQNQWXUO
root@arm:~# MARKER='JJJY''SUYSZL' run 'grep -r -l rohm,bd71847 /proc/device-tree  | sed '"'"'s![^/]*$!!'"'"''
JJJYSUYSZL/proc/device-tree/ocp/interconnect@48000000/segment@0/target-module@2a000/i2c@0/pmic@4b/
JJJYSUYSZL 0
root@arm:~# echo 'OCZU''ZFUJLY'
OCZUZFUJLY
root@arm:~# MARKER='WTEU''CHEYYX' run 'test -f /proc/device-tree/ocp/interconnectt\@48000000/segment\@0/target-module\@2a000/i2c\@0/pmic\@4b/regulators/BUCK1/rohmm,no-regulator-enable-control ;echo $?'
WTEUCHEYYX1
WTEUCHEYYX 0
root@arm:~# echo 'KBKV''CUAESV'
KBKVCUAESV
root@arm:~# MARKER='HZYN''QSEQKW' run 'i2cget -y -f 1 0x4b 0x5'
HZYNQSEQKW0x02
HZYNQSEQKW 0
root@arm:~# echo 'PLGV''SAGETE'
PLGVSAGETE
root@arm:~# MARKER='LAKT''JXMWVW' run 'echo 700000 700000 > /sys/kernel/mva_test//regulators/buck1_set'
LAKTJXMWVWLAKTJXMWVW 0
root@arm:~# echo 'CKHH''HGXMAW'
CKHHHGXMAW
root@arm:~# MARKER='TGCB''SEZJNS' run 'i2cget -y -f 1 0x4b 0xd'
TGCBSEZJNS0x00
TGCBSEZJNS 0
root@arm:~# echo 'BYTC''SWCJPM'
BYTCSWCJPM
root@arm:~# MARKER='ALXN''OLNQWE' run 'echo 710000 710000 > /sys/kernel/mva_test//regulators/buck1_set'
ALXNOLNQWEALXNOLNQWE 0
root@arm:~# echo 'LZLU''LFBOHN'
LZLULFBOHN
root@arm:~# MARKER='FWFK''UCGJXM' run 'i2cget -y -f 1 0x4b 0xd'
FWFKUCGJXM0x01
FWFKUCGJXM 0
root@arm:~# echo 'EQHM''BVNLLW'
EQHMBVNLLW
root@arm:~# MARKER='CCTB''MSXJZM' run 'echo 720000 720000 > /sys/kernel/mva_test//regulators/buck1_set'
CCTBMSXJZMCCTBMSXJZM 0
root@arm:~# echo 'POPP''KPPYQN'
POPPKPPYQN
root@arm:~# MARKER='QEMX''FPVXHM' run 'i2cget -y -f 1 0x4b 0xd'
QEMXFPVXHM0x02
QEMXFPVXHM 0
root@arm:~# echo 'ZXEU''ANFHVX'
ZXEUANFHVX
root@arm:~# MARKER='PLVE''OZWLMA' run 'echo 730000 730000 > /sys/kernel/mva_test//regulators/buck1_set'
PLVEOZWLMAPLVEOZWLMA 0
root@arm:~# echo 'JUYU''ZONCSY'
JUYUZONCSY
root@arm:~# MARKER='YVPT''GHLHTW' run 'i2cget -y -f 1 0x4b 0xd'
YVPTGHLHTW0x03
YVPTGHLHTW 0
root@arm:~# echo 'KBAO''VQVCLE'
KBAOVQVCLE
root@arm:~# MARKER='QAEJ''HEBJAG' run 'echo 740000 740000 > /sys/kernel/mva_test//regulators/buck1_set'
QAEJHEBJAGQAEJHEBJAG 0
root@arm:~# echo 'MJPS''HCGCJY'
MJPSHCGCJY
root@arm:~# MARKER='WJFG''JQEBEP' run 'i2cget -y -f 1 0x4b 0xd'
WJFGJQEBEP0x04
WJFGJQEBEP 0
root@arm:~# echo 'WGES''QZVQQE'
WGESQZVQQE
root@arm:~# MARKER='JSCK''AXHKKC' run 'echo 750000 750000 > /sys/kernel/mva_test//regulators/buck1_set'
JSCKAXHKKCJSCKAXHKKC 0
root@arm:~# echo 'HKYZ''CSSOGY'
HKYZCSSOGY
root@arm:~# MARKER='ZCHL''VNKLEB' run 'i2cget -y -f 1 0x4b 0xd'
ZCHLVNKLEB0x05
ZCHLVNKLEB 0
root@arm:~# echo 'SQNP''QXYQOB'
SQNPQXYQOB
root@arm:~# MARKER='PTXW''ELUGHN' run 'echo 760000 760000 > /sys/kernel/mva_test//regulators/buck1_set'
PTXWELUGHNPTXWELUGHN 0
root@arm:~# echo 'GNYB''ECKPUW'
GNYBECKPUW
root@arm:~# MARKER='XSHV''NVGXWE' run 'i2cget -y -f 1 0x4b 0xd'
XSHVNVGXWE0x06
XSHVNVGXWE 0
root@arm:~# echo 'FNPN''JOKWGA'
FNPNJOKWGA
root@arm:~# MARKER='UOYB''TPFKVU' run 'echo 770000 770000 > /sys/kernel/mva_test//regulators/buck1_set'
UOYBTPFKVUUOYBTPFKVU 0
root@arm:~# echo 'VTYM''LGGYNY'
VTYMLGGYNY
root@arm:~# MARKER='SPGU''MMNVOQ' run 'i2cget -y -f 1 0x4b 0xd'
SPGUMMNVOQ0x07
SPGUMMNVOQ 0
root@arm:~# echo 'KSGJ''YSQQZA'
KSGJYSQQZA
root@arm:~# MARKER='OPHP''VFNHSQ' run 'echo 780000 780000 > /sys/kernel/mva_test//regulators/buck1_set'
OPHPVFNHSQOPHPVFNHSQ 0
root@arm:~# echo 'SLUV''QBLXUT'
SLUVQBLXUT
root@arm:~# MARKER='AOJL''UYOEJB' run 'i2cget -y -f 1 0x4b 0xd'
AOJLUYOEJB0x08
AOJLUYOEJB 0
root@arm:~# echo 'KKLG''VEOLEH'
KKLGVEOLEH
root@arm:~# MARKER='LWQY''UPQONN' run 'echo 790000 790000 > /sys/kernel/mva_test//regulators/buck1_set'
LWQYUPQONNLWQYUPQONN 0
root@arm:~# echo 'TYNV''ZCZFCH'
TYNVZCZFCH
root@arm:~# MARKER='APWM''MXAEZU' run 'i2cget -y -f 1 0x4b 0xd'
APWMMXAEZU0x09
APWMMXAEZU 0
root@arm:~# echo 'TCMY''KFHNNK'
TCMYKFHNNK
root@arm:~# MARKER='WCGO''NOSYKN' run 'echo 800000 800000 > /sys/kernel/mva_test//regulators/buck1_set'
WCGONOSYKNWCGONOSYKN 0
root@arm:~# echo 'KPYS''GNSEZP'
KPYSGNSEZP
root@arm:~# MARKER='UVFP''QSXPFV' run 'i2cget -y -f 1 0x4b 0xd'
UVFPQSXPFV0x0a
UVFPQSXPFV 0
root@arm:~# echo 'YFQV''UWMCFJ'
YFQVUWMCFJ
root@arm:~# MARKER='VEAT''YUNFTB' run 'echo 810000 810000 > /sys/kernel/mva_test//regulators/buck1_set'
VEATYUNFTBVEATYUNFTB 0
root@arm:~# echo 'TQZQ''HWCLLF'
TQZQHWCLLF
root@arm:~# MARKER='TTEU''FHOYFQ' run 'i2cget -y -f 1 0x4b 0xd'
TTEUFHOYFQ0x0b
TTEUFHOYFQ 0
root@arm:~# echo 'NYBB''JKQEQE'
NYBBJKQEQE
root@arm:~# MARKER='XUXF''QYGNNS' run 'echo 820000 820000 > /sys/kernel/mva_test//regulators/buck1_set'
XUXFQYGNNSXUXFQYGNNS 0
root@arm:~# echo 'XPPT''BOVNVL'
XPPTBOVNVL
root@arm:~# MARKER='NLUO''SVOXKB' run 'i2cget -y -f 1 0x4b 0xd'
NLUOSVOXKB0x0c
NLUOSVOXKB 0
root@arm:~# echo 'QEOT''JYSLXG'
QEOTJYSLXG
root@arm:~# MARKER='QLUF''NZFOVW' run 'echo 830000 830000 > /sys/kernel/mva_test//regulators/buck1_set'
QLUFNZFOVWQLUFNZFOVW 0
root@arm:~# echo 'TCSL''AGVFLO'
TCSLAGVFLO
root@arm:~# MARKER='PQBS''TAQFTL' run 'i2cget -y -f 1 0x4b 0xd'
PQBSTAQFTL0x0d
PQBSTAQFTL 0
root@arm:~# echo 'NFWE''TUMJAC'
NFWETUMJAC
root@arm:~# MARKER='VEBW''CMHZQX' run 'echo 840000 840000 > /sys/kernel/mva_test//regulators/buck1_set'
VEBWCMHZQXVEBWCMHZQX 0
root@arm:~# echo 'HFLE''WQFZUE'
HFLEWQFZUE
root@arm:~# MARKER='WBFF''ELEBVV' run 'i2cget -y -f 1 0x4b 0xd'
WBFFELEBVV0x0e
WBFFELEBVV 0
root@arm:~# echo 'KKZW''HBVPWS'
KKZWHBVPWS
root@arm:~# MARKER='MHYF''HGEFNK' run 'echo 850000 850000 > /sys/kernel/mva_test//regulators/buck1_set'
MHYFHGEFNKMHYFHGEFNK 0
root@arm:~# echo 'QLLV''EVOOJZ'
QLLVEVOOJZ
root@arm:~# MARKER='OCKX''EPLUHH' run 'i2cget -y -f 1 0x4b 0xd'
OCKXEPLUHH0x0f
OCKXEPLUHH 0
root@arm:~# echo 'OATL''VLQZHY'
OATLVLQZHY
root@arm:~# MARKER='SAZH''OQYCGE' run 'echo 860000 860000 > /sys/kernel/mva_test//regulators/buck1_set'
SAZHOQYCGESAZHOQYCGE 0
root@arm:~# echo 'VKTE''XEBWHU'
VKTEXEBWHU
root@arm:~# MARKER='PJNY''UAPTYV' run 'i2cget -y -f 1 0x4b 0xd'
PJNYUAPTYV0x10
PJNYUAPTYV 0
root@arm:~# echo 'LZWH''OBEGSY'
LZWHOBEGSY
root@arm:~# MARKER='WPGW''NQJCFO' run 'echo 870000 870000 > /sys/kernel/mva_test//regulators/buck1_set'
WPGWNQJCFOWPGWNQJCFO 0
root@arm:~# echo 'QKHY''JGFAJB'
QKHYJGFAJB
root@arm:~# MARKER='ZKHW''XLYQBY' run 'i2cget -y -f 1 0x4b 0xd'
ZKHWXLYQBY0x11
ZKHWXLYQBY 0
root@arm:~# echo 'NGZL''GQTELN'
NGZLGQTELN
root@arm:~# MARKER='KWBV''QGKJZQ' run 'echo 880000 880000 > /sys/kernel/mva_test//regulators/buck1_set'
KWBVQGKJZQKWBVQGKJZQ 0
root@arm:~# echo 'MLXC''CXPVJU'
MLXCCXPVJU
root@arm:~# MARKER='SCBS''MSYLUG' run 'i2cget -y -f 1 0x4b 0xd'
SCBSMSYLUG0x12
SCBSMSYLUG 0
root@arm:~# echo 'ASQH''KUVBUQ'
ASQHKUVBUQ
root@arm:~# MARKER='SSTW''XGPOXZ' run 'echo 890000 890000 > /sys/kernel/mva_test//regulators/buck1_set'
SSTWXGPOXZSSTWXGPOXZ 0
root@arm:~# echo 'GGKN''QOXQQM'
GGKNQOXQQM
root@arm:~# MARKER='GZEY''FUYFZO' run 'i2cget -y -f 1 0x4b 0xd'
GZEYFUYFZO0x13
GZEYFUYFZO 0
root@arm:~# echo 'XEGX''LWUAMZ'
XEGXLWUAMZ
root@arm:~# MARKER='HOEZ''LBXGZC' run 'echo 900000 900000 > /sys/kernel/mva_test//regulators/buck1_set'
HOEZLBXGZCHOEZLBXGZC 0
root@arm:~# echo 'NSEV''UOZTCC'
NSEVUOZTCC
root@arm:~# MARKER='PJQH''JXHBNY' run 'i2cget -y -f 1 0x4b 0xd'
PJQHJXHBNY0x14
PJQHJXHBNY 0
root@arm:~# echo 'PQES''LFSEOA'
PQESLFSEOA
root@arm:~# MARKER='UZNZ''TVAOXE' run 'echo 910000 910000 > /sys/kernel/mva_test//regulators/buck1_set'
UZNZTVAOXEUZNZTVAOXE 0
root@arm:~# echo 'JUJW''QSCAUP'
JUJWQSCAUP
root@arm:~# MARKER='KPJJ''VWTTOK' run 'i2cget -y -f 1 0x4b 0xd'
KPJJVWTTOK0x15
KPJJVWTTOK 0
root@arm:~# echo 'ZMKJ''MVSVZY'
ZMKJMVSVZY
root@arm:~# MARKER='ESUS''MQSOFX' run 'echo 920000 920000 > /sys/kernel/mva_test//regulators/buck1_set'
ESUSMQSOFXESUSMQSOFX 0
root@arm:~# echo 'MKNS''SWPLQX'
MKNSSWPLQX
root@arm:~# MARKER='LQFJ''ZGLXYS' run 'i2cget -y -f 1 0x4b 0xd'
LQFJZGLXYS0x16
LQFJZGLXYS 0
root@arm:~# echo 'FTUP''EOBEXS'
FTUPEOBEXS
root@arm:~# MARKER='CQYQ''GMMUQF' run 'echo 930000 930000 > /sys/kernel/mva_test//regulators/buck1_set'
CQYQGMMUQFCQYQGMMUQF 0
root@arm:~# echo 'JVBJ''JTWPYC'
JVBJJTWPYC
root@arm:~# MARKER='OTHE''XXCCCX' run 'i2cget -y -f 1 0x4b 0xd'
OTHEXXCCCX0x17
OTHEXXCCCX 0
root@arm:~# echo 'WJQG''WBVKAU'
WJQGWBVKAU
root@arm:~# MARKER='HWAY''OBGAOY' run 'echo 940000 940000 > /sys/kernel/mva_test//regulators/buck1_set'
HWAYOBGAOYHWAYOBGAOY 0
root@arm:~# echo 'NPVF''YXGKXJ'
NPVFYXGKXJ
root@arm:~# MARKER='UBEE''UYVSNB' run 'i2cget -y -f 1 0x4b 0xd'
UBEEUYVSNB0x18
UBEEUYVSNB 0
root@arm:~# echo 'NAOS''YEKWUP'
NAOSYEKWUP
root@arm:~# MARKER='WASL''XKGCAY' run 'echo 950000 950000 > /sys/kernel/mva_test//regulators/buck1_set'
WASLXKGCAYWASLXKGCAY 0
root@arm:~# echo 'HOHN''TVGXKX'
HOHNTVGXKX
root@arm:~# MARKER='SWSQ''PCBFSJ' run 'i2cget -y -f 1 0x4b 0xd'
SWSQPCBFSJ0x19
SWSQPCBFSJ 0
root@arm:~# echo 'OTEK''TAJNVU'
OTEKTAJNVU
root@arm:~# MARKER='SWFB''EEFSSQ' run 'echo 960000 960000 > /sys/kernel/mva_test//regulators/buck1_set'
SWFBEEFSSQSWFBEEFSSQ 0
root@arm:~# echo 'GAOG''AMCBHQ'
GAOGAMCBHQ
root@arm:~# MARKER='WFPF''SQQXVQ' run 'i2cget -y -f 1 0x4b 0xd'
WFPFSQQXVQ0x1a
WFPFSQQXVQ 0
root@arm:~# echo 'QWHH''LJYXAV'
QWHHLJYXAV
root@arm:~# MARKER='LCFP''MJPYJU' run 'echo 970000 970000 > /sys/kernel/mva_test//regulators/buck1_set'
LCFPMJPYJULCFPMJPYJU 0
root@arm:~# echo 'GLFZ''UKCTAC'
GLFZUKCTAC
root@arm:~# MARKER='AAKH''UGJCEE' run 'i2cget -y -f 1 0x4b 0xd'
AAKHUGJCEE0x1b
AAKHUGJCEE 0
root@arm:~# echo 'PAKQ''BBZCQF'
PAKQBBZCQF
root@arm:~# MARKER='OJXE''EBCAQT' run 'echo 980000 980000 > /sys/kernel/mva_test//regulators/buck1_set'
OJXEEBCAQTOJXEEBCAQT 0
root@arm:~# echo 'GGCG''KLGVOH'
GGCGKLGVOH
root@arm:~# MARKER='VOGB''BPLOAM' run 'i2cget -y -f 1 0x4b 0xd'
VOGBBPLOAM0x1c
VOGBBPLOAM 0
root@arm:~# echo 'HEVB''KGFUZN'
HEVBKGFUZN
root@arm:~# MARKER='XHHY''YYEUQT' run 'echo 990000 990000 > /sys/kernel/mva_test//regulators/buck1_set'
XHHYYYEUQTXHHYYYEUQT 0
root@arm:~# echo 'SYEQ''KJGLHY'
SYEQKJGLHY
root@arm:~# MARKER='UCOO''CYTPYV' run 'i2cget -y -f 1 0x4b 0xd'
UCOOCYTPYV0x1d
UCOOCYTPYV 0
root@arm:~# echo 'OGBH''PSPQBN'
OGBHPSPQBN
root@arm:~# MARKER='GWZY''QCNEWH' run 'echo 1000000 1000000 > /sys/kernel/mva_tesst/regulators/buck1_set'
GWZYQCNEWHGWZYQCNEWH 0
root@arm:~# echo 'ZLXO''WQGFZS'
ZLXOWQGFZS
root@arm:~# MARKER='XHVJ''VVVQKH' run 'i2cget -y -f 1 0x4b 0xd'
XHVJVVVQKH0x1e
XHVJVVVQKH 0
root@arm:~# echo 'BXJQ''MGTBCN'
BXJQMGTBCN
root@arm:~# MARKER='PJBA''FLPPMP' run 'echo 1010000 1010000 > /sys/kernel/mva_tesst/regulators/buck1_set'
PJBAFLPPMPPJBAFLPPMP 0
root@arm:~# echo 'VWLK''EPPOHB'
VWLKEPPOHB
root@arm:~# MARKER='HSWW''BSMPTV' run 'i2cget -y -f 1 0x4b 0xd'
HSWWBSMPTV0x1f
HSWWBSMPTV 0
root@arm:~# echo 'MMWE''EPECOT'
MMWEEPECOT
root@arm:~# MARKER='TWEX''GNCHLG' run 'echo 1020000 1020000 > /sys/kernel/mva_tesst/regulators/buck1_set'
TWEXGNCHLGTWEXGNCHLG 0
root@arm:~# echo 'KHVZ''PALNES'
KHVZPALNES
root@arm:~# MARKER='XGWV''LNTVHH' run 'i2cget -y -f 1 0x4b 0xd'
XGWVLNTVHH0x20
XGWVLNTVHH 0
root@arm:~# echo 'KQUY''JZHVMJ'
KQUYJZHVMJ
root@arm:~# MARKER='GLOZ''KKTAEV' run 'echo 1030000 1030000 > /sys/kernel/mva_tesst/regulators/buck1_set'
GLOZKKTAEVGLOZKKTAEV 0
root@arm:~# echo 'OVBO''QANYMT'
OVBOQANYMT
root@arm:~# MARKER='CGGT''LHTQGO' run 'i2cget -y -f 1 0x4b 0xd'
CGGTLHTQGO0x21
CGGTLHTQGO 0
root@arm:~# echo 'WAOA''GFTOMS'
WAOAGFTOMS
root@arm:~# MARKER='XJSS''WJBBON' run 'echo 1040000 1040000 > /sys/kernel/mva_tesst/regulators/buck1_set'
XJSSWJBBONXJSSWJBBON 0
root@arm:~# echo 'MTMP''FKKZWB'
MTMPFKKZWB
root@arm:~# MARKER='AKAL''GAOFWC' run 'i2cget -y -f 1 0x4b 0xd'
AKALGAOFWC0x22
AKALGAOFWC 0
root@arm:~# echo 'WXHJ''KKKTAW'
WXHJKKKTAW
root@arm:~# MARKER='ZUBO''AYKPGK' run 'echo 1050000 1050000 > /sys/kernel/mva_tesst/regulators/buck1_set'
ZUBOAYKPGKZUBOAYKPGK 0
root@arm:~# echo 'WMJL''EAPSBS'
WMJLEAPSBS
root@arm:~# MARKER='ZVCT''OXCNQN' run 'i2cget -y -f 1 0x4b 0xd'
ZVCTOXCNQN0x23
ZVCTOXCNQN 0
root@arm:~# echo 'ZEUB''VUAALG'
ZEUBVUAALG
root@arm:~# MARKER='YOCJ''NEAVBU' run 'echo 1060000 1060000 > /sys/kernel/mva_tesst/regulators/buck1_set'
YOCJNEAVBUYOCJNEAVBU 0
root@arm:~# echo 'LBEQ''SBWXHF'
LBEQSBWXHF
root@arm:~# MARKER='OBZU''OQWVWV' run 'i2cget -y -f 1 0x4b 0xd'
OBZUOQWVWV0x24
OBZUOQWVWV 0
root@arm:~# echo 'ELYK''FMELTG'
ELYKFMELTG
root@arm:~# MARKER='PQLN''WQBQXT' run 'echo 1070000 1070000 > /sys/kernel/mva_tesst/regulators/buck1_set'
PQLNWQBQXTPQLNWQBQXT 0
root@arm:~# echo 'YTCL''FEOSLS'
YTCLFEOSLS
root@arm:~# MARKER='YUAA''ZMJZPN' run 'i2cget -y -f 1 0x4b 0xd'
YUAAZMJZPN0x25
YUAAZMJZPN 0
root@arm:~# echo 'NGJK''TMVFCA'
NGJKTMVFCA
root@arm:~# MARKER='OMVG''CZMCNC' run 'echo 1080000 1080000 > /sys/kernel/mva_tesst/regulators/buck1_set'
OMVGCZMCNCOMVGCZMCNC 0
root@arm:~# echo 'PJGO''WWAEOJ'
PJGOWWAEOJ
root@arm:~# MARKER='VBLV''SYLFBZ' run 'i2cget -y -f 1 0x4b 0xd'
VBLVSYLFBZ0x26
VBLVSYLFBZ 0
root@arm:~# echo 'ZLFT''ZWSSSW'
ZLFTZWSSSW
root@arm:~# MARKER='XXWY''FZENKT' run 'echo 1090000 1090000 > /sys/kernel/mva_tesst/regulators/buck1_set'
XXWYFZENKTXXWYFZENKT 0
root@arm:~# echo 'AJKE''LFNUJW'
AJKELFNUJW
root@arm:~# MARKER='XBQM''AXJECL' run 'i2cget -y -f 1 0x4b 0xd'
XBQMAXJECL0x27
XBQMAXJECL 0
root@arm:~# echo 'OVNW''XQMMXU'
OVNWXQMMXU
root@arm:~# MARKER='JOJH''TNBLTP' run 'echo 1100000 1100000 > /sys/kernel/mva_tesst/regulators/buck1_set'
JOJHTNBLTPJOJHTNBLTP 0
root@arm:~# echo 'ZOVY''OGLZHQ'
ZOVYOGLZHQ
root@arm:~# MARKER='VKPO''SFCKTW' run 'i2cget -y -f 1 0x4b 0xd'
VKPOSFCKTW0x28
VKPOSFCKTW 0
root@arm:~# echo 'TOOB''OUPCJP'
TOOBOUPCJP
root@arm:~# MARKER='OTVB''QUUXOU' run 'echo 1110000 1110000 > /sys/kernel/mva_tesst/regulators/buck1_set'
OTVBQUUXOUOTVBQUUXOU 0
root@arm:~# echo 'TFYN''YLUWGT'
TFYNYLUWGT
root@arm:~# MARKER='TSAY''MKWTWB' run 'i2cget -y -f 1 0x4b 0xd'
TSAYMKWTWB0x29
TSAYMKWTWB 0
root@arm:~# echo 'XHZT''HAOJLC'
XHZTHAOJLC
root@arm:~# MARKER='ZMLO''VYTOMA' run 'echo 1120000 1120000 > /sys/kernel/mva_tesst/regulators/buck1_set'
ZMLOVYTOMAZMLOVYTOMA 0
root@arm:~# echo 'GYVW''WWMTHH'
GYVWWWMTHH
root@arm:~# MARKER='TBTG''EFPKWZ' run 'i2cget -y -f 1 0x4b 0xd'
TBTGEFPKWZ0x2a
TBTGEFPKWZ 0
root@arm:~# echo 'MTCK''MLVYVP'
MTCKMLVYVP
root@arm:~# MARKER='QCAP''ZVLTVA' run 'echo 1130000 1130000 > /sys/kernel/mva_tesst/regulators/buck1_set'
QCAPZVLTVAQCAPZVLTVA 0
root@arm:~# echo 'GVUJ''MMSHUV'
GVUJMMSHUV
root@arm:~# MARKER='NPYS''UTTNFK' run 'i2cget -y -f 1 0x4b 0xd'
NPYSUTTNFK0x2b
NPYSUTTNFK 0
root@arm:~# echo 'GVAQ''HOOAFQ'
GVAQHOOAFQ
root@arm:~# MARKER='MWGK''NLOGBJ' run 'echo 1140000 1140000 > /sys/kernel/mva_tesst/regulators/buck1_set'
MWGKNLOGBJMWGKNLOGBJ 0
root@arm:~# echo 'YEEA''OHVMHF'
YEEAOHVMHF
root@arm:~# MARKER='OJAW''LUPZLT' run 'i2cget -y -f 1 0x4b 0xd'
OJAWLUPZLT0x2c
OJAWLUPZLT 0
root@arm:~# echo 'HLXB''CCQNAW'
HLXBCCQNAW
root@arm:~# MARKER='CCPP''NOKEKQ' run 'echo 1150000 1150000 > /sys/kernel/mva_tesst/regulators/buck1_set'
CCPPNOKEKQCCPPNOKEKQ 0
root@arm:~# echo 'HKEF''CWAWBQ'
HKEFCWAWBQ
root@arm:~# MARKER='MLZJ''LVBLBP' run 'i2cget -y -f 1 0x4b 0xd'
MLZJLVBLBP0x2d
MLZJLVBLBP 0
root@arm:~# echo 'AYZB''JKPFTV'
AYZBJKPFTV
root@arm:~# MARKER='WUSW''FZKSSZ' run 'echo 1160000 1160000 > /sys/kernel/mva_tesst/regulators/buck1_set'
WUSWFZKSSZWUSWFZKSSZ 0
root@arm:~# echo 'CXBA''WWTZNH'
CXBAWWTZNH
root@arm:~# MARKER='KJTG''STHQBV' run 'i2cget -y -f 1 0x4b 0xd'
KJTGSTHQBV0x2e
KJTGSTHQBV 0
root@arm:~# echo 'OXHL''LEWBOC'
OXHLLEWBOC
root@arm:~# MARKER='TBAG''EZELJF' run 'echo 1170000 1170000 > /sys/kernel/mva_tesst/regulators/buck1_set'
TBAGEZELJFTBAGEZELJF 0
root@arm:~# echo 'BSYP''VTKNHY'
BSYPVTKNHY
root@arm:~# MARKER='QLQW''PMGMTA' run 'i2cget -y -f 1 0x4b 0xd'
QLQWPMGMTA0x2f
QLQWPMGMTA 0
root@arm:~# echo 'GVBN''CUQASO'
GVBNCUQASO
root@arm:~# MARKER='BGLC''HPUOZK' run 'echo 1180000 1180000 > /sys/kernel/mva_tesst/regulators/buck1_set'
BGLCHPUOZKBGLCHPUOZK 0
root@arm:~# echo 'KHXT''YTXYCC'
KHXTYTXYCC
root@arm:~# MARKER='NLNM''FOAZWV' run 'i2cget -y -f 1 0x4b 0xd'
NLNMFOAZWV0x30
NLNMFOAZWV 0
root@arm:~# echo 'GVVE''ZFUOXF'
GVVEZFUOXF
root@arm:~# MARKER='UUZP''YLSHQU' run 'echo 1190000 1190000 > /sys/kernel/mva_tesst/regulators/buck1_set'
UUZPYLSHQUUUZPYLSHQU 0
root@arm:~# echo 'TABJ''UWJTQE'
TABJUWJTQE
root@arm:~# MARKER='QYEM''JONYVY' run 'i2cget -y -f 1 0x4b 0xd'
QYEMJONYVY0x31
QYEMJONYVY 0
root@arm:~# echo 'WGOC''HWWKSA'
WGOCHWWKSA
root@arm:~# MARKER='KOZZ''QZQOHC' run 'echo 1200000 1200000 > /sys/kernel/mva_tesst/regulators/buck1_set'
KOZZQZQOHCKOZZQZQOHC 0
root@arm:~# echo 'CPSM''OYUUKM'
CPSMOYUUKM
root@arm:~# MARKER='SJCH''EEQKUY' run 'i2cget -y -f 1 0x4b 0xd'
SJCHEEQKUY0x32
SJCHEEQKUY 0
root@arm:~# echo 'GLEA''AVGAPF'
GLEAAVGAPF
root@arm:~# MARKER='CNHQ''APKGYT' run 'echo 1210000 1210000 > /sys/kernel/mva_tesst/regulators/buck1_set'
CNHQAPKGYTCNHQAPKGYT 0
root@arm:~# echo 'BWYU''XJXNHG'
BWYUXJXNHG
root@arm:~# MARKER='FLUX''EGOHSG' run 'i2cget -y -f 1 0x4b 0xd'
FLUXEGOHSG0x33
FLUXEGOHSG 0
root@arm:~# echo 'LYGZ''PBKMQZ'
LYGZPBKMQZ
root@arm:~# MARKER='ZLJG''NLOPZN' run 'echo 1220000 1220000 > /sys/kernel/mva_tesst/regulators/buck1_set'
ZLJGNLOPZNZLJGNLOPZN 0
root@arm:~# echo 'ZTBU''MZKTBQ'
ZTBUMZKTBQ
root@arm:~# MARKER='BMTQ''EJZZXW' run 'i2cget -y -f 1 0x4b 0xd'
BMTQEJZZXW0x34
BMTQEJZZXW 0
root@arm:~# echo 'MJOY''AGQKEY'
MJOYAGQKEY
root@arm:~# MARKER='QFHP''XZWPEF' run 'echo 1230000 1230000 > /sys/kernel/mva_tesst/regulators/buck1_set'
QFHPXZWPEFQFHPXZWPEF 0
root@arm:~# echo 'GSNZ''HBHNTN'
GSNZHBHNTN
root@arm:~# MARKER='HEGE''OAKAOM' run 'i2cget -y -f 1 0x4b 0xd'
HEGEOAKAOM0x35
HEGEOAKAOM 0
root@arm:~# echo 'NJJS''MNUGXM'
NJJSMNUGXM
root@arm:~# MARKER='JHML''TUPAPN' run 'echo 1240000 1240000 > /sys/kernel/mva_tesst/regulators/buck1_set'
JHMLTUPAPNJHMLTUPAPN 0
root@arm:~# echo 'SKZP''AKYWPW'
SKZPAKYWPW
root@arm:~# MARKER='EZSL''FLMNPC' run 'i2cget -y -f 1 0x4b 0xd'
EZSLFLMNPC0x36
EZSLFLMNPC 0
root@arm:~# echo 'PAUC''MBNEFJ'
PAUCMBNEFJ
root@arm:~# MARKER='LGMC''GTUYOT' run 'echo 1250000 1250000 > /sys/kernel/mva_tesst/regulators/buck1_set'
LGMCGTUYOTLGMCGTUYOT 0
root@arm:~# echo 'FAHG''UNKSYC'
FAHGUNKSYC
root@arm:~# MARKER='APEJ''JGGPNO' run 'i2cget -y -f 1 0x4b 0xd'
APEJJGGPNO0x37
APEJJGGPNO 0
root@arm:~# echo 'KXUC''AEMLTM'
KXUCAEMLTM
root@arm:~# MARKER='GPEE''HBLMWV' run 'echo 1260000 1260000 > /sys/kernel/mva_tesst/regulators/buck1_set'
GPEEHBLMWVGPEEHBLMWV 0
root@arm:~# echo 'CAEU''AEXTKX'
CAEUAEXTKX
root@arm:~# MARKER='NSQE''XMFHOX' run 'i2cget -y -f 1 0x4b 0xd'
NSQEXMFHOX0x38
NSQEXMFHOX 0
root@arm:~# echo 'GMYP''CPBPML'
GMYPCPBPML
root@arm:~# MARKER='ELKH''CFVVBG' run 'echo 1270000 1270000 > /sys/kernel/mva_tesst/regulators/buck1_set'
ELKHCFVVBGELKHCFVVBG 0
root@arm:~# echo 'UBPA''UGUQHF'
UBPAUGUQHF
root@arm:~# MARKER='PWOB''ZEMSKS' run 'i2cget -y -f 1 0x4b 0xd'
PWOBZEMSKS0x39
PWOBZEMSKS 0
root@arm:~# echo 'AQOX''OPFMYO'
AQOXOPFMYO
root@arm:~# MARKER='QYHG''YNQOOG' run 'echo 1280000 1280000 > /sys/kernel/mva_tesst/regulators/buck1_set'
QYHGYNQOOGQYHGYNQOOG 0
root@arm:~# echo 'QOOL''TNFEAM'
QOOLTNFEAM
root@arm:~# MARKER='ZBLB''LZOHXV' run 'i2cget -y -f 1 0x4b 0xd'
ZBLBLZOHXV0x3a
ZBLBLZOHXV 0
root@arm:~# echo 'XNZO''YGPXLJ'
XNZOYGPXLJ
root@arm:~# MARKER='ANSN''CSLEVX' run 'echo 1290000 1290000 > /sys/kernel/mva_tesst/regulators/buck1_set'
ANSNCSLEVXANSNCSLEVX 0
root@arm:~# echo 'FZGY''XEQPXH'
FZGYXEQPXH
root@arm:~# MARKER='VNWA''EQNHWF' run 'i2cget -y -f 1 0x4b 0xd'
VNWAEQNHWF0x3b
VNWAEQNHWF 0
root@arm:~# echo 'XVLV''GEVUWG'
XVLVGEVUWG
root@arm:~# MARKER='KQPQ''CTYOFM' run 'echo 1300000 1300000 > /sys/kernel/mva_tesst/regulators/buck1_set'
KQPQCTYOFMKQPQCTYOFM 0
root@arm:~# echo 'NQMS''KZOYNP'
NQMSKZOYNP
root@arm:~# MARKER='FOGW''FLCNHN' run 'i2cget -y -f 1 0x4b 0xd'
FOGWFLCNHN0x3c
FOGWFLCNHN 0
root@arm:~# echo 'FLAP''VFGMTW'
FLAPVFGMTW
root@arm:~# MARKER='JLUX''ZSHUNK' run 'grep -r -l rohm,bd71847 /proc/device-tree  | sed '"'"'s![^/]*$!!'"'"''
JLUXZSHUNK/proc/device-tree/ocp/interconnect@48000000/segment@0/target-module@2a000/i2c@0/pmic@4b/
JLUXZSHUNK 0
root@arm:~# echo 'YTVH''OOKBUH'
YTVHOOKBUH
root@arm:~# MARKER='GWLT''QAHJTW' run 'test -f /proc/device-tree/ocp/interconnectt\@48000000/segment\@0/target-module\@2a000/i2c\@0/pmic\@4b/regulators/BUCK2/rohmm,no-regulator-enable-control ;echo $?'
GWLTQAHJTW1
GWLTQAHJTW 0
root@arm:~# echo 'OAGS''SPKOTZ'
OAGSSPKOTZ
root@arm:~# MARKER='OTEX''UQWYAS' run 'i2cget -y -f 1 0x4b 0x6'
OTEXUQWYAS0x43
OTEXUQWYAS 0
root@arm:~# echo 'XBOM''MSWFLN'
XBOMMSWFLN
root@arm:~# MARKER='CFTW''KHPXHE' run 'echo 700000 700000 > /sys/kernel/mva_test//regulators/buck2_set'
CFTWKHPXHECFTWKHPXHE 0
root@arm:~# echo 'EXPP''OSFOQM'
EXPPOSFOQM
root@arm:~# MARKER='VXCE''LZOOHQ' run 'i2cget -y -f 1 0x4b 0x10'
VXCELZOOHQ0x00
VXCELZOOHQ 0
root@arm:~# echo 'QHNN''JMBHAB'
QHNNJMBHAB
root@arm:~# MARKER='ZYKS''LKJLHN' run 'echo 710000 710000 > /sys/kernel/mva_test//regulators/buck2_set'
ZYKSLKJLHNZYKSLKJLHN 0
root@arm:~# echo 'HAFC''XLEFPL'
HAFCXLEFPL
root@arm:~# MARKER='OFSH''YCWQBF' run 'i2cget -y -f 1 0x4b 0x10'
OFSHYCWQBF0x01
OFSHYCWQBF 0
root@arm:~# echo 'VTMK''GEAFHB'
VTMKGEAFHB
root@arm:~# MARKER='KJSY''NLZUNH' run 'echo 720000 720000 > /sys/kernel/mva_test//regulators/buck2_set'
KJSYNLZUNHKJSYNLZUNH 0
root@arm:~# echo 'JAJS''SWYCAT'
JAJSSWYCAT
root@arm:~# MARKER='MZFE''BZZCUE' run 'i2cget -y -f 1 0x4b 0x10'
MZFEBZZCUE0x02
MZFEBZZCUE 0
root@arm:~# echo 'WFCQ''UBNYMY'
WFCQUBNYMY
root@arm:~# MARKER='EGYS''CEFQSX' run 'echo 730000 730000 > /sys/kernel/mva_test//regulators/buck2_set'
EGYSCEFQSXEGYSCEFQSX 0
root@arm:~# echo 'SGUV''JFYQQU'
SGUVJFYQQU
root@arm:~# MARKER='JGUY''OKZBAL' run 'i2cget -y -f 1 0x4b 0x10'
JGUYOKZBAL0x03
JGUYOKZBAL 0
root@arm:~# echo 'SCVT''XMLCXO'
SCVTXMLCXO
root@arm:~# MARKER='SANM''PKCSJS' run 'echo 740000 740000 > /sys/kernel/mva_test//regulators/buck2_set'
SANMPKCSJSSANMPKCSJS 0
root@arm:~# echo 'FVEY''BVBCLX'
FVEYBVBCLX
root@arm:~# MARKER='LWLG''QKSYSS' run 'i2cget -y -f 1 0x4b 0x10'
LWLGQKSYSS0x04
LWLGQKSYSS 0
root@arm:~# echo 'FBBH''HFYHAC'
FBBHHFYHAC
root@arm:~# MARKER='SUQS''YSCEVA' run 'echo 750000 750000 > /sys/kernel/mva_test//regulators/buck2_set'
SUQSYSCEVASUQSYSCEVA 0
root@arm:~# echo 'QAJU''EYGYCO'
QAJUEYGYCO
root@arm:~# MARKER='OYCA''GFQEBW' run 'i2cget -y -f 1 0x4b 0x10'
OYCAGFQEBW0x05
OYCAGFQEBW 0
root@arm:~# echo 'MAEF''KOCLBH'
MAEFKOCLBH
root@arm:~# MARKER='NANX''YMPBHX' run 'echo 760000 760000 > /sys/kernel/mva_test//regulators/buck2_set'
NANXYMPBHXNANXYMPBHX 0
root@arm:~# echo 'WSVA''YXYBKV'
WSVAYXYBKV
root@arm:~# MARKER='OEBP''YLWPAK' run 'i2cget -y -f 1 0x4b 0x10'
OEBPYLWPAK0x06
OEBPYLWPAK 0
root@arm:~# echo 'ZPVQ''HUBKTW'
ZPVQHUBKTW
root@arm:~# MARKER='FFBK''ZLSBJS' run 'echo 770000 770000 > /sys/kernel/mva_test//regulators/buck2_set'
FFBKZLSBJSFFBKZLSBJS 0
root@arm:~# echo 'BCNM''YKVATW'
BCNMYKVATW
root@arm:~# MARKER='SYBF''KXLHOT' run 'i2cget -y -f 1 0x4b 0x10'
SYBFKXLHOT0x07
SYBFKXLHOT 0
root@arm:~# echo 'YLCC''LHVKKK'
YLCCLHVKKK
root@arm:~# MARKER='SKVJ''VGHEBC' run 'echo 780000 780000 > /sys/kernel/mva_test//regulators/buck2_set'
SKVJVGHEBCSKVJVGHEBC 0
root@arm:~# echo 'LPPE''XYYUPN'
LPPEXYYUPN
root@arm:~# MARKER='XTUP''AHOLAJ' run 'i2cget -y -f 1 0x4b 0x10'
XTUPAHOLAJ0x08
XTUPAHOLAJ 0
root@arm:~# echo 'LTET''QFSJFH'
LTETQFSJFH
root@arm:~# MARKER='BZBC''NAGEYJ' run 'echo 790000 790000 > /sys/kernel/mva_test//regulators/buck2_set'
BZBCNAGEYJBZBCNAGEYJ 0
root@arm:~# echo 'ZECW''WFWXXG'
ZECWWFWXXG
root@arm:~# MARKER='KMPO''YMQANN' run 'i2cget -y -f 1 0x4b 0x10'
KMPOYMQANN0x09
KMPOYMQANN 0
root@arm:~# echo 'JYCM''UMLENM'
JYCMUMLENM
root@arm:~# MARKER='TEVT''HFJMTT' run 'echo 800000 800000 > /sys/kernel/mva_test//regulators/buck2_set'
TEVTHFJMTTTEVTHFJMTT 0
root@arm:~# echo 'UFLX''KNEHUB'
UFLXKNEHUB
root@arm:~# MARKER='PPBO''QCWUQF' run 'i2cget -y -f 1 0x4b 0x10'
PPBOQCWUQF0x0a
PPBOQCWUQF 0
root@arm:~# echo 'JKMH''SUGATU'
JKMHSUGATU
root@arm:~# MARKER='CGLW''QBZBKC' run 'echo 810000 810000 > /sys/kernel/mva_test//regulators/buck2_set'
CGLWQBZBKCCGLWQBZBKC 0
root@arm:~# echo 'SPHC''UFVACG'
SPHCUFVACG
root@arm:~# MARKER='TYWU''LMEXLH' run 'i2cget -y -f 1 0x4b 0x10'
TYWULMEXLH0x0b
TYWULMEXLH 0
root@arm:~# echo 'UMMO''ZYUEOJ'
UMMOZYUEOJ
root@arm:~# MARKER='KQPG''WPZHBX' run 'echo 820000 820000 > /sys/kernel/mva_test//regulators/buck2_set'
KQPGWPZHBXKQPGWPZHBX 0
root@arm:~# echo 'YCVS''WQXTVZ'
YCVSWQXTVZ
root@arm:~# MARKER='NNLK''JBCTQA' run 'i2cget -y -f 1 0x4b 0x10'
NNLKJBCTQA0x0c
NNLKJBCTQA 0
root@arm:~# echo 'SZJZ''JZANEG'
SZJZJZANEG
root@arm:~# MARKER='VPBB''AGKYBE' run 'echo 830000 830000 > /sys/kernel/mva_test//regulators/buck2_set'
VPBBAGKYBEVPBBAGKYBE 0
root@arm:~# echo 'MCOQ''QPCUHW'
MCOQQPCUHW
root@arm:~# MARKER='PMHO''LCFHLB' run 'i2cget -y -f 1 0x4b 0x10'
PMHOLCFHLB0x0d
PMHOLCFHLB 0
root@arm:~# echo 'PYGG''AFQMTO'
PYGGAFQMTO
root@arm:~# MARKER='VUYA''FVJJNK' run 'echo 840000 840000 > /sys/kernel/mva_test//regulators/buck2_set'
VUYAFVJJNKVUYAFVJJNK 0
root@arm:~# echo 'MMMM''FXGLHL'
MMMMFXGLHL
root@arm:~# MARKER='LCMT''SSQBOG' run 'i2cget -y -f 1 0x4b 0x10'
LCMTSSQBOG0x0e
LCMTSSQBOG 0
root@arm:~# echo 'XAUG''KLPAVU'
XAUGKLPAVU
root@arm:~# MARKER='HOKQ''QLCJKX' run 'echo 850000 850000 > /sys/kernel/mva_test//regulators/buck2_set'
HOKQQLCJKXHOKQQLCJKX 0
root@arm:~# echo 'VOXY''FUHEMS'
VOXYFUHEMS
root@arm:~# MARKER='QXJO''GASYAN' run 'i2cget -y -f 1 0x4b 0x10'
QXJOGASYAN0x0f
QXJOGASYAN 0
root@arm:~# echo 'GNAM''AQTXCN'
GNAMAQTXCN
root@arm:~# MARKER='YSJY''QAKLSC' run 'echo 860000 860000 > /sys/kernel/mva_test//regulators/buck2_set'
YSJYQAKLSCYSJYQAKLSC 0
root@arm:~# echo 'LYWN''KOMBKA'
LYWNKOMBKA
root@arm:~# MARKER='LPHJ''KSLVMO' run 'i2cget -y -f 1 0x4b 0x10'
LPHJKSLVMO0x10
LPHJKSLVMO 0
root@arm:~# echo 'GZEN''LNXZOE'
GZENLNXZOE
root@arm:~# MARKER='OHWM''FQPLXU' run 'echo 870000 870000 > /sys/kernel/mva_test//regulators/buck2_set'
OHWMFQPLXUOHWMFQPLXU 0
root@arm:~# echo 'UFEV''ZGYKXO'
UFEVZGYKXO
root@arm:~# MARKER='QLBJ''MOPUBO' run 'i2cget -y -f 1 0x4b 0x10'
QLBJMOPUBO0x11
QLBJMOPUBO 0
root@arm:~# echo 'LAWP''LFMMBS'
LAWPLFMMBS
root@arm:~# MARKER='WVLU''MZXKPF' run 'echo 880000 880000 > /sys/kernel/mva_test//regulators/buck2_set'
WVLUMZXKPFWVLUMZXKPF 0
root@arm:~# echo 'MAJY''XZWLBB'
MAJYXZWLBB
root@arm:~# MARKER='XOZH''NFBBSQ' run 'i2cget -y -f 1 0x4b 0x10'
XOZHNFBBSQ0x12
XOZHNFBBSQ 0
root@arm:~# echo 'YHYV''FSLOUA'
YHYVFSLOUA
root@arm:~# MARKER='OKEF''COJTBZ' run 'echo 890000 890000 > /sys/kernel/mva_test//regulators/buck2_set'
OKEFCOJTBZOKEFCOJTBZ 0
root@arm:~# echo 'FUHN''YALYQV'
FUHNYALYQV
root@arm:~# MARKER='PJJJ''PAAUBT' run 'i2cget -y -f 1 0x4b 0x10'
PJJJPAAUBT0x13
PJJJPAAUBT 0
root@arm:~# echo 'ETGL''NPTXCM'
ETGLNPTXCM
root@arm:~# MARKER='XQNQ''VPOCFQ' run 'echo 900000 900000 > /sys/kernel/mva_test//regulators/buck2_set'
XQNQVPOCFQXQNQVPOCFQ 0
root@arm:~# echo 'LCKL''JZKJXS'
LCKLJZKJXS
root@arm:~# MARKER='UJHM''WQXXCM' run 'i2cget -y -f 1 0x4b 0x10'
UJHMWQXXCM0x14
UJHMWQXXCM 0
root@arm:~# echo 'CQCU''VNEFYT'
CQCUVNEFYT
root@arm:~# MARKER='MBYZ''YYBKGW' run 'echo 910000 910000 > /sys/kernel/mva_test//regulators/buck2_set'
MBYZYYBKGWMBYZYYBKGW 0
root@arm:~# echo 'MVPS''ZZTSZP'
MVPSZZTSZP
root@arm:~# MARKER='XEHS''UOFUOK' run 'i2cget -y -f 1 0x4b 0x10'
XEHSUOFUOK0x15
XEHSUOFUOK 0
root@arm:~# echo 'NMOM''UOZAXG'
NMOMUOZAXG
root@arm:~# MARKER='MVQY''KNUGWL' run 'echo 920000 920000 > /sys/kernel/mva_test//regulators/buck2_set'
MVQYKNUGWLMVQYKNUGWL 0
root@arm:~# echo 'MFLY''OFVHNK'
MFLYOFVHNK
root@arm:~# MARKER='CCNU''WFZJQK' run 'i2cget -y -f 1 0x4b 0x10'
CCNUWFZJQK0x16
CCNUWFZJQK 0
root@arm:~# echo 'LOAH''VQMLAU'
LOAHVQMLAU
root@arm:~# MARKER='KLST''MPNKES' run 'echo 930000 930000 > /sys/kernel/mva_test//regulators/buck2_set'
KLSTMPNKESKLSTMPNKES 0
root@arm:~# echo 'NZAN''SKTTVX'
NZANSKTTVX
root@arm:~# MARKER='HMNH''KLBOCT' run 'i2cget -y -f 1 0x4b 0x10'
HMNHKLBOCT0x17
HMNHKLBOCT 0
root@arm:~# echo 'WSHM''BEZVTK'
WSHMBEZVTK
root@arm:~# MARKER='QQSP''BCQOWY' run 'echo 940000 940000 > /sys/kernel/mva_test//regulators/buck2_set'
QQSPBCQOWYQQSPBCQOWY 0
root@arm:~# echo 'JWWW''KPKSWN'
JWWWKPKSWN
root@arm:~# MARKER='ZZQS''XCNPWX' run 'i2cget -y -f 1 0x4b 0x10'
ZZQSXCNPWX0x18
ZZQSXCNPWX 0
root@arm:~# echo 'BBWJ''QCHPMH'
BBWJQCHPMH
root@arm:~# MARKER='KMEQ''YVYOCH' run 'echo 950000 950000 > /sys/kernel/mva_test//regulators/buck2_set'
KMEQYVYOCHKMEQYVYOCH 0
root@arm:~# echo 'JWUU''BXQYJM'
JWUUBXQYJM
root@arm:~# MARKER='JWVU''OVLHNY' run 'i2cget -y -f 1 0x4b 0x10'
JWVUOVLHNY0x19
JWVUOVLHNY 0
root@arm:~# echo 'THSL''HCECEF'
THSLHCECEF
root@arm:~# MARKER='NEKY''ZUUVCM' run 'echo 960000 960000 > /sys/kernel/mva_test//regulators/buck2_set'
NEKYZUUVCMNEKYZUUVCM 0
root@arm:~# echo 'KTTN''MGYZQK'
KTTNMGYZQK
root@arm:~# MARKER='FPHS''KTVYNY' run 'i2cget -y -f 1 0x4b 0x10'
FPHSKTVYNY0x1a
FPHSKTVYNY 0
root@arm:~# echo 'CKFB''JVUNXG'
CKFBJVUNXG
root@arm:~# MARKER='YBAF''VXHNCA' run 'echo 970000 970000 > /sys/kernel/mva_test//regulators/buck2_set'
YBAFVXHNCAYBAFVXHNCA 0
root@arm:~# echo 'HQXL''ZHNEKN'
HQXLZHNEKN
root@arm:~# MARKER='CPBF''PAKOGH' run 'i2cget -y -f 1 0x4b 0x10'
CPBFPAKOGH0x1b
CPBFPAKOGH 0
root@arm:~# echo 'KATG''NZGLLF'
KATGNZGLLF
root@arm:~# MARKER='TYSV''OFVNUM' run 'echo 980000 980000 > /sys/kernel/mva_test//regulators/buck2_set'
TYSVOFVNUMTYSVOFVNUM 0
root@arm:~# echo 'LUKM''EAJVUN'
LUKMEAJVUN
root@arm:~# MARKER='SVQK''WTZXNS' run 'i2cget -y -f 1 0x4b 0x10'
SVQKWTZXNS0x1c
SVQKWTZXNS 0
root@arm:~# echo 'BCKS''YAXSFK'
BCKSYAXSFK
root@arm:~# MARKER='XCYJ''SQMSHK' run 'echo 990000 990000 > /sys/kernel/mva_test//regulators/buck2_set'
XCYJSQMSHKXCYJSQMSHK 0
root@arm:~# echo 'KTQS''YKMTYZ'
KTQSYKMTYZ
root@arm:~# MARKER='ETTX''EKKVWW' run 'i2cget -y -f 1 0x4b 0x10'
ETTXEKKVWW0x1d
ETTXEKKVWW 0
root@arm:~# echo 'TWKA''PNHONF'
TWKAPNHONF
root@arm:~# MARKER='KCHN''UPJBPH' run 'echo 1000000 1000000 > /sys/kernel/mva_tesst/regulators/buck2_set'
KCHNUPJBPHKCHNUPJBPH 0
root@arm:~# echo 'PSOZ''HSNYKS'
PSOZHSNYKS
root@arm:~# MARKER='TZOW''CCAYNS' run 'i2cget -y -f 1 0x4b 0x10'
TZOWCCAYNS0x1e
TZOWCCAYNS 0
root@arm:~# echo 'XZSZ''GVLSHS'
XZSZGVLSHS
root@arm:~# MARKER='AVWO''GGNVTP' run 'echo 1010000 1010000 > /sys/kernel/mva_tesst/regulators/buck2_set'
AVWOGGNVTPAVWOGGNVTP 0
root@arm:~# echo 'UZAP''NLBGCG'
UZAPNLBGCG
root@arm:~# MARKER='GTEL''CFGOXE' run 'i2cget -y -f 1 0x4b 0x10'
GTELCFGOXE0x1f
GTELCFGOXE 0
root@arm:~# echo 'MLKO''AVVFBN'
MLKOAVVFBN
root@arm:~# MARKER='AYUF''QAZUFU' run 'echo 1020000 1020000 > /sys/kernel/mva_tesst/regulators/buck2_set'
AYUFQAZUFUAYUFQAZUFU 0
root@arm:~# echo 'FKAS''BOTQEN'
FKASBOTQEN
root@arm:~# MARKER='SPQB''OTOBHJ' run 'i2cget -y -f 1 0x4b 0x10'
SPQBOTOBHJ0x20
SPQBOTOBHJ 0
root@arm:~# echo 'WGOE''SXFCXP'
WGOESXFCXP
root@arm:~# MARKER='KPZJ''NAXMGK' run 'echo 1030000 1030000 > /sys/kernel/mva_tesst/regulators/buck2_set'
KPZJNAXMGKKPZJNAXMGK 0
root@arm:~# echo 'ASOS''JXXBCC'
ASOSJXXBCC
root@arm:~# MARKER='XKTJ''BGYGEJ' run 'i2cget -y -f 1 0x4b 0x10'
XKTJBGYGEJ0x21
XKTJBGYGEJ 0
root@arm:~# echo 'NJUB''ZOBKYE'
NJUBZOBKYE
root@arm:~# MARKER='XFTG''QWJJEY' run 'echo 1040000 1040000 > /sys/kernel/mva_tesst/regulators/buck2_set'
XFTGQWJJEYXFTGQWJJEY 0
root@arm:~# echo 'QVJJ''FBOOMT'
QVJJFBOOMT
root@arm:~# MARKER='GFVG''ZUTOSE' run 'i2cget -y -f 1 0x4b 0x10'
GFVGZUTOSE0x22
GFVGZUTOSE 0
root@arm:~# echo 'TTCC''NWQGBG'
TTCCNWQGBG
root@arm:~# MARKER='CCJC''CFOJQS' run 'echo 1050000 1050000 > /sys/kernel/mva_tesst/regulators/buck2_set'
CCJCCFOJQSCCJCCFOJQS 0
root@arm:~# echo 'JEAY''TSOUHB'
JEAYTSOUHB
root@arm:~# MARKER='MZBZ''JQVPJM' run 'i2cget -y -f 1 0x4b 0x10'
MZBZJQVPJM0x23
MZBZJQVPJM 0
root@arm:~# echo 'KWGG''ESJOXQ'
KWGGESJOXQ
root@arm:~# MARKER='NFBN''YCNTGY' run 'echo 1060000 1060000 > /sys/kernel/mva_tesst/regulators/buck2_set'
NFBNYCNTGYNFBNYCNTGY 0
root@arm:~# echo 'ZZXE''EJJFHZ'
ZZXEEJJFHZ
root@arm:~# MARKER='NOLB''BQUNVZ' run 'i2cget -y -f 1 0x4b 0x10'
NOLBBQUNVZ0x24
NOLBBQUNVZ 0
root@arm:~# echo 'MBEN''WJMLJO'
MBENWJMLJO
root@arm:~# MARKER='QGZE''WVPVMO' run 'echo 1070000 1070000 > /sys/kernel/mva_tesst/regulators/buck2_set'
QGZEWVPVMOQGZEWVPVMO 0
root@arm:~# echo 'YKSV''SHGHQG'
YKSVSHGHQG
root@arm:~# MARKER='XTNV''UYEHSX' run 'i2cget -y -f 1 0x4b 0x10'
XTNVUYEHSX0x25
XTNVUYEHSX 0
root@arm:~# echo 'HGYY''AEFWSQ'
HGYYAEFWSQ
root@arm:~# MARKER='AFEP''PPYNTW' run 'echo 1080000 1080000 > /sys/kernel/mva_tesst/regulators/buck2_set'
AFEPPPYNTWAFEPPPYNTW 0
root@arm:~# echo 'PKZA''FMQFVC'
PKZAFMQFVC
root@arm:~# MARKER='FULL''SQNJYM' run 'i2cget -y -f 1 0x4b 0x10'
FULLSQNJYM0x26
FULLSQNJYM 0
root@arm:~# echo 'JEFJ''QXJKNS'
JEFJQXJKNS
root@arm:~# MARKER='WWTN''OQSKYP' run 'echo 1090000 1090000 > /sys/kernel/mva_tesst/regulators/buck2_set'
WWTNOQSKYPWWTNOQSKYP 0
root@arm:~# echo 'AZWM''VOYJAL'
AZWMVOYJAL
root@arm:~# MARKER='BATL''XZNPFP' run 'i2cget -y -f 1 0x4b 0x10'
BATLXZNPFP0x27
BATLXZNPFP 0
root@arm:~# echo 'EGLA''SZLJKV'
EGLASZLJKV
root@arm:~# MARKER='LQWX''SMOAZW' run 'echo 1100000 1100000 > /sys/kernel/mva_tesst/regulators/buck2_set'
LQWXSMOAZWLQWXSMOAZW 0
root@arm:~# echo 'TUBN''SYUUHT'
TUBNSYUUHT
root@arm:~# MARKER='HNPX''CLQNXY' run 'i2cget -y -f 1 0x4b 0x10'
HNPXCLQNXY0x28
HNPXCLQNXY 0
root@arm:~# echo 'NVUA''GGPMUZ'
NVUAGGPMUZ
root@arm:~# MARKER='GYHB''CCVACC' run 'echo 1110000 1110000 > /sys/kernel/mva_tesst/regulators/buck2_set'
GYHBCCVACCGYHBCCVACC 0
root@arm:~# echo 'LYBF''TSUELP'
LYBFTSUELP
root@arm:~# MARKER='WJES''FKLJZL' run 'i2cget -y -f 1 0x4b 0x10'
WJESFKLJZL0x29
WJESFKLJZL 0
root@arm:~# echo 'UUWU''CAXWCN'
UUWUCAXWCN
root@arm:~# MARKER='YXVY''NMHGZY' run 'echo 1120000 1120000 > /sys/kernel/mva_tesst/regulators/buck2_set'
YXVYNMHGZYYXVYNMHGZY 0
root@arm:~# echo 'JLXZ''CCYJAL'
JLXZCCYJAL
root@arm:~# MARKER='NLOW''SLOAYJ' run 'i2cget -y -f 1 0x4b 0x10'
NLOWSLOAYJ0x2a
NLOWSLOAYJ 0
root@arm:~# echo 'GGLZ''KAVOKH'
GGLZKAVOKH
root@arm:~# MARKER='BWFY''GGFQKA' run 'echo 1130000 1130000 > /sys/kernel/mva_tesst/regulators/buck2_set'
BWFYGGFQKABWFYGGFQKA 0
root@arm:~# echo 'XTWX''QLQHXK'
XTWXQLQHXK
root@arm:~# MARKER='XOHK''PHLUUQ' run 'i2cget -y -f 1 0x4b 0x10'
XOHKPHLUUQ0x2b
XOHKPHLUUQ 0
root@arm:~# echo 'FEQK''BMWJPU'
FEQKBMWJPU
root@arm:~# MARKER='HZWB''VFVQFQ' run 'echo 1140000 1140000 > /sys/kernel/mva_tesst/regulators/buck2_set'
HZWBVFVQFQHZWBVFVQFQ 0
root@arm:~# echo 'OKZF''WPAMKA'
OKZFWPAMKA
root@arm:~# MARKER='MVWN''EVMKJW' run 'i2cget -y -f 1 0x4b 0x10'
MVWNEVMKJW0x2c
MVWNEVMKJW 0
root@arm:~# echo 'CTBU''SKYAON'
CTBUSKYAON
root@arm:~# MARKER='GJBA''HOQXHS' run 'echo 1150000 1150000 > /sys/kernel/mva_tesst/regulators/buck2_set'
GJBAHOQXHSGJBAHOQXHS 0
root@arm:~# echo 'AEOT''ZSVCPP'
AEOTZSVCPP
root@arm:~# MARKER='YFJY''WXCZEM' run 'i2cget -y -f 1 0x4b 0x10'
YFJYWXCZEM0x2d
YFJYWXCZEM 0
root@arm:~# echo 'SUAU''EJJSME'
SUAUEJJSME
root@arm:~# MARKER='BJTX''OFXYPJ' run 'echo 1160000 1160000 > /sys/kernel/mva_tesst/regulators/buck2_set'
BJTXOFXYPJBJTXOFXYPJ 0
root@arm:~# echo 'YFQM''FNMFPX'
YFQMFNMFPX
root@arm:~# MARKER='AKWN''YXEXLX' run 'i2cget -y -f 1 0x4b 0x10'
AKWNYXEXLX0x2e
AKWNYXEXLX 0
root@arm:~# echo 'LXGY''LZUCCX'
LXGYLZUCCX
root@arm:~# MARKER='NNOW''HYFFNY' run 'echo 1170000 1170000 > /sys/kernel/mva_tesst/regulators/buck2_set'
NNOWHYFFNYNNOWHYFFNY 0
root@arm:~# echo 'TQWP''TOAJNS'
TQWPTOAJNS
root@arm:~# MARKER='SXHL''FGTJUX' run 'i2cget -y -f 1 0x4b 0x10'
SXHLFGTJUX0x2f
SXHLFGTJUX 0
root@arm:~# echo 'ANVB''PXAEHH'
ANVBPXAEHH
root@arm:~# MARKER='ANCA''JOTFJA' run 'echo 1180000 1180000 > /sys/kernel/mva_tesst/regulators/buck2_set'
ANCAJOTFJAANCAJOTFJA 0
root@arm:~# echo 'KBJP''SVLCOX'
KBJPSVLCOX
root@arm:~# MARKER='PTAO''TJPJKW' run 'i2cget -y -f 1 0x4b 0x10'
PTAOTJPJKW0x30
PTAOTJPJKW 0
root@arm:~# echo 'BFPN''QLZYVX'
BFPNQLZYVX
root@arm:~# MARKER='GMPM''FQAVBN' run 'echo 1190000 1190000 > /sys/kernel/mva_tesst/regulators/buck2_set'
GMPMFQAVBNGMPMFQAVBN 0
root@arm:~# echo 'LBKB''ZVFCVJ'
LBKBZVFCVJ
root@arm:~# MARKER='GFTQ''AWPGCC' run 'i2cget -y -f 1 0x4b 0x10'
GFTQAWPGCC0x31
GFTQAWPGCC 0
root@arm:~# echo 'ZYSM''MVYHVS'
ZYSMMVYHVS
root@arm:~# MARKER='LQVE''KPWJJH' run 'echo 1200000 1200000 > /sys/kernel/mva_tesst/regulators/buck2_set'
LQVEKPWJJHLQVEKPWJJH 0
root@arm:~# echo 'KNGS''EHKWWA'
KNGSEHKWWA
root@arm:~# MARKER='FBAA''XJACSC' run 'i2cget -y -f 1 0x4b 0x10'
FBAAXJACSC0x32
FBAAXJACSC 0
root@arm:~# echo 'MMYX''AVFTMO'
MMYXAVFTMO
root@arm:~# MARKER='TAAW''VHJPGA' run 'echo 1210000 1210000 > /sys/kernel/mva_tesst/regulators/buck2_set'
TAAWVHJPGATAAWVHJPGA 0
root@arm:~# echo 'CNBS''BGHUAT'
CNBSBGHUAT
root@arm:~# MARKER='LTKY''QQQQWX' run 'i2cget -y -f 1 0x4b 0x10'
LTKYQQQQWX0x33
LTKYQQQQWX 0
root@arm:~# echo 'KBAA''BVGPPP'
KBAABVGPPP
root@arm:~# MARKER='JUSG''YUHNYM' run 'echo 1220000 1220000 > /sys/kernel/mva_tesst/regulators/buck2_set'
JUSGYUHNYMJUSGYUHNYM 0
root@arm:~# echo 'GXHC''MHMVCC'
GXHCMHMVCC
root@arm:~# MARKER='OQOF''FEYPPX' run 'i2cget -y -f 1 0x4b 0x10'
OQOFFEYPPX0x34
OQOFFEYPPX 0
root@arm:~# echo 'MMJL''ZHZOXA'
MMJLZHZOXA
root@arm:~# MARKER='ABTZ''ZAEAFN' run 'echo 1230000 1230000 > /sys/kernel/mva_tesst/regulators/buck2_set'
ABTZZAEAFNABTZZAEAFN 0
root@arm:~# echo 'CGKB''TQWNCC'
CGKBTQWNCC
root@arm:~# MARKER='AQZH''NHTZCG' run 'i2cget -y -f 1 0x4b 0x10'
AQZHNHTZCG0x35
AQZHNHTZCG 0
root@arm:~# echo 'FCFM''EGGSJS'
FCFMEGGSJS
root@arm:~# MARKER='SXNE''WWUOQJ' run 'echo 1240000 1240000 > /sys/kernel/mva_tesst/regulators/buck2_set'
SXNEWWUOQJSXNEWWUOQJ 0
root@arm:~# echo 'UGWY''LOVZUA'
UGWYLOVZUA
root@arm:~# MARKER='QWWK''NUBFHA' run 'i2cget -y -f 1 0x4b 0x10'
QWWKNUBFHA0x36
QWWKNUBFHA 0
root@arm:~# echo 'FZHY''BGAYJG'
FZHYBGAYJG
root@arm:~# MARKER='WNOH''MWMKUJ' run 'echo 1250000 1250000 > /sys/kernel/mva_tesst/regulators/buck2_set'
WNOHMWMKUJWNOHMWMKUJ 0
root@arm:~# echo 'CZSN''TVUVAM'
CZSNTVUVAM
root@arm:~# MARKER='VSKY''OAUXYG' run 'i2cget -y -f 1 0x4b 0x10'
VSKYOAUXYG0x37
VSKYOAUXYG 0
root@arm:~# echo 'GHYB''MLLWPL'
GHYBMLLWPL
root@arm:~# MARKER='HNVX''EBZVHQ' run 'echo 1260000 1260000 > /sys/kernel/mva_tesst/regulators/buck2_set'
HNVXEBZVHQHNVXEBZVHQ 0
root@arm:~# echo 'GXKA''BUPCXT'
GXKABUPCXT
root@arm:~# MARKER='MPMJ''JMJVCP' run 'i2cget -y -f 1 0x4b 0x10'
MPMJJMJVCP0x38
MPMJJMJVCP 0
root@arm:~# echo 'NGWS''AMYEYF'
NGWSAMYEYF
root@arm:~# MARKER='GBHM''AKPEGH' run 'echo 1270000 1270000 > /sys/kernel/mva_tesst/regulators/buck2_set'
GBHMAKPEGHGBHMAKPEGH 0
root@arm:~# echo 'ZYLP''UQJWZT'
ZYLPUQJWZT
root@arm:~# MARKER='BGKE''HAHEHS' run 'i2cget -y -f 1 0x4b 0x10'
BGKEHAHEHS0x39
BGKEHAHEHS 0
root@arm:~# echo 'SWBB''NLCHKX'
SWBBNLCHKX
root@arm:~# MARKER='OVNM''KJLQFN' run 'echo 1280000 1280000 > /sys/kernel/mva_tesst/regulators/buck2_set'
OVNMKJLQFNOVNMKJLQFN 0
root@arm:~# echo 'VKSP''YXGXHO'
VKSPYXGXHO
root@arm:~# MARKER='XMQF''LGVTCG' run 'i2cget -y -f 1 0x4b 0x10'
XMQFLGVTCG0x3a
XMQFLGVTCG 0
root@arm:~# echo 'BKKG''GJHAPE'
BKKGGJHAPE
root@arm:~# MARKER='LKTF''CNQZYY' run 'echo 1290000 1290000 > /sys/kernel/mva_tesst/regulators/buck2_set'
LKTFCNQZYYLKTFCNQZYY 0
root@arm:~# echo 'GBVB''YMQUSX'
GBVBYMQUSX
root@arm:~# MARKER='LOCH''OTTYNV' run 'i2cget -y -f 1 0x4b 0x10'
LOCHOTTYNV0x3b
LOCHOTTYNV 0
root@arm:~# echo 'FAOX''QXQPNM'
FAOXQXQPNM
root@arm:~# MARKER='ENSJ''OMQUKS' run 'echo 1300000 1300000 > /sys/kernel/mva_tesst/regulators/buck2_set'
ENSJOMQUKSENSJOMQUKS 0
root@arm:~# echo 'WHZZ''AKXULK'
WHZZAKXULK
root@arm:~# MARKER='ENLM''LNXQET' run 'i2cget -y -f 1 0x4b 0x10'
ENLMLNXQET0x3c
ENLMLNXQET 0
root@arm:~# echo 'ZOYL''OKWMJQ'
ZOYLOKWMJQ
root@arm:~# MARKER='OOBU''YZNQGE' run 'grep -r -l rohm,bd71847 /proc/device-tree  | sed '"'"'s![^/]*$!!'"'"''
OOBUYZNQGE/proc/device-tree/ocp/interconnect@48000000/segment@0/target-module@2a000/i2c@0/pmic@4b/
OOBUYZNQGE 0
root@arm:~# echo 'QUTS''EEHSHK'
QUTSEEHSHK
root@arm:~# MARKER='LLEZ''SXZMZT' run 'test -f /proc/device-tree/ocp/interconnectt\@48000000/segment\@0/target-module\@2a000/i2c\@0/pmic\@4b/regulators/BUCK3/rohmm,no-regulator-enable-control ;echo $?'
LLEZSXZMZT0
LLEZSXZMZT 0
root@arm:~# echo 'STUE''LYLYEF'
STUELYLYEF
root@arm:~# MARKER='JNNW''ECVHYS' run 'echo 700000 700000 > /sys/kernel/mva_test//regulators/buck3_set'
JNNWECVHYSJNNWECVHYS 0
root@arm:~# echo 'FATS''UJEQKC'
FATSUJEQKC
root@arm:~# MARKER='YJYJ''XUUVAG' run 'i2cget -y -f 1 0x4b 0x14'
YJYJXUUVAG0x00
YJYJXUUVAG 0
root@arm:~# echo 'ZYKL''EWTVGB'
ZYKLEWTVGB
root@arm:~# MARKER='WVNH''MHZKXZ' run 'echo 800000 800000 > /sys/kernel/mva_test//regulators/buck3_set'
WVNHMHZKXZWVNHMHZKXZ 0
root@arm:~# echo 'HFJK''SACSSZ'
HFJKSACSSZ
root@arm:~# MARKER='WEVE''VHZKQJ' run 'i2cget -y -f 1 0x4b 0x14'
WEVEVHZKQJ0x01
WEVEVHZKQJ 0
root@arm:~# echo 'YZUQ''HVTFQV'
YZUQHVTFQV
root@arm:~# MARKER='FYCA''MOHKXU' run 'echo 900000 900000 > /sys/kernel/mva_test//regulators/buck3_set'
FYCAMOHKXUFYCAMOHKXU 0
root@arm:~# echo 'HLHW''SVLPHA'
HLHWSVLPHA
root@arm:~# MARKER='XWLM''XEHVKU' run 'i2cget -y -f 1 0x4b 0x14'
XWLMXEHVKU0x02
XWLMXEHVKU 0
root@arm:~# echo 'XXTA''YESKGU'
XXTAYESKGU
root@arm:~# MARKER='NGJF''VPKZHJ' run 'echo 1000000 1000000 > /sys/kernel/mva_tesst/regulators/buck3_set'
NGJFVPKZHJNGJFVPKZHJ 0
root@arm:~# echo 'WMWP''CJKLWK'
WMWPCJKLWK
root@arm:~# MARKER='MNCK''XVYHFQ' run 'i2cget -y -f 1 0x4b 0x14'
MNCKXVYHFQ0x03
MNCKXVYHFQ 0
root@arm:~# echo 'SEGA''PYYUCT'
SEGAPYYUCT
root@arm:~# MARKER='QSWB''NMZCNY' run 'echo 1050000 1050000 > /sys/kernel/mva_tesst/regulators/buck3_set'
QSWBNMZCNYQSWBNMZCNY 0
root@arm:~# echo 'AUWO''NUGXFO'
AUWONUGXFO
root@arm:~# MARKER='QUUZ''QCFUET' run 'i2cget -y -f 1 0x4b 0x14'
QUUZQCFUET0x04
QUUZQCFUET 0
root@arm:~# echo 'GFWO''MJYGWC'
GFWOMJYGWC
root@arm:~# MARKER='ZFZK''GZZKNW' run 'echo 1100000 1100000 > /sys/kernel/mva_tesst/regulators/buck3_set'
ZFZKGZZKNWZFZKGZZKNW 0
root@arm:~# echo 'QVMG''MWFNJG'
QVMGMWFNJG
root@arm:~# MARKER='WTJA''SWHQZF' run 'i2cget -y -f 1 0x4b 0x14'
WTJASWHQZF0x05
WTJASWHQZF 0
root@arm:~# echo 'EAXE''QPGTZZ'
EAXEQPGTZZ
root@arm:~# MARKER='SMEW''QBYCMW' run 'echo 1200000 1200000 > /sys/kernel/mva_tesst/regulators/buck3_set'
SMEWQBYCMWSMEWQBYCMW 0
root@arm:~# echo 'HBVM''YQWHVQ'
HBVMYQWHVQ
root@arm:~# MARKER='GXWM''QQWJZP' run 'i2cget -y -f 1 0x4b 0x14'
GXWMQQWJZP0x06
GXWMQQWJZP 0
root@arm:~# echo 'ACCT''GXHMUS'
ACCTGXHMUS
root@arm:~# MARKER='SPHH''CZHGGM' run 'echo 1350000 1350000 > /sys/kernel/mva_tesst/regulators/buck3_set'
SPHHCZHGGMSPHHCZHGGM 0
root@arm:~# echo 'EKBM''SPCNYO'
EKBMSPCNYO
root@arm:~# MARKER='QFHA''ETWVPX' run 'i2cget -y -f 1 0x4b 0x14'
QFHAETWVPX0x07
QFHAETWVPX 0
root@arm:~# echo 'PFVX''KNAYNK'
PFVXKNAYNK
root@arm:~# MARKER='XEJZ''FBYKVY' run 'echo 550000 550000 > /sys/kernel/mva_test//regulators/buck3_set'
XEJZFBYKVYXEJZFBYKVY 0
root@arm:~# echo 'ZHJH''OSXYYQ'
ZHJHOSXYYQ
root@arm:~# MARKER='VQYW''HLTOQW' run 'i2cget -y -f 1 0x4b 0x14'
VQYWHLTOQW0x40
VQYWHLTOQW 0
root@arm:~# echo 'PJYZ''GSZUBS'
PJYZGSZUBS
root@arm:~# MARKER='SFZX''XKNUJS' run 'echo 600000 600000 > /sys/kernel/mva_test//regulators/buck3_set'
SFZXXKNUJSSFZXXKNUJS 0
root@arm:~# echo 'WFZB''UWNTZM'
WFZBUWNTZM
root@arm:~# MARKER='LFOM''UOAOFE' run 'i2cget -y -f 1 0x4b 0x14'
LFOMUOAOFE0x41
LFOMUOAOFE 0
root@arm:~# echo 'XOYU''VGVNUU'
XOYUVGVNUU
root@arm:~# MARKER='OCEY''UXUSUU' run 'echo 650000 650000 > /sys/kernel/mva_test//regulators/buck3_set'
OCEYUXUSUUOCEYUXUSUU 0
root@arm:~# echo 'ZLLK''EUZFEB'
ZLLKEUZFEB
root@arm:~# MARKER='FHTK''PAGQYM' run 'i2cget -y -f 1 0x4b 0x14'
FHTKPAGQYM0x42
FHTKPAGQYM 0
root@arm:~# echo 'MGVQ''LXNCHL'
MGVQLXNCHL
root@arm:~# MARKER='YBEQ''MXBEVG' run 'echo 700000 700000 > /sys/kernel/mva_test//regulators/buck3_set'
YBEQMXBEVGYBEQMXBEVG 0
root@arm:~# echo 'JBAT''WBFLZG'
JBATWBFLZG
root@arm:~# MARKER='CGOC''EUTTOH' run 'i2cget -y -f 1 0x4b 0x14'
CGOCEUTTOH0x00
CGOCEUTTOH 0
root@arm:~# echo 'OASZ''NNGLHA'
OASZNNGLHA
root@arm:~# MARKER='OBTC''EUPBQM' run 'echo 750000 750000 > /sys/kernel/mva_test//regulators/buck3_set'
OBTCEUPBQMOBTCEUPBQM 0
root@arm:~# echo 'QEZW''VHPZBX'
QEZWVHPZBX
root@arm:~# MARKER='AQAE''KMFAXN' run 'i2cget -y -f 1 0x4b 0x14'
AQAEKMFAXN0x44
AQAEKMFAXN 0
root@arm:~# echo 'VXMZ''CELBJU'
VXMZCELBJU
root@arm:~# MARKER='SGOY''HUXJVO' run 'echo 800000 800000 > /sys/kernel/mva_test//regulators/buck3_set'
SGOYHUXJVOSGOYHUXJVO 0
root@arm:~# echo 'OBJS''YMABFO'
OBJSYMABFO
root@arm:~# MARKER='SPBY''CTLXAH' run 'i2cget -y -f 1 0x4b 0x14'
SPBYCTLXAH0x01
SPBYCTLXAH 0
root@arm:~# echo 'ZLZF''SNSUNT'
ZLZFSNSUNT
root@arm:~# MARKER='QQST''QXGCOX' run 'echo 850000 850000 > /sys/kernel/mva_test//regulators/buck3_set'
QQSTQXGCOXQQSTQXGCOX 0
root@arm:~# echo 'SCKO''BTMSHJ'
SCKOBTMSHJ
root@arm:~# MARKER='SZAS''GYNJEE' run 'i2cget -y -f 1 0x4b 0x14'
SZASGYNJEE0x46
SZASGYNJEE 0
root@arm:~# echo 'KWJF''SKHSGL'
KWJFSKHSGL
root@arm:~# MARKER='WYEY''KJBOQC' run 'echo 900000 900000 > /sys/kernel/mva_test//regulators/buck3_set'
WYEYKJBOQCWYEYKJBOQC 0
root@arm:~# echo 'XQEN''NPVKBK'
XQENNPVKBK
root@arm:~# MARKER='AXCU''SXKOOC' run 'i2cget -y -f 1 0x4b 0x14'
AXCUSXKOOC0x02
AXCUSXKOOC 0
root@arm:~# echo 'XQCS''GWOFXP'
XQCSGWOFXP
root@arm:~# MARKER='NHSE''SNNXUP' run 'echo 675000 675000 > /sys/kernel/mva_test//regulators/buck3_set'
NHSESNNXUPNHSESNNXUP 0
root@arm:~# echo 'WNUZ''HSCLQV'
WNUZHSCLQV
root@arm:~# MARKER='SHOX''YSMQEO' run 'i2cget -y -f 1 0x4b 0x14'
SHOXYSMQEO0x80
SHOXYSMQEO 0
root@arm:~# echo 'BUCW''UBZWOL'
BUCWUBZWOL
root@arm:~# MARKER='EUFE''NYBOHG' run 'echo 775000 775000 > /sys/kernel/mva_test//regulators/buck3_set'
EUFENYBOHGEUFENYBOHG 0
root@arm:~# echo 'LLHN''MWWMZY'
LLHNMWWMZY
root@arm:~# MARKER='TXZN''FZSZFX' run 'i2cget -y -f 1 0x4b 0x14'
TXZNFZSZFX0x81
TXZNFZSZFX 0
root@arm:~# echo 'UXMB''LVAOZB'
UXMBLVAOZB
root@arm:~# MARKER='LXCN''YUEJBS' run 'echo 875000 875000 > /sys/kernel/mva_test//regulators/buck3_set'
LXCNYUEJBSLXCNYUEJBS 0
root@arm:~# echo 'KKAQ''LKGFCT'
KKAQLKGFCT
root@arm:~# MARKER='AVLH''MTYZXQ' run 'i2cget -y -f 1 0x4b 0x14'
AVLHMTYZXQ0x82
AVLHMTYZXQ 0
root@arm:~# echo 'LPEH''BMSXBH'
LPEHBMSXBH
root@arm:~# MARKER='TWFP''UCGGKW' run 'echo 975000 975000 > /sys/kernel/mva_test//regulators/buck3_set'
TWFPUCGGKWTWFPUCGGKW 0
root@arm:~# echo 'EUQX''POBVGW'
EUQXPOBVGW
root@arm:~# MARKER='BHWA''EZVKNW' run 'i2cget -y -f 1 0x4b 0x14'
BHWAEZVKNW0x83
BHWAEZVKNW 0
root@arm:~# echo 'HAWS''QGQOMJ'
HAWSQGQOMJ
root@arm:~# MARKER='FGTT''MMZOHK' run 'echo 1025000 1025000 > /sys/kernel/mva_tesst/regulators/buck3_set'
FGTTMMZOHKFGTTMMZOHK 0
root@arm:~# echo 'OUOV''SSVWKO'
OUOVSSVWKO
root@arm:~# MARKER='JVWJ''CJUXKQ' run 'i2cget -y -f 1 0x4b 0x14'
JVWJCJUXKQ0x84
JVWJCJUXKQ 0
root@arm:~# echo 'BTCU''VZSOMC'
BTCUVZSOMC
root@arm:~# MARKER='FNQK''UGKQNP' run 'echo 1075000 1075000 > /sys/kernel/mva_tesst/regulators/buck3_set'
FNQKUGKQNPFNQKUGKQNP 0
root@arm:~# echo 'HLAS''WCHXCW'
HLASWCHXCW
root@arm:~# MARKER='AFTS''VNGQON' run 'i2cget -y -f 1 0x4b 0x14'
AFTSVNGQON0x85
AFTSVNGQON 0
root@arm:~# echo 'HVSF''EKJZFJ'
HVSFEKJZFJ
root@arm:~# MARKER='KUZE''JKPTZJ' run 'echo 1175000 1175000 > /sys/kernel/mva_tesst/regulators/buck3_set'
KUZEJKPTZJKUZEJKPTZJ 0
root@arm:~# echo 'WMWU''WUSHJJ'
WMWUWUSHJJ
root@arm:~# MARKER='FGBY''KWYZXV' run 'i2cget -y -f 1 0x4b 0x14'
FGBYKWYZXV0x86
FGBYKWYZXV 0
root@arm:~# echo 'ECVM''ABXWON'
ECVMABXWON
root@arm:~# MARKER='BUJV''CVNXXQ' run 'echo 1325000 1325000 > /sys/kernel/mva_tesst/regulators/buck3_set'
BUJVCVNXXQBUJVCVNXXQ 0
root@arm:~# echo 'JOXN''VTOEMG'
JOXNVTOEMG
root@arm:~# MARKER='YHBP''NYGFCV' run 'i2cget -y -f 1 0x4b 0x14'
YHBPNYGFCV0x87
YHBPNYGFCV 0
root@arm:~# echo 'ELSA''EUNFJL'
ELSAEUNFJL
root@arm:~# MARKER='WSAW''EETYCE' run 'grep -r -l rohm,bd71847 /proc/device-tree  | sed '"'"'s![^/]*$!!'"'"''
WSAWEETYCE/proc/device-tree/ocp/interconnect@48000000/segment@0/target-module@2a000/i2c@0/pmic@4b/
WSAWEETYCE 0
root@arm:~# echo 'ZWGU''VQKVZV'
ZWGUVQKVZV
root@arm:~# MARKER='XWWJ''AAMECL' run 'test -f /proc/device-tree/ocp/interconnectt\@48000000/segment\@0/target-module\@2a000/i2c\@0/pmic\@4b/regulators/BUCK4/roh m,no-regulator-enable-control ;echo $?'
XWWJAAMECL1
XWWJAAMECL 0
root@arm:~# echo 'JNLX''MGFANV'
JNLXMGFANV
root@arm:~# MARKER='ZUFU''AENSHN' run 'i2cget -y -f 1 0x4b 0xa'
ZUFUAENSHN0x02
ZUFUAENSHN 0
root@arm:~# echo 'EYYH''HJHMGW'
EYYHHJHMGW
root@arm:~# MARKER='AXYL''CGEVLZ' run 'echo 3000000 3000000 > /sys/kernel/mva_tesst/regulators/buck4_set'
AXYLCGEVLZAXYLCGEVLZ 0
root@arm:~# echo 'SVAM''AWYHGO'
SVAMAWYHGO
root@arm:~# MARKER='UCPN''YPHWZK' run 'i2cget -y -f 1 0x4b 0x15'
UCPNYPHWZK0x00
UCPNYPHWZK 0
root@arm:~# echo 'UJTT''BTQVQV'
UJTTBTQVQV
root@arm:~# MARKER='GKVE''SGMFBO' run 'echo 3100000 3100000 > /sys/kernel/mva_tesst/regulators/buck4_set'
GKVESGMFBOGKVESGMFBO 0
root@arm:~# echo 'AWWL''FVEFAK'
AWWLFVEFAK
root@arm:~# MARKER='NGLG''NZJKGX' run 'i2cget -y -f 1 0x4b 0x15'
NGLGNZJKGX0x01
NGLGNZJKGX 0
root@arm:~# echo 'VGJF''TPNOHG'
VGJFTPNOHG
root@arm:~# MARKER='YXUU''FXSAKL' run 'echo 3200000 3200000 > /sys/kernel/mva_tesst/regulators/buck4_set'
YXUUFXSAKLYXUUFXSAKL 0
root@arm:~# echo 'XHEV''NEPBZY'
XHEVNEPBZY
root@arm:~# MARKER='PKBF''AZBCMB' run 'i2cget -y -f 1 0x4b 0x15'
PKBFAZBCMB0x02
PKBFAZBCMB 0
root@arm:~# echo 'BCMX''BPGEGM'
BCMXBPGEGM
root@arm:~# MARKER='TATU''MWAXKH' run 'echo 3300000 3300000 > /sys/kernel/mva_tesst/regulators/buck4_set'
TATUMWAXKHTATUMWAXKH 0
root@arm:~# echo 'FVFC''SBPXJK'
FVFCSBPXJK
root@arm:~# MARKER='CJBO''OBPOEE' run 'i2cget -y -f 1 0x4b 0x15'
CJBOOBPOEE0x03
CJBOOBPOEE 0
root@arm:~# echo 'GUAG''QHXMUJ'
GUAGQHXMUJ
root@arm:~# MARKER='QEOL''XAGFHO' run 'echo 2600000 2600000 > /sys/kernel/mva_tesst/regulators/buck4_set'
QEOLXAGFHOQEOLXAGFHO 0
root@arm:~# echo 'EBWL''EHUXUY'
EBWLEHUXUY
root@arm:~# MARKER='MMVG''ZVVBSO' run 'i2cget -y -f 1 0x4b 0x15'
MMVGZVVBSO0x40
MMVGZVVBSO 0
root@arm:~# echo 'CPTH''YVSNTT'
CPTHYVSNTT
root@arm:~# MARKER='XNVA''NEUKFC' run 'echo 2700000 2700000 > /sys/kernel/mva_tesst/regulators/buck4_set'
XNVANEUKFCXNVANEUKFC 0
root@arm:~# echo 'UQZH''KFPAPE'
UQZHKFPAPE
root@arm:~# MARKER='KTTL''LNUHUO' run 'i2cget -y -f 1 0x4b 0x15'
KTTLLNUHUO0x41
KTTLLNUHUO 0
root@arm:~# echo 'JXEB''UXYXET'
JXEBUXYXET
root@arm:~# MARKER='WXQJ''MCHLQO' run 'echo 2800000 2800000 > /sys/kernel/mva_tesst/regulators/buck4_set'
WXQJMCHLQOWXQJMCHLQO 0
root@arm:~# echo 'NWPH''LVHVNF'
NWPHLVHVNF
root@arm:~# MARKER='QTLC''JJEHTU' run 'i2cget -y -f 1 0x4b 0x15'
QTLCJJEHTU0x42
QTLCJJEHTU 0
root@arm:~# echo 'OWOO''WKALFX'
OWOOWKALFX
root@arm:~# MARKER='FNJQ''CESLAS' run 'echo 2900000 2900000 > /sys/kernel/mva_tesst/regulators/buck4_set'
FNJQCESLASFNJQCESLAS 0
root@arm:~# echo 'LOOK''QLPAEJ'
LOOKQLPAEJ
root@arm:~# MARKER='GUJS''JNFPXO' run 'i2cget -y -f 1 0x4b 0x15'
GUJSJNFPXO0x43
GUJSJNFPXO 0
root@arm:~# echo 'JGVZ''ZSUVNO'
JGVZZSUVNO
root@arm:~# MARKER='GSFX''MLXQFW' run 'grep -r -l rohm,bd71847 /proc/device-tree  | sed '"'"'s![^/]*$!!'"'"''
GSFXMLXQFW/proc/device-tree/ocp/interconnect@48000000/segment@0/target-module@2a000/i2c@0/pmic@4b/
GSFXMLXQFW 0
root@arm:~# echo 'OBUF''OUUHZP'
OBUFOUUHZP
root@arm:~# MARKER='UNGX''JULCGB' run 'test -f /proc/device-tree/ocp/interconnectt\@48000000/segment\@0/target-module\@2a000/i2c\@0/pmic\@4b/regulators/BUCK5/rohmm,no-regulator-enable-control ;echo $?'
UNGXJULCGB1
UNGXJULCGB 0
root@arm:~# echo 'NQJO''XFALVW'
NQJOXFALVW
root@arm:~# MARKER='ZYPB''QLFFTU' run 'i2cget -y -f 1 0x4b 0xb'
ZYPBQLFFTU0x02
ZYPBQLFFTU 0
root@arm:~# echo 'PHPE''SKOJWH'
PHPESKOJWH
root@arm:~# MARKER='SFFN''AAXNBP' run 'echo 1605000 1605000 > /sys/kernel/mva_tesst/regulators/buck5_set'
SFFNAAXNBPSFFNAAXNBP 0
root@arm:~# echo 'BYLG''BXEHNY'
BYLGBXEHNY
root@arm:~# MARKER='BJOB''ELPFKY' run 'i2cget -y -f 1 0x4b 0x16'
BJOBELPFKY0x00
BJOBELPFKY 0
root@arm:~# echo 'UVKV''SHEOXO'
UVKVSHEOXO
root@arm:~# MARKER='MAMW''ECBFBM' run 'echo 1695000 1695000 > /sys/kernel/mva_tesst/regulators/buck5_set'
MAMWECBFBMMAMWECBFBM 0
root@arm:~# echo 'OKKB''JTATNK'
OKKBJTATNK
root@arm:~# MARKER='QQNX''TXEAQL' run 'i2cget -y -f 1 0x4b 0x16'
QQNXTXEAQL0x01
QQNXTXEAQL 0
root@arm:~# echo 'ALCJ''VNEECW'
ALCJVNEECW
root@arm:~# MARKER='MGQO''EKLTQM' run 'echo 1755000 1755000 > /sys/kernel/mva_tesst/regulators/buck5_set'
MGQOEKLTQMMGQOEKLTQM 0
root@arm:~# echo 'KUFA''VGCQCU'
KUFAVGCQCU
root@arm:~# MARKER='GYMJ''HEPVUB' run 'i2cget -y -f 1 0x4b 0x16'
GYMJHEPVUB0x02
GYMJHEPVUB 0
root@arm:~# echo 'CCXW''MGNVWC'
CCXWMGNVWC
root@arm:~# MARKER='HPAX''OQFSJB' run 'echo 1800000 1800000 > /sys/kernel/mva_tesst/regulators/buck5_set'
HPAXOQFSJBHPAXOQFSJB 0
root@arm:~# echo 'PUPC''WUCVUU'
PUPCWUCVUU
root@arm:~# MARKER='MSNN''CUBAEX' run 'i2cget -y -f 1 0x4b 0x16'
MSNNCUBAEX0x03
MSNNCUBAEX 0
root@arm:~# echo 'FUJC''JXOCAH'
FUJCJXOCAH
root@arm:~# MARKER='TTLF''BVGVHB' run 'echo 1845000 1845000 > /sys/kernel/mva_tesst/regulators/buck5_set'
TTLFBVGVHBTTLFBVGVHB 0
root@arm:~# echo 'SMLV''ZULOJM'
SMLVZULOJM
root@arm:~# MARKER='UAYU''PCXYMP' run 'i2cget -y -f 1 0x4b 0x16'
UAYUPCXYMP0x04
UAYUPCXYMP 0
root@arm:~# echo 'ONSK''VLOZGA'
ONSKVLOZGA
root@arm:~# MARKER='OCCU''VQMTFU' run 'echo 1905000 1905000 > /sys/kernel/mva_tesst/regulators/buck5_set'
OCCUVQMTFUOCCUVQMTFU 0
root@arm:~# echo 'UHEL''OHSGHN'
UHELOHSGHN
root@arm:~# MARKER='HJAG''QQKBQV' run 'i2cget -y -f 1 0x4b 0x16'
HJAGQQKBQV0x05
HJAGQQKBQV 0
root@arm:~# echo 'ABQV''SVBLMQ'
ABQVSVBLMQ
root@arm:~# MARKER='PKBS''GEZYHA' run 'echo 1950000 1950000 > /sys/kernel/mva_tesst/regulators/buck5_set'
PKBSGEZYHAPKBSGEZYHA 0
root@arm:~# echo 'OOWQ''WTCXSV'
OOWQWTCXSV
root@arm:~# MARKER='TOFQ''OPKBFT' run 'i2cget -y -f 1 0x4b 0x16'
TOFQOPKBFT0x06
TOFQOPKBFT 0
root@arm:~# echo 'OZYP''VZFOEK'
OZYPVZFOEK
root@arm:~# MARKER='WNCJ''QTQSOW' run 'echo 1995000 1995000 > /sys/kernel/mva_tesst/regulators/buck5_set'
WNCJQTQSOWWNCJQTQSOW 0
root@arm:~# echo 'WZAC''EPKYOQ'
WZACEPKYOQ
root@arm:~# MARKER='VLGP''AWPGAC' run 'i2cget -y -f 1 0x4b 0x16'
VLGPAWPGAC0x07
VLGPAWPGAC 0
root@arm:~# echo 'ZGKH''KWOSON'
ZGKHKWOSON
root@arm:~# MARKER='VNLV''TXWPAQ' run 'grep -r -l rohm,bd71847 /proc/device-tree  | sed '"'"'s![^/]*$!!'"'"''
VNLVTXWPAQ/proc/device-tree/ocp/interconnect@48000000/segment@0/target-module@2a000/i2c@0/pmic@4b/
VNLVTXWPAQ 0
root@arm:~# echo 'ZJOQ''XZMTOT'
ZJOQXZMTOT
root@arm:~# MARKER='SZEA''XMHOTX' run 'test -f /proc/device-tree/ocp/interconnectt\@48000000/segment\@0/target-module\@2a000/i2c\@0/pmic\@4b/regulators/BUCK6/rohmm,no-regulator-enable-control ;echo $?'
SZEAXMHOTX1
SZEAXMHOTX 0
root@arm:~# echo 'BNCG''ZNHAZE'
BNCGZNHAZE
root@arm:~# MARKER='YOQZ''FHVXTH' run 'i2cget -y -f 1 0x4b 0xc'
YOQZFHVXTH0x02
YOQZFHVXTH 0
root@arm:~# echo 'FULG''OKPHUM'
FULGOKPHUM
root@arm:~# MARKER='JUKP''WBTBCT' run 'echo 800000 800000 > /sys/kernel/mva_test//regulators/buck6_set'
JUKPWBTBCTJUKPWBTBCT 0
root@arm:~# echo 'WHWY''NQQKQO'
WHWYNQQKQO
root@arm:~# MARKER='KTFC''NNBCTN' run 'i2cget -y -f 1 0x4b 0x17'
KTFCNNBCTN0x00
KTFCNNBCTN 0
root@arm:~# echo 'SVHY''CKWLGC'
SVHYCKWLGC
root@arm:~# MARKER='CGTA''SJGYNG' run 'echo 810000 810000 > /sys/kernel/mva_test//regulators/buck6_set'
CGTASJGYNGCGTASJGYNG 0
root@arm:~# echo 'MMJS''WNMBWQ'
MMJSWNMBWQ
root@arm:~# MARKER='CBFQ''SONSXU' run 'i2cget -y -f 1 0x4b 0x17'
CBFQSONSXU0x01
CBFQSONSXU 0
root@arm:~# echo 'EYJE''OPXCBG'
EYJEOPXCBG
root@arm:~# MARKER='JCZU''FMCTZT' run 'echo 820000 820000 > /sys/kernel/mva_test//regulators/buck6_set'
JCZUFMCTZTJCZUFMCTZT 0
root@arm:~# echo 'EUSO''GSEFZL'
EUSOGSEFZL
root@arm:~# MARKER='XQEV''QTXABH' run 'i2cget -y -f 1 0x4b 0x17'
XQEVQTXABH0x02
XQEVQTXABH 0
root@arm:~# echo 'UGFV''GPNMYW'
UGFVGPNMYW
root@arm:~# MARKER='KLJO''PNXVNF' run 'echo 830000 830000 > /sys/kernel/mva_test//regulators/buck6_set'
KLJOPNXVNFKLJOPNXVNF 0
root@arm:~# echo 'KLOE''TXOEGM'
KLOETXOEGM
root@arm:~# MARKER='VYTC''MNQZXU' run 'i2cget -y -f 1 0x4b 0x17'
VYTCMNQZXU0x03
VYTCMNQZXU 0
root@arm:~# echo 'VNLH''KQJKPG'
VNLHKQJKPG
root@arm:~# MARKER='BPVU''UAZZVH' run 'echo 840000 840000 > /sys/kernel/mva_test//regulators/buck6_set'
BPVUUAZZVHBPVUUAZZVH 0
root@arm:~# echo 'HQXS''VSKLVK'
HQXSVSKLVK
root@arm:~# MARKER='FEPO''KZKYXJ' run 'i2cget -y -f 1 0x4b 0x17'
FEPOKZKYXJ0x04
FEPOKZKYXJ 0
root@arm:~# echo 'GTNX''VZTASC'
GTNXVZTASC
root@arm:~# MARKER='LAVE''PMHJLN' run 'echo 850000 850000 > /sys/kernel/mva_test//regulators/buck6_set'
LAVEPMHJLNLAVEPMHJLN 0
root@arm:~# echo 'NXPX''STOMNX'
NXPXSTOMNX
root@arm:~# MARKER='GTGK''SOJULM' run 'i2cget -y -f 1 0x4b 0x17'
GTGKSOJULM0x05
GTGKSOJULM 0
root@arm:~# echo 'NTKV''HKYXYL'
NTKVHKYXYL
root@arm:~# MARKER='YSUF''HOFQMP' run 'echo 860000 860000 > /sys/kernel/mva_test//regulators/buck6_set'
YSUFHOFQMPYSUFHOFQMP 0
root@arm:~# echo 'QVOF''KCCVEC'
QVOFKCCVEC
root@arm:~# MARKER='WMAV''UBOKJQ' run 'i2cget -y -f 1 0x4b 0x17'
WMAVUBOKJQ0x06
WMAVUBOKJQ 0
root@arm:~# echo 'CWJU''KBEZYP'
CWJUKBEZYP
root@arm:~# MARKER='SVGP''LXFBQU' run 'echo 870000 870000 > /sys/kernel/mva_test//regulators/buck6_set'
SVGPLXFBQUSVGPLXFBQU 0
root@arm:~# echo 'LQOJ''CXJQCF'
LQOJCXJQCF
root@arm:~# MARKER='JGFE''JAXFXX' run 'i2cget -y -f 1 0x4b 0x17'
JGFEJAXFXX0x07
JGFEJAXFXX 0
root@arm:~# echo 'EUBS''LQYGGF'
EUBSLQYGGF
root@arm:~# MARKER='BJUY''PPTXSA' run 'echo 880000 880000 > /sys/kernel/mva_test//regulators/buck6_set'
BJUYPPTXSABJUYPPTXSA 0
root@arm:~# echo 'TOVQ''UOPTET'
TOVQUOPTET
root@arm:~# MARKER='MACT''VSGKGW' run 'i2cget -y -f 1 0x4b 0x17'
MACTVSGKGW0x08
MACTVSGKGW 0
root@arm:~# echo 'TSCB''UWAFHU'
TSCBUWAFHU
root@arm:~# MARKER='ALVG''BTUQGA' run 'echo 890000 890000 > /sys/kernel/mva_test//regulators/buck6_set'
ALVGBTUQGAALVGBTUQGA 0
root@arm:~# echo 'PAOO''HMTQJN'
PAOOHMTQJN
root@arm:~# MARKER='GSHX''SBLMQM' run 'i2cget -y -f 1 0x4b 0x17'
GSHXSBLMQM0x09
GSHXSBLMQM 0
root@arm:~# echo 'OMZF''YZEVQV'
OMZFYZEVQV
root@arm:~# MARKER='HKML''YVGKGQ' run 'echo 900000 900000 > /sys/kernel/mva_test//regulators/buck6_set'
HKMLYVGKGQHKMLYVGKGQ 0
root@arm:~# echo 'JOVL''EZMTTK'
JOVLEZMTTK
root@arm:~# MARKER='XWGO''OKQVPC' run 'i2cget -y -f 1 0x4b 0x17'
XWGOOKQVPC0x0a
XWGOOKQVPC 0
root@arm:~# echo 'JMNF''QUNFPW'
JMNFQUNFPW
root@arm:~# MARKER='BSCL''UGVHNQ' run 'echo 910000 910000 > /sys/kernel/mva_test//regulators/buck6_set'
BSCLUGVHNQBSCLUGVHNQ 0
root@arm:~# echo 'FGTO''XOGOPN'
FGTOXOGOPN
root@arm:~# MARKER='KJXC''ZYUSXV' run 'i2cget -y -f 1 0x4b 0x17'
KJXCZYUSXV0x0b
KJXCZYUSXV 0
root@arm:~# echo 'JVJU''KUKMXW'
JVJUKUKMXW
root@arm:~# MARKER='GOVA''WBQKJJ' run 'echo 920000 920000 > /sys/kernel/mva_test//regulators/buck6_set'
GOVAWBQKJJGOVAWBQKJJ 0
root@arm:~# echo 'OEOZ''YNEQHC'
OEOZYNEQHC
root@arm:~# MARKER='BUNC''NOLOKU' run 'i2cget -y -f 1 0x4b 0x17'
BUNCNOLOKU0x0c
BUNCNOLOKU 0
root@arm:~# echo 'VUNF''MLTYFW'
VUNFMLTYFW
root@arm:~# MARKER='VSXY''WZVOBF' run 'echo 930000 930000 > /sys/kernel/mva_test//regulators/buck6_set'
VSXYWZVOBFVSXYWZVOBF 0
root@arm:~# echo 'TGKC''JKPUMW'
TGKCJKPUMW
root@arm:~# MARKER='THCE''ASQLNK' run 'i2cget -y -f 1 0x4b 0x17'
THCEASQLNK0x0d
THCEASQLNK 0
root@arm:~# echo 'SCAL''AJBWQT'
SCALAJBWQT
root@arm:~# MARKER='VCBN''PJOZWA' run 'echo 940000 940000 > /sys/kernel/mva_test//regulators/buck6_set'
VCBNPJOZWAVCBNPJOZWA 0
root@arm:~# echo 'LBBO''VWBXFM'
LBBOVWBXFM
root@arm:~# MARKER='WGHA''UCHQGE' run 'i2cget -y -f 1 0x4b 0x17'
WGHAUCHQGE0x0e
WGHAUCHQGE 0
root@arm:~# echo 'HFHW''WSMWWZ'
HFHWWSMWWZ
root@arm:~# MARKER='AAFH''PWKKVB' run 'echo 950000 950000 > /sys/kernel/mva_test//regulators/buck6_set'
AAFHPWKKVBAAFHPWKKVB 0
root@arm:~# echo 'KVPP''XVSZOW'
KVPPXVSZOW
root@arm:~# MARKER='XCTX''CXTGPZ' run 'i2cget -y -f 1 0x4b 0x17'
XCTXCXTGPZ0x0f
XCTXCXTGPZ 0
root@arm:~# echo 'XNOS''UUTUNK'
XNOSUUTUNK
root@arm:~# MARKER='XGUT''BYUXLO' run 'echo 960000 960000 > /sys/kernel/mva_test//regulators/buck6_set'
XGUTBYUXLOXGUTBYUXLO 0
root@arm:~# echo 'LYEH''TMQGOC'
LYEHTMQGOC
root@arm:~# MARKER='QXWZ''EBNYCQ' run 'i2cget -y -f 1 0x4b 0x17'
QXWZEBNYCQ0x10
QXWZEBNYCQ 0
root@arm:~# echo 'BPJP''ZWSOQX'
BPJPZWSOQX
root@arm:~# MARKER='YYKS''PCVWMZ' run 'echo 970000 970000 > /sys/kernel/mva_test//regulators/buck6_set'
YYKSPCVWMZYYKSPCVWMZ 0
root@arm:~# echo 'YLAU''SUCXGE'
YLAUSUCXGE
root@arm:~# MARKER='GUVM''WOKZZM' run 'i2cget -y -f 1 0x4b 0x17'
GUVMWOKZZM0x11
GUVMWOKZZM 0
root@arm:~# echo 'XNUK''NWAESW'
XNUKNWAESW
root@arm:~# MARKER='JALS''EXUEEJ' run 'echo 980000 980000 > /sys/kernel/mva_test//regulators/buck6_set'
JALSEXUEEJJALSEXUEEJ 0
root@arm:~# echo 'EMEK''LEKOGO'
EMEKLEKOGO
root@arm:~# MARKER='ANSC''AGQJXW' run 'i2cget -y -f 1 0x4b 0x17'
ANSCAGQJXW0x12
ANSCAGQJXW 0
root@arm:~# echo 'SAYP''AONMVX'
SAYPAONMVX
root@arm:~# MARKER='YMVE''OVVLEP' run 'echo 990000 990000 > /sys/kernel/mva_test//regulators/buck6_set'
YMVEOVVLEPYMVEOVVLEP 0
root@arm:~# echo 'OJXW''SBEONV'
OJXWSBEONV
root@arm:~# MARKER='QZUZ''UHNGOP' run 'i2cget -y -f 1 0x4b 0x17'
QZUZUHNGOP0x13
QZUZUHNGOP 0
root@arm:~# echo 'EOOY''QENNEQ'
EOOYQENNEQ
root@arm:~# MARKER='BQOC''VSFUHK' run 'echo 1000000 1000000 > /sys/kernel/mva_tesst/regulators/buck6_set'
BQOCVSFUHKBQOCVSFUHK 0
root@arm:~# echo 'ECCS''VOFLBK'
ECCSVOFLBK
root@arm:~# MARKER='AMMH''CFCSSA' run 'i2cget -y -f 1 0x4b 0x17'
AMMHCFCSSA0x14
AMMHCFCSSA 0
root@arm:~# echo 'ASFC''GZLOWS'
ASFCGZLOWS
root@arm:~# MARKER='MLOY''KKCBLN' run 'echo 1010000 1010000 > /sys/kernel/mva_tesst/regulators/buck6_set'
MLOYKKCBLNMLOYKKCBLN 0
root@arm:~# echo 'YNGT''FEQZTN'
YNGTFEQZTN
root@arm:~# MARKER='CNPQ''VTSLCA' run 'i2cget -y -f 1 0x4b 0x17'
CNPQVTSLCA0x15
CNPQVTSLCA 0
root@arm:~# echo 'QXOT''CTJQPF'
QXOTCTJQPF
root@arm:~# MARKER='ESLH''JTXKVU' run 'echo 1020000 1020000 > /sys/kernel/mva_tesst/regulators/buck6_set'
ESLHJTXKVUESLHJTXKVU 0
root@arm:~# echo 'YFZX''CKBFPY'
YFZXCKBFPY
root@arm:~# MARKER='SBMO''WNAYPA' run 'i2cget -y -f 1 0x4b 0x17'
SBMOWNAYPA0x16
SBMOWNAYPA 0
root@arm:~# echo 'WZUO''HNUVXF'
WZUOHNUVXF
root@arm:~# MARKER='OMAN''QZQQXX' run 'echo 1030000 1030000 > /sys/kernel/mva_tesst/regulators/buck6_set'
OMANQZQQXXOMANQZQQXX 0
root@arm:~# echo 'PESA''XLYQFX'
PESAXLYQFX
root@arm:~# MARKER='GFZK''GBNGXW' run 'i2cget -y -f 1 0x4b 0x17'
GFZKGBNGXW0x17
GFZKGBNGXW 0
root@arm:~# echo 'BCQN''MZPNWB'
BCQNMZPNWB
root@arm:~# MARKER='NQGK''MOLCSC' run 'echo 1040000 1040000 > /sys/kernel/mva_tesst/regulators/buck6_set'
NQGKMOLCSCNQGKMOLCSC 0
root@arm:~# echo 'EBPT''MNQCVU'
EBPTMNQCVU
root@arm:~# MARKER='XSTM''KGSOOG' run 'i2cget -y -f 1 0x4b 0x17'
XSTMKGSOOG0x18
XSTMKGSOOG 0
root@arm:~# echo 'PZZO''AYGNPC'
PZZOAYGNPC
root@arm:~# MARKER='CPUW''QYJPEB' run 'echo 1050000 1050000 > /sys/kernel/mva_tesst/regulators/buck6_set'
CPUWQYJPEBCPUWQYJPEB 0
root@arm:~# echo 'QTSL''FVACLW'
QTSLFVACLW
root@arm:~# MARKER='KQOH''VOYATY' run 'i2cget -y -f 1 0x4b 0x17'
KQOHVOYATY0x19
KQOHVOYATY 0
root@arm:~# echo 'VJSW''BLNGAO'
VJSWBLNGAO
root@arm:~# MARKER='QQTA''CQOWNM' run 'echo 1060000 1060000 > /sys/kernel/mva_tesst/regulators/buck6_set'
QQTACQOWNMQQTACQOWNM 0
root@arm:~# echo 'PSOT''TLZWVV'
PSOTTLZWVV
root@arm:~# MARKER='WZML''UHMKXG' run 'i2cget -y -f 1 0x4b 0x17'
WZMLUHMKXG0x1a
WZMLUHMKXG 0
root@arm:~# echo 'KWWF''USFCWN'
KWWFUSFCWN
root@arm:~# MARKER='HSHA''AGZJWF' run 'echo 1070000 1070000 > /sys/kernel/mva_tesst/regulators/buck6_set'
HSHAAGZJWFHSHAAGZJWF 0
root@arm:~# echo 'XYMX''VPCQOC'
XYMXVPCQOC
root@arm:~# MARKER='HEMV''BUUVPO' run 'i2cget -y -f 1 0x4b 0x17'
HEMVBUUVPO0x1b
HEMVBUUVPO 0
root@arm:~# echo 'BTMN''AJVXEL'
BTMNAJVXEL
root@arm:~# MARKER='UVOO''WWYVVA' run 'echo 1080000 1080000 > /sys/kernel/mva_tesst/regulators/buck6_set'
UVOOWWYVVAUVOOWWYVVA 0
root@arm:~# echo 'BCBY''SUCWKF'
BCBYSUCWKF
root@arm:~# MARKER='NBAS''VUNUNB' run 'i2cget -y -f 1 0x4b 0x17'
NBASVUNUNB0x1c
NBASVUNUNB 0
root@arm:~# echo 'FHEX''QSXQTN'
FHEXQSXQTN
root@arm:~# MARKER='GKAQ''TJTSPC' run 'echo 1090000 1090000 > /sys/kernel/mva_tesst/regulators/buck6_set'
GKAQTJTSPCGKAQTJTSPC 0
root@arm:~# echo 'SLES''FTKOTM'
SLESFTKOTM
root@arm:~# MARKER='TCGQ''VOMJMG' run 'i2cget -y -f 1 0x4b 0x17'
TCGQVOMJMG0x1d
TCGQVOMJMG 0
root@arm:~# echo 'SGVL''UVGUWQ'
SGVLUVGUWQ
root@arm:~# MARKER='BPYB''OCHWVH' run 'echo 1100000 1100000 > /sys/kernel/mva_tesst/regulators/buck6_set'
BPYBOCHWVHBPYBOCHWVH 0
root@arm:~# echo 'UZLE''UAASVE'
UZLEUAASVE
root@arm:~# MARKER='QLYL''KWENXE' run 'i2cget -y -f 1 0x4b 0x17'
QLYLKWENXE0x1e
QLYLKWENXE 0
root@arm:~# echo 'WOKY''MMWNNW'
WOKYMMWNNW
root@arm:~# MARKER='JCFG''XHJSLB' run 'echo 1110000 1110000 > /sys/kernel/mva_tesst/regulators/buck6_set'
JCFGXHJSLBJCFGXHJSLB 0
root@arm:~# echo 'YBMX''LLXEGY'
YBMXLLXEGY
root@arm:~# MARKER='ZEPB''CTQVHV' run 'i2cget -y -f 1 0x4b 0x17'
ZEPBCTQVHV0x1f
ZEPBCTQVHV 0
root@arm:~# echo 'KKWO''UUMMYW'
KKWOUUMMYW
root@arm:~# MARKER='XBBX''EEOMXV' run 'echo 1120000 1120000 > /sys/kernel/mva_tesst/regulators/buck6_set'
XBBXEEOMXVXBBXEEOMXV 0
root@arm:~# echo 'SZKZ''WJNAWU'
SZKZWJNAWU
root@arm:~# MARKER='VAMF''ZOFSGS' run 'i2cget -y -f 1 0x4b 0x17'
VAMFZOFSGS0x20
VAMFZOFSGS 0
root@arm:~# echo 'SWCX''NEBFYB'
SWCXNEBFYB
root@arm:~# MARKER='KMOB''NTXTAL' run 'echo 1130000 1130000 > /sys/kernel/mva_tesst/regulators/buck6_set'
KMOBNTXTALKMOBNTXTAL 0
root@arm:~# echo 'FBPU''BJPQFE'
FBPUBJPQFE
root@arm:~# MARKER='NHCA''SUYTTJ' run 'i2cget -y -f 1 0x4b 0x17'
NHCASUYTTJ0x21
NHCASUYTTJ 0
root@arm:~# echo 'HTSN''PFMOUZ'
HTSNPFMOUZ
root@arm:~# MARKER='LJTB''JMGUMQ' run 'echo 1140000 1140000 > /sys/kernel/mva_tesst/regulators/buck6_set'
LJTBJMGUMQLJTBJMGUMQ 0
root@arm:~# echo 'HMVA''QBJZCQ'
HMVAQBJZCQ
root@arm:~# MARKER='NXNF''EOBKNG' run 'i2cget -y -f 1 0x4b 0x17'
NXNFEOBKNG0x22
NXNFEOBKNG 0
root@arm:~# echo 'MQEQ''GOOAUN'
MQEQGOOAUN
root@arm:~# MARKER='ATWJ''WALGGF' run 'echo 1150000 1150000 > /sys/kernel/mva_tesst/regulators/buck6_set'
ATWJWALGGFATWJWALGGF 0
root@arm:~# echo 'MEQM''XMAJBZ'
MEQMXMAJBZ
root@arm:~# MARKER='WOEN''HQXFCC' run 'i2cget -y -f 1 0x4b 0x17'
WOENHQXFCC0x23
WOENHQXFCC 0
root@arm:~# echo 'LXJO''SJAULE'
LXJOSJAULE
root@arm:~# MARKER='TZGS''OHHVJE' run 'echo 1160000 1160000 > /sys/kernel/mva_tesst/regulators/buck6_set'
TZGSOHHVJETZGSOHHVJE 0
root@arm:~# echo 'VHHL''VHSOQS'
VHHLVHSOQS
root@arm:~# MARKER='ZXNO''OKGJVU' run 'i2cget -y -f 1 0x4b 0x17'
ZXNOOKGJVU0x24
ZXNOOKGJVU 0
root@arm:~# echo 'LGSY''YONPEB'
LGSYYONPEB
root@arm:~# MARKER='GFGZ''ZUGTYA' run 'echo 1170000 1170000 > /sys/kernel/mva_tesst/regulators/buck6_set'
GFGZZUGTYAGFGZZUGTYA 0
root@arm:~# echo 'WMQS''OWPQKZ'
WMQSOWPQKZ
root@arm:~# MARKER='NMHT''QGNHZM' run 'i2cget -y -f 1 0x4b 0x17'
NMHTQGNHZM0x25
NMHTQGNHZM 0
root@arm:~# echo 'NPNY''VUVCJF'
NPNYVUVCJF
root@arm:~# MARKER='BKBK''LEFPSH' run 'echo 1180000 1180000 > /sys/kernel/mva_tesst/regulators/buck6_set'
BKBKLEFPSHBKBKLEFPSH 0
root@arm:~# echo 'YNOK''HZWGEF'
YNOKHZWGEF
root@arm:~# MARKER='NJCO''HSTJAZ' run 'i2cget -y -f 1 0x4b 0x17'
NJCOHSTJAZ0x26
NJCOHSTJAZ 0
root@arm:~# echo 'PAWV''CSTJYH'
PAWVCSTJYH
root@arm:~# MARKER='OTVG''OUULWM' run 'echo 1190000 1190000 > /sys/kernel/mva_tesst/regulators/buck6_set'
OTVGOUULWMOTVGOUULWM 0
root@arm:~# echo 'WQMQ''NEXGAM'
WQMQNEXGAM
root@arm:~# MARKER='NJLN''WPZGCU' run 'i2cget -y -f 1 0x4b 0x17'
NJLNWPZGCU0x27
NJLNWPZGCU 0
root@arm:~# echo 'XEKY''ZOJKFZ'
XEKYZOJKFZ
root@arm:~# MARKER='KSUV''GPFZEQ' run 'echo 1200000 1200000 > /sys/kernel/mva_tesst/regulators/buck6_set'
KSUVGPFZEQKSUVGPFZEQ 0
root@arm:~# echo 'PYWK''XNTJVU'
PYWKXNTJVU
root@arm:~# MARKER='LUWT''TFJPPQ' run 'i2cget -y -f 1 0x4b 0x17'
LUWTTFJPPQ0x28
LUWTTFJPPQ 0
root@arm:~# echo 'MGOC''SJOTLM'
MGOCSJOTLM
root@arm:~# MARKER='PSPV''KYPPLL' run 'echo 1210000 1210000 > /sys/kernel/mva_tesst/regulators/buck6_set'
PSPVKYPPLLPSPVKYPPLL 0
root@arm:~# echo 'HQFX''PFYBJE'
HQFXPFYBJE
root@arm:~# MARKER='BXVT''HUVFUY' run 'i2cget -y -f 1 0x4b 0x17'
BXVTHUVFUY0x29
BXVTHUVFUY 0
root@arm:~# echo 'YFTM''MGSZHA'
YFTMMGSZHA
root@arm:~# MARKER='YVLW''YJJJNB' run 'echo 1220000 1220000 > /sys/kernel/mva_tesst/regulators/buck6_set'
YVLWYJJJNBYVLWYJJJNB 0
root@arm:~# echo 'XZNQ''BFNEQZ'
XZNQBFNEQZ
root@arm:~# MARKER='GCTN''VTAUJZ' run 'i2cget -y -f 1 0x4b 0x17'
GCTNVTAUJZ0x2a
GCTNVTAUJZ 0
root@arm:~# echo 'XGAJ''WHONGO'
XGAJWHONGO
root@arm:~# MARKER='CPLQ''CNVCZH' run 'echo 1230000 1230000 > /sys/kernel/mva_tesst/regulators/buck6_set'
CPLQCNVCZHCPLQCNVCZH 0
root@arm:~# echo 'XBFB''ZQXELO'
XBFBZQXELO
root@arm:~# MARKER='QBHL''GLNFTY' run 'i2cget -y -f 1 0x4b 0x17'
QBHLGLNFTY0x2b
QBHLGLNFTY 0
root@arm:~# echo 'CYQN''QHVZTF'
CYQNQHVZTF
root@arm:~# MARKER='JPCW''BNZUTT' run 'echo 1240000 1240000 > /sys/kernel/mva_tesst/regulators/buck6_set'
JPCWBNZUTTJPCWBNZUTT 0
root@arm:~# echo 'SAKB''KWXUFE'
SAKBKWXUFE
root@arm:~# MARKER='UXAA''EGJNHB' run 'i2cget -y -f 1 0x4b 0x17'
UXAAEGJNHB0x2c
UXAAEGJNHB 0
root@arm:~# echo 'KWOH''UOOTQY'
KWOHUOOTQY
root@arm:~# MARKER='GHFQ''LAXXNO' run 'echo 1250000 1250000 > /sys/kernel/mva_tesst/regulators/buck6_set'
GHFQLAXXNOGHFQLAXXNO 0
root@arm:~# echo 'WOLJ''PJVYNS'
WOLJPJVYNS
root@arm:~# MARKER='JSPN''BLJMLX' run 'i2cget -y -f 1 0x4b 0x17'
JSPNBLJMLX0x2d
JSPNBLJMLX 0
root@arm:~# echo 'OACT''QMEGKV'
OACTQMEGKV
root@arm:~# MARKER='TPNV''HVUEFN' run 'echo 1260000 1260000 > /sys/kernel/mva_tesst/regulators/buck6_set'
TPNVHVUEFNTPNVHVUEFN 0
root@arm:~# echo 'PHOZ''OYUONJ'
PHOZOYUONJ
root@arm:~# MARKER='UGPC''OVGYFH' run 'i2cget -y -f 1 0x4b 0x17'
UGPCOVGYFH0x2e
UGPCOVGYFH 0
root@arm:~# echo 'XVWS''YOLBMG'
XVWSYOLBMG
root@arm:~# MARKER='OBXA''TSEUVU' run 'echo 1270000 1270000 > /sys/kernel/mva_tesst/regulators/buck6_set'
OBXATSEUVUOBXATSEUVU 0
root@arm:~# echo 'MMFO''VAPAAN'
MMFOVAPAAN
root@arm:~# MARKER='LQGX''JGQQMP' run 'i2cget -y -f 1 0x4b 0x17'
LQGXJGQQMP0x2f
LQGXJGQQMP 0
root@arm:~# echo 'JSAU''SGNUML'
JSAUSGNUML
root@arm:~# MARKER='TMGM''SJAOFH' run 'echo 1280000 1280000 > /sys/kernel/mva_tesst/regulators/buck6_set'
TMGMSJAOFHTMGMSJAOFH 0
root@arm:~# echo 'VSTA''VVXPPF'
VSTAVVXPPF
root@arm:~# MARKER='ZMHK''FMJGWB' run 'i2cget -y -f 1 0x4b 0x17'
ZMHKFMJGWB0x30
ZMHKFMJGWB 0
root@arm:~# echo 'QTMK''PYBKTJ'
QTMKPYBKTJ
root@arm:~# MARKER='ZYCM''ZGYEGP' run 'echo 1290000 1290000 > /sys/kernel/mva_tesst/regulators/buck6_set'
ZYCMZGYEGPZYCMZGYEGP 0
root@arm:~# echo 'JXWU''NVEYWQ'
JXWUNVEYWQ
root@arm:~# MARKER='GCKW''SYZVEB' run 'i2cget -y -f 1 0x4b 0x17'
GCKWSYZVEB0x31
GCKWSYZVEB 0
root@arm:~# echo 'GYYZ''OUYSBT'
GYYZOUYSBT
root@arm:~# MARKER='OSZX''QQEAMS' run 'echo 1300000 1300000 > /sys/kernel/mva_tesst/regulators/buck6_set'
OSZXQQEAMSOSZXQQEAMS 0
root@arm:~# echo 'CUBY''NMQWMG'
CUBYNMQWMG
root@arm:~# MARKER='XPNE''XVTFNE' run 'i2cget -y -f 1 0x4b 0x17'
XPNEXVTFNE0x32
XPNEXVTFNE 0
root@arm:~# echo 'XJGG''CVZCLV'
XJGGCVZCLV
root@arm:~# MARKER='TMAB''ALHBSU' run 'echo 1310000 1310000 > /sys/kernel/mva_tesst/regulators/buck6_set'
TMABALHBSUTMABALHBSU 0
root@arm:~# echo 'UGBY''FVAFYW'
UGBYFVAFYW
root@arm:~# MARKER='ZOGM''ZYOMEO' run 'i2cget -y -f 1 0x4b 0x17'
ZOGMZYOMEO0x33
ZOGMZYOMEO 0
root@arm:~# echo 'ZGLP''WJOTWB'
ZGLPWJOTWB
root@arm:~# MARKER='NGJP''FXTBUK' run 'echo 1320000 1320000 > /sys/kernel/mva_tesst/regulators/buck6_set'
NGJPFXTBUKNGJPFXTBUK 0
root@arm:~# echo 'EHKP''JUXAAC'
EHKPJUXAAC
root@arm:~# MARKER='USEV''ECTXQU' run 'i2cget -y -f 1 0x4b 0x17'
USEVECTXQU0x34
USEVECTXQU 0
root@arm:~# echo 'SBOF''XWKVEM'
SBOFXWKVEM
root@arm:~# MARKER='FBNL''HLKEKP' run 'echo 1330000 1330000 > /sys/kernel/mva_tesst/regulators/buck6_set'
FBNLHLKEKPFBNLHLKEKP 0
root@arm:~# echo 'ABPK''SFHTJB'
ABPKSFHTJB
root@arm:~# MARKER='KQGH''AUFZBH' run 'i2cget -y -f 1 0x4b 0x17'
KQGHAUFZBH0x35
KQGHAUFZBH 0
root@arm:~# echo 'LFPC''KCMMZF'
LFPCKCMMZF
root@arm:~# MARKER='QETO''KNZPXW' run 'echo 1340000 1340000 > /sys/kernel/mva_tesst/regulators/buck6_set'
QETOKNZPXWQETOKNZPXW 0
root@arm:~# echo 'AAGC''KGQTPO'
AAGCKGQTPO
root@arm:~# MARKER='YZPW''MPHGTB' run 'i2cget -y -f 1 0x4b 0x17'
YZPWMPHGTB0x36
YZPWMPHGTB 0
root@arm:~# echo 'SXYC''NGHXMC'
SXYCNGHXMC
root@arm:~# MARKER='AMEG''MYXXTG' run 'echo 1350000 1350000 > /sys/kernel/mva_tesst/regulators/buck6_set'
AMEGMYXXTGAMEGMYXXTG 0
root@arm:~# echo 'NXOY''BYOHSP'
NXOYBYOHSP
root@arm:~# MARKER='ZNUF''KSJCHU' run 'i2cget -y -f 1 0x4b 0x17'
ZNUFKSJCHU0x37
ZNUFKSJCHU 0
root@arm:~# echo 'HSAK''HUZZHL'
HSAKHUZZHL
root@arm:~# MARKER='EHBH''OOHAQS' run 'echo 1360000 1360000 > /sys/kernel/mva_tesst/regulators/buck6_set'
EHBHOOHAQSEHBHOOHAQS 0
root@arm:~# echo 'QUJP''VXYMPY'
QUJPVXYMPY
root@arm:~# MARKER='LQKZ''LEFFZQ' run 'i2cget -y -f 1 0x4b 0x17'
LQKZLEFFZQ0x38
LQKZLEFFZQ 0
root@arm:~# echo 'CGPL''YEBYNQ'
CGPLYEBYNQ
root@arm:~# MARKER='ECBA''VNKVAG' run 'echo 1370000 1370000 > /sys/kernel/mva_tesst/regulators/buck6_set'
ECBAVNKVAGECBAVNKVAG 0
root@arm:~# echo 'EJPC''SJMYXS'
EJPCSJMYXS
root@arm:~# MARKER='JKFG''BLHCBT' run 'i2cget -y -f 1 0x4b 0x17'
JKFGBLHCBT0x39
JKFGBLHCBT 0
root@arm:~# echo 'BUEG''QOMTYY'
BUEGQOMTYY
root@arm:~# MARKER='PTCB''VNMCFQ' run 'echo 1380000 1380000 > /sys/kernel/mva_tesst/regulators/buck6_set'
PTCBVNMCFQPTCBVNMCFQ 0
root@arm:~# echo 'BKHJ''HXPEMO'
BKHJHXPEMO
root@arm:~# MARKER='LQAB''FTKLXO' run 'i2cget -y -f 1 0x4b 0x17'
LQABFTKLXO0x3a
LQABFTKLXO 0
root@arm:~# echo 'ENTB''TVBKUP'
ENTBTVBKUP
root@arm:~# MARKER='KXHV''JWPMLB' run 'echo 1390000 1390000 > /sys/kernel/mva_tesst/regulators/buck6_set'
KXHVJWPMLBKXHVJWPMLB 0
root@arm:~# echo 'CHXS''BXLBUV'
CHXSBXLBUV
root@arm:~# MARKER='QCMJ''JTNXUE' run 'i2cget -y -f 1 0x4b 0x17'
QCMJJTNXUE0x3b
QCMJJTNXUE 0
root@arm:~# echo 'FGYZ''VYPWVF'
FGYZVYPWVF
root@arm:~# MARKER='OPLJ''UQPMSX' run 'echo 1400000 1400000 > /sys/kernel/mva_tesst/regulators/buck6_set'
OPLJUQPMSXOPLJUQPMSX 0
root@arm:~# echo 'SUYY''KTSNGG'
SUYYKTSNGG
root@arm:~# MARKER='MMCY''NQAAEA' run 'i2cget -y -f 1 0x4b 0x17'
MMCYNQAAEA0x3c
MMCYNQAAEA 0
root@arm:~# echo 'NOPS''CQFVKJ'
NOPSCQFVKJ
root@arm:~# MARKER='NGQX''UNNSVF' run 'grep -r -l rohm,bd71847 /proc/device-tree  | sed '"'"'s![^/]*$!!'"'"''
NGQXUNNSVF/proc/device-tree/ocp/interconnect@48000000/segment@0/target-module@2a000/i2c@0/pmic@4b/
NGQXUNNSVF 0
root@arm:~# echo 'PZMO''LBYNAM'
PZMOLBYNAM
root@arm:~# MARKER='TCYJ''XWMMOG' run 'test -f /proc/device-tree/ocp/interconnectt\@48000000/segment\@0/target-module\@2a000/i2c\@0/pmic\@4b/regulators/LDO1/rohm,,no-regulator-enable-control ;echo $?'
TCYJXWMMOG1
TCYJXWMMOG 0
root@arm:~# echo 'CNZS''YLAVVJ'
CNZSYLAVVJ
root@arm:~# MARKER='JCPN''SWWOWG' run 'i2cget -y -f 1 0x4b 0x18'
JCPNSWWOWG0xa2
JCPNSWWOWG 0
root@arm:~# echo 'CXPW''LVSWUX'
CXPWLVSWUX
